# GHZ S RI R 50
0.2	-0.00021819311712259	-0.000217538238351763	0.949522080659499	-0.307759996384137	0.949295790657199	-0.307902017848906	-6.616521133284E-05	-5.03043647726622E-05
0.3	-0.000473242574545815	-3.68319938888842E-06	0.889723820329576	-0.451510028518039	0.889586340300679	-0.451563312749603	-0.000292456942719526	-0.000215417533447544
0.4	-0.000444571456252074	0.000160554454217362	0.808370204189236	-0.58395889796632	0.808410385425525	-0.584098582652967	-0.000285123552413349	-0.000187167448441145
0.5	-0.00055626851886693	0.000527569184976162	0.707592766634618	-0.702538682342229	0.707482106347631	-0.702634632947436	-0.00017279892588199	-0.000105755132063868
0.6	-0.000388462765637562	0.000556282868296856	0.589540441657931	-0.803673163306259	0.589350762174937	-0.803676100771079	-0.000112824092449195	-0.000360114053446493
0.7	-0.000469549238248167	0.000857820468168192	0.457424731335838	-0.885154766845552	0.45735065953556	-0.885189181806584	-0.000190049759818416	-0.000591822930149343
0.8	-0.000308225513486572	0.000887187028440896	0.314289332581605	-0.945372705225168	0.314170701827357	-0.945285939548344	-0.000363579847282145	-0.000735342479156554
0.9	-0.000373977935897465	0.00118403397009226	0.163507001810832	-0.98251144454882	0.163357899420015	-0.982468564457188	-0.000699583074437307	-0.0009209340547052
1	-0.000271101943897039	0.00158256851578027	0.00878702608582897	-0.995522306254018	0.00866889805316177	-0.995492603549416	-0.000943873035140593	-0.000849818671999547
1.1	0.000463819265083206	0.00163405385530544	-0.145096814301435	-0.984711348331216	-0.145744628942248	-0.984676234840407	-0.00107720404666896	-0.0010690847789825
1.2	0.00106188626749062	0.000450619993978997	-0.297031213826088	-0.9499944911728	-0.297024241868239	-0.950050199628752	-0.00115019820844918	-0.001347184507419
1.3	0.00149387485444448	-0.00146345469548376	-0.44087687253938	-0.892097579306456	-0.440969023252236	-0.892122043392322	-0.00048908252319373	-0.00122541068114509
1.4	0.00140783535483551	-0.00374878610076046	-0.573795790813277	-0.812644278662196	-0.573869595633549	-0.812544649974512	0.000474182214922194	-0.00163130120360498
1.5	0.00139124822317828	-0.0047558118444503	-0.692878485338661	-0.713553768537601	-0.692903090315439	-0.713481693125997	0.00154831250981316	-0.0023010570349322
1.6	0.00067324988246866	-0.00543683793434603	-0.79497702778667	-0.597675836360088	-0.795406701706906	-0.597174932062137	0.000930666690527178	-0.00299517598321959
1.7	0.000157816125513796	-0.00503885536912701	-0.87797864830902	-0.466725367212688	-0.87828300915481	-0.466235078374609	0.000347859951480329	-0.00294031242993734
1.8	-0.000327727872686995	-0.00472041608238667	-0.93977640304849	-0.324202122911543	-0.939791857436398	-0.324192646302311	-0.000366419780908957	-0.00309310806798245
1.9	-0.000624885212773824	-0.00407207524739358	-0.978634722420064	-0.174263841217446	-0.97867928242967	-0.174316596878633	-0.00104196752735027	-0.00302363590792007
2	-0.00032923267366244	-0.00377321378103645	-0.993739416460477	-0.0207213379271161	-0.993833882291105	-0.0200712656235847	-0.00153016077549003	-0.00287706773889447
2.1	-0.000666507256038319	-0.00430073299700647	-0.984534201951297	0.135304626742879	-0.984634312489608	0.134820161263558	-0.00230033212879952	-0.00289173030679524
2.2	-0.00172568617871936	-0.00440293042077238	-0.951491150844682	0.285785836138352	-0.951529800858087	0.285919717796855	-0.00301837408944563	-0.00252280536694467
2.3	-0.0026877692081577	-0.00403301774751717	-0.895442807364205	0.429939675313909	-0.895278776364849	0.430027987410293	-0.00361747694338373	-0.00217724812079185
2.4	-0.00382745683603791	-0.00331626398296281	-0.817200519886772	0.564295987789257	-0.817492661980858	0.563834168274375	-0.0042034107409594	-0.0018268105275862
2.5	-0.00399387363527989	-0.00189015892962494	-0.719570595740115	0.684342676602447	-0.719873687196981	0.683962324031504	-0.00421067706780672	-0.00158126979261495
2.6	-0.00388477415059044	-0.00156950763635608	-0.604734384147187	0.787089977793541	-0.604655233845929	0.78703043907988	-0.00436986754488087	-0.00173377624101367
2.7	-0.00385651146466697	-0.00115485485498021	-0.475085887163094	0.871136579428143	-0.475056384355086	0.871150622343377	-0.00480763818923975	-0.00156442281819088
2.8	-0.00376355692733362	-0.000880015781624727	-0.334195397166546	0.934143308116281	-0.334077054871416	0.934227601431849	-0.00491774587256039	-0.00106613366508522
2.9	-0.0030140531538738	-0.000580099001694207	-0.184960958408426	0.974479078498614	-0.184956399630756	0.974533854654387	-0.00455742053941943	-0.000208628973706122
3	-0.00219913741610435	-0.000715847969302491	-0.0311469520494577	0.990879364508791	-0.031211089233683	0.99095089995968	-0.00358561789698283	0.000504653404656099
3.1	-0.00145750851921262	-0.000897434367120843	0.121949532438353	0.98358653079032	0.122597356907992	0.983666563471922	-0.00255564239187855	0.00108191400962581
3.2	-0.00095131540609035	-0.00121350012026986	0.273710448690994	0.952471879571385	0.273700568532022	0.952511464639482	-0.00157108092174606	0.00122190512915351
3.3	-0.000176666057060556	-0.00159048743430577	0.418888303942227	0.897972359235618	0.418266634400123	0.898254821866064	-0.000379498911380771	0.00109382662451367
3.4	0.000324503012554478	-0.00204168199149654	0.552516788285926	0.822121405360847	0.552432148189995	0.822236751049555	0.000811138530896027	0.00053439442774391
3.5	0.00130852609124602	-0.00291729026119419	0.672926997457237	0.726551899553647	0.672941251383256	0.726578048712255	0.00173738500161281	-0.0006078213444633
3.6	0.00102689749561883	-0.0041121416745556	0.777209523998444	0.61375670996619	0.777630647491109	0.613362331767337	0.00179314849804193	-0.00170138472301201
3.7	0.000812017069955512	-0.00488254362916832	0.863341022136861	0.484916047896677	0.863348234030888	0.485042451849193	0.0018644345154817	-0.00254279961480269
3.8	0.000211536403983022	-0.00554907895947255	0.927850213505473	0.34489955969291	0.927878889284839	0.345082609702754	0.00151906428370276	-0.00364516874102171
3.9	-9.23462936304278E-05	-0.00592740880983985	0.970036493850353	0.196248816548203	0.969939173616687	0.196836222215724	0.000527785363972044	-0.00483464728442336
4	-0.000188533526150705	-0.0063132152435969	0.988865198768795	0.0440719510071702	0.988947189919079	0.044114774539231	-0.000519127588706486	-0.00581112986697285
4.1	-0.000816374863629631	-0.00755574565058973	0.983541248058338	-0.110232974169722	0.983479324738273	-0.110168894275796	-0.00243010972851344	-0.0066686971173193
4.2	-0.00242751742812408	-0.00811116689991316	0.953842042079976	-0.262048749788756	0.954036428812876	-0.261480642390692	-0.00442645938796029	-0.00661614098081932
4.3	-0.00384938691173491	-0.00843941693945329	0.901736621515729	-0.406150291819706	0.901737528096161	-0.406131793550134	-0.00630124101823124	-0.00635529637440653
4.4	-0.00566701089038954	-0.0081561401015913	0.827825305551673	-0.540999234037966	0.8277455528015	-0.540983180271381	-0.00825902554399425	-0.0056021438445898
4.5	-0.00661610084837027	-0.00741050157151387	0.733591357209079	-0.663181719157799	0.733468390654542	-0.663035634504061	-0.00977994359413638	-0.00452750272815965
4.6	-0.00767719421385048	-0.00719309245095745	0.621489348291303	-0.768535777512565	0.62147530543483	-0.768306807543057	-0.0114667266247072	-0.00350999268486851
4.7	-0.00901926632220621	-0.00704768721153913	0.494651241647408	-0.855493619181305	0.494768525053119	-0.855249712003178	-0.0132837264387858	-0.00203096796360812
4.8	-0.0104824565336434	-0.00620924623258402	0.355649841642954	-0.921656663156698	0.355943251788551	-0.921469108597182	-0.014474172172654	9.79273515283832E-05
4.9	-0.0113351473406009	-0.00533673098358987	0.208137608443822	-0.965178071991568	0.208396901691872	-0.965127692450352	-0.0147381372604363	0.0027161616267438
5	-0.0117846453920657	-0.00443034643322262	0.0562593430494497	-0.985030346925159	0.0564173775161341	-0.984903120724481	-0.01386541752505	0.00538881249453149
5.1	-0.0121323738487482	-0.00390594526947383	-0.0965901318535729	-0.981862786845233	-0.0962698341954292	-0.981800638502649	-0.0122319042515026	0.00787430361303339
5.2	-0.0125329257047103	-0.00278799354700949	-0.247762191824265	-0.955080698194953	-0.247336059171874	-0.955202913847652	-0.0100325682327997	0.0101092789791636
5.3	-0.0126230515270785	-0.00171139923811291	-0.392859688940753	-0.905050490294644	-0.392571882323089	-0.905394403686748	-0.00723084718120244	0.0117614949570118
5.4	-0.0121993240627978	-1.02595189101883E-05	-0.52841777426218	-0.83301999206449	-0.528282487179871	-0.833308825540986	-0.00428181324011427	0.0127404792717334
5.5	-0.0109991193972594	0.000507387640023902	-0.650811232455606	-0.741111415968763	-0.650761599993101	-0.741424366929005	-0.00146134164938946	0.0125984627451896
5.6	-0.0113345184489958	0.000993388113011482	-0.757991975460805	-0.631332947593886	-0.75800547021458	-0.631502872283326	0.000469714622801901	0.0125187147148176
5.7	-0.0117260291171839	0.00221142539483746	-0.846797166168283	-0.505960645977924	-0.846773533839904	-0.506135320272121	0.00279424619803137	0.0125480382186271
5.8	-0.0118018670271093	0.00406858380971693	-0.914741153241425	-0.368350302197277	-0.914785953871531	-0.368641673695519	0.00515893763267263	0.0119708540789612
5.9	-0.0114668394981448	0.00612162796964708	-0.96067379681759	-0.222339804972576	-0.960793876086605	-0.222387623255779	0.00710712684378266	0.0109369035102367
6	-0.00955999032426956	0.00811974256993925	-0.983947973664545	-0.0707656528440429	-0.983944897745646	-0.0708341941753986	0.00874552637871787	0.00946451899375191
6.1	-0.00847285450268136	0.00838182017923275	-0.982786179939907	0.0829685355691391	-0.982789361673493	0.0828654268802755	0.00933437392138859	0.0077920505889918
6.2	-0.00785974569543834	0.0093990798799684	-0.957785097881811	0.234351771682589	-0.95783302012035	0.234170479291332	0.0100037314661598	0.00651165055809748
6.3	-0.00710406572754034	0.0102288469702908	-0.909906811811898	0.379909391777971	-0.90993102514375	0.379780999400925	0.0108270937079481	0.00469718704184864
6.4	-0.00611316040443118	0.010941328703045	-0.840153049396344	0.516493301592712	-0.840144182518014	0.516280171563719	0.0112306632237467	0.0021374253764114
6.5	-0.00494154183503119	0.0111013580638378	-0.749573449018895	0.640895545198477	-0.749673702495499	0.640723505874606	0.0110311704280187	-0.000846291619824137
6.6	-0.00377804105508611	0.0112334278684531	-0.640885870248056	0.748999829426001	-0.64103392141135	0.748854094277214	0.0100709037419149	-0.00352599816190566
6.7	-0.00245053324605031	0.0111946131265908	-0.517079024868869	0.839249141319778	-0.51719978665133	0.839092184786826	0.00839640452864527	-0.00586396508693634
6.8	-0.000855945116397057	0.0109810044927478	-0.380610921237505	0.909319660892295	-0.380821517113467	0.909244556748479	0.00611074401607101	-0.00750247710653238
6.9	0.000700566691673835	0.0101699953041224	-0.23477855628227	0.957355973661066	-0.235028752618612	0.957351963806744	0.00380994795753477	-0.00831379591959796
7	0.00215162855513168	0.00890782111183986	-0.0834117675920227	0.981724046580591	-0.0836693848743908	0.981693792026345	0.0014950292806993	-0.00881989809392324
7.1	0.00277064932549468	0.00758541358028646	0.069393219815577	0.982876911143	0.0691870740222594	0.982864539080625	-0.000839940707639781	-0.00847341852236278
7.2	0.00339818817282921	0.00641231291643091	0.221031222663417	0.960356724996355	0.220776406050272	0.960400273763113	-0.00263093276384456	-0.00749180170621838
7.3	0.0034721509945632	0.00502078905108046	0.367344434392656	0.914417247838645	0.367104608131784	0.914507402009658	-0.00415937753694085	-0.00617843381267682
7.4	0.00341455275917924	0.00392881920527227	0.50457391736256	0.846135372984839	0.504355895781779	0.846296517799098	-0.00540249339079424	-0.00453105798114926
7.5	0.00321368108024071	0.00261367150135333	0.629268675798068	0.757996556149453	0.6291086028782	0.758167639994126	-0.00596302673228533	-0.00262252606043793
7.6	0.00251708813182214	0.00141680988921864	0.739661894327291	0.651491385272145	0.739446491668379	0.651651449703937	-0.00590068027919233	-0.000961511588260435
7.7	0.00143261327020958	0.000928179490174434	0.831788204747446	0.528780627644063	0.831636934546616	0.528974862549201	-0.00540214647460176	0.00064389177645648
7.8	0.00069769578355093	0.00113882376058147	0.90378162386807	0.393308390416241	0.90366036796699	0.393529322133593	-0.00436875085818153	0.00182009658634078
7.9	0.000112682974711692	0.00203110594801805	0.953793063100687	0.248680009103255	0.95375201372882	0.248905002872404	-0.00330579852811389	0.0026774991882828
8	0.00143773542485105	0.00280155517009495	0.981438900638054	0.0977908791622736	0.98150846421199	0.0980829183476408	-0.00226316003764656	0.00306304890686693
8.1	0.00160692958218591	0.00203665635055943	0.984763093775682	-0.0560336448851071	0.984886454427141	-0.0557622530750908	-0.00203412759188467	0.00325749494950483
8.2	0.00118999328071624	0.00187154644561411	0.964124777001946	-0.208122261008848	0.964189838704888	-0.20782628768851	-0.00176212620282573	0.00391672366378143
8.3	0.000427366002428424	0.00227752189585661	0.920292702011846	-0.355232405630051	0.920429547805058	-0.354976112326745	-0.00111968189438988	0.00452243175562871
8.4	-7.46935652990738E-05	0.00336057854177657	0.854307564431736	-0.494014274436365	0.854518804614577	-0.493813845554632	-0.000229450739254513	0.00493624722024883
8.5	0.000718181690718378	0.00520375960613397	0.767038496700554	-0.621147504014943	0.767154069662768	-0.621021322995001	0.0011812731849703	0.00503755606748357
8.6	0.00234119084192648	0.00511123677704975	0.660979779942108	-0.732366169038055	0.661176753473679	-0.732180372633946	0.00224399315777384	0.00434056012165684
8.7	0.00294911805825806	0.00486344193958284	0.539351037072929	-0.825967426707885	0.53963255887862	-0.825857518430691	0.0031288862234953	0.00383349484263491
8.8	0.00370203028238417	0.00455021553602436	0.404701812998514	-0.899819288474726	0.404907786034777	-0.899764404575656	0.00392601397121266	0.00305883590952052
8.9	0.00430043486844362	0.00428408285328127	0.259829935655236	-0.951898869785041	0.260071529994743	-0.951757992253952	0.00484511720934299	0.00221140307614872
9	0.00584298157792327	0.00378546817563869	0.108759510662594	-0.980030549879572	0.109121496740655	-0.980000116329783	0.00597597156331935	0.00101819946908819
9.1	0.00730329584907018	0.0023585768110759	-0.0441383754526923	-0.985158794143846	-0.0437858649309893	-0.985172573301787	0.00680326943097306	-0.000628466882599476
9.2	0.00867414091171543	0.000477660065226581	-0.196687515950477	-0.966485543732144	-0.196331406761359	-0.966555482803351	0.00744164239042816	-0.00229334404113722
9.3	0.00960183977543774	-0.00164123822492465	-0.344465479208876	-0.924214111566482	-0.34410806270682	-0.924277788805213	0.0076823366870672	-0.00384869902082843
9.4	0.0103136217202054	-0.00404315487416013	-0.483543301300626	-0.859336737940213	-0.48321962718605	-0.859483997140067	0.00759554564348979	-0.00524319019936902
9.5	0.0106107750699193	-0.00738205639933186	-0.610566673041285	-0.774237888255849	-0.610360044867995	-0.774374742890499	0.0069689093430389	-0.00654077229794574
9.6	0.00835137776869946	-0.0109285042567057	-0.723827400681917	-0.67027504247728	-0.723553876506488	-0.670459392778731	0.00553434787070091	-0.00701185812791996
9.7	0.00525956853061723	-0.0124530276643068	-0.819153201220556	-0.549674562336432	-0.818906002355021	-0.549943622053397	0.00474332949958527	-0.00706848206498401
9.8	0.0020934561458428	-0.0130749539929346	-0.894517897958855	-0.415825961152746	-0.894307982142571	-0.416100772480933	0.00400614588921292	-0.00714981958384863
9.9	-0.00105923752344407	-0.0120484306431396	-0.948194364803427	-0.272185202962101	-0.948081002996712	-0.272514695332662	0.00344593760628101	-0.00711743948289071
10	-0.00233651005857001	-0.0110251796100241	-0.979741132290504	-0.121710697870436	-0.979659938545638	-0.122089982376638	0.00302320110930798	-0.00732971831512055
10.1	-0.00489147823647987	-0.0108945952532219	-0.986610877785492	0.0324982443899945	-0.986590371215987	0.0320191814662851	0.00186292759730903	-0.00728359027225421
10.2	-0.00769666477840915	-0.00945129799886858	-0.969499758253077	0.185399555742232	-0.969484291705579	0.184948654637349	0.00137238433221731	-0.00677933928708943
10.3	-0.0101810547945997	-0.00691371785567072	-0.928925598076782	0.333825198029362	-0.929060784185002	0.333283459471269	0.00112449562897052	-0.00687733725413207
10.4	-0.0117886288338011	-0.00390473494983039	-0.865861034241027	0.474248758749054	-0.866126585455183	0.473711575932573	0.000896637167402308	-0.00758206502256817
10.5	-0.0119433934147174	-0.000316724980541361	-0.781139960475392	0.603408847165028	-0.781423532334251	0.603021262553239	0.000616179674960913	-0.00895023411827063
10.6	-0.0111106693603627	0.00176237341889001	-0.677487280937938	0.716796977199281	-0.677914442944984	0.716452943662701	-0.000646598264863362	-0.0103759750640985
10.7	-0.0104979635170163	0.0040202622899503	-0.558069170944324	0.813095943027994	-0.558481537776945	0.812807703899299	-0.00221897349174016	-0.0110099777059975
10.8	-0.00932869130425788	0.00598075248172017	-0.424927644620023	0.889814455834216	-0.425439066979959	0.889585638721128	-0.00370217803161159	-0.0111625700785474
10.9	-0.00775708973529835	0.00813492465666131	-0.281307017894	0.944937632897126	-0.281795649044662	0.944887376852319	-0.00516814090252732	-0.0109803168379479
11	-0.0051766411416641	0.00934340519561524	-0.13104501929186	0.976362945664396	-0.131591719830262	0.976359841500314	-0.00619292186737804	-0.0106870833110618
11.1	-0.00264061297441054	0.0102133706312549	0.0217676559601875	0.984811195671205	0.0211381452140688	0.984895347630162	-0.00705708295168826	-0.010231401744707
11.2	0.000267824815768092	0.0102702876171631	0.174369885010629	0.969506646858011	0.173850685074496	0.969710928933635	-0.00748585431141787	-0.00985133533879007
11.3	0.00319031707143101	0.00991321493611588	0.322707168561142	0.930518858324635	0.322277915034654	0.930782590739262	-0.00760680720226203	-0.00943340164392934
11.4	0.00614331308668874	0.00894038739782243	0.46310330281332	0.868822049075004	0.462639530175885	0.869083217629464	-0.00769630147403826	-0.00900442970254673
11.5	0.00948878938668121	0.00687118422531935	0.591792291691864	0.786634448418135	0.591434965101271	0.787053435487645	-0.00801109201018682	-0.00893577171873442
11.6	0.0108913149654472	0.00346568961118824	0.706993510648744	0.68537279927101	0.706727673613404	0.685854455944973	-0.00885507331328403	-0.00832581244472943
11.7	0.0115327951967982	0.00105839600203917	0.804876853822221	0.567124754648328	0.804638797792806	0.567547930936746	-0.00912941777696715	-0.0076017871173219
11.8	0.0115817863355675	-0.00138011454669902	0.882999457937914	0.435028024967298	0.882816901790089	0.435581399246647	-0.00948731179150509	-0.00723225083929258
11.9	0.0117185587119724	-0.00274866919698895	0.939624430504204	0.292962041546442	0.939587840489077	0.293506834898082	-0.00984486591484287	-0.00683568878653661
12	0.0124163842726137	-0.00493694349268587	0.974299612300724	0.143633598297919	0.974289013343991	0.144114110086169	-0.0106378602830213	-0.00685460616455314
12.1	0.0116012744025897	-0.00864543285373491	0.984447651209459	-0.00996797773199489	0.984424907537914	-0.00949411013080298	-0.012328474134221	-0.00668693263882765
12.2	0.00892777538318449	-0.011421380037477	0.970516181037921	-0.162792163750547	0.970624909005634	-0.16235478942415	-0.014086807252116	-0.00532392394108374
12.3	0.00563619284093358	-0.0127870858279031	0.93312657498765	-0.311280921494827	0.933314045010446	-0.310923172578168	-0.0153939627707152	-0.00339435319214706
12.4	0.00187429343022862	-0.0128051011807532	0.87368053803251	-0.452386283683976	0.873815207450159	-0.45201147932195	-0.0161245784934244	-0.000970644773657759
12.5	-0.000144378503822163	-0.011208580080141	0.792054913022937	-0.582880000060472	0.79251582035115	-0.58248948507892	-0.0157695218807214	0.00144616699366492
