# GHZ S RI R 50
0.2	-0.000229523355283286	0.000149659067816277	0.948380628367361	-0.308135844851613	0.948154457314635	-0.308277567461817	-1.87240650640536E-05	0.000250373515933731
0.3	-0.000282375830811215	0.000392857949860427	0.88819917870813	-0.451728514442837	0.888061825144877	-0.451781609428303	-2.75814980948771E-05	3.74273668054765E-05
0.4	-8.66168883760276E-06	0.00042322559634087	0.806468930811383	-0.583759578788891	0.806508911928395	-0.583899069597256	0.00020135085685252	-0.000143165495760316
0.5	-0.000325093243119494	0.000357037743188064	0.705770923434131	-0.701613436602079	0.705660418638425	-0.701709130482334	9.26592220476754E-05	-0.000506167882521941
0.6	-0.000451375240774382	0.000746421081562373	0.58791603334654	-0.80256945488937	0.587726704133045	-0.802572261876487	-7.4594606121549E-05	-0.00047165658912761
0.7	-0.000371632286324641	0.00122627864372541	0.455820981517268	-0.883619788453623	0.455747040961092	-0.883654077351719	-8.29910817391865E-07	-0.000673209888027376
0.8	-3.75586897873967E-05	0.0013589070452855	0.312966289294812	-0.943313951317216	0.312847993654677	-0.943227319976203	-0.000101029691464308	-0.000861453736942032
0.9	0.000372982531429989	0.00164670293684937	0.162780820501508	-0.980059114154572	0.162632111593694	-0.980016296369434	-0.000200315033276077	-0.00115433343356541
1	0.000599478620654117	0.000941141600546023	0.00855945219830943	-0.99325459815061	0.00844159966285944	-0.993224938532611	-0.000667204293827355	-0.00195363294341799
1.1	0.000234538689619003	0.00114168068656677	-0.145178369442144	-0.982106398875449	-0.145824498267356	-0.982071076216073	-0.00181273847180608	-0.00158085655357783
1.2	0.000671155057479018	0.000518852804329982	-0.296409126494957	-0.947192525894759	-0.296402188134196	-0.947248075981842	-0.00175738064217645	-0.00104459339530219
1.3	0.00119377847235103	-0.000764198263190062	-0.439560147329687	-0.889449562244286	-0.439652023999713	-0.889473954297715	-0.000553564084726447	-0.000263421227406842
1.4	0.00155754691229937	-0.00280241992742948	-0.572019009222738	-0.810381285563006	-0.572092615497931	-0.810281955497169	0.00124359936640725	-0.000732579932371519
1.5	0.00113815259908753	-0.00343363935384975	-0.690843843551098	-0.711236214377607	-0.690868361112888	-0.711164358344137	0.00222828163312805	-0.00149786283626499
1.6	0.00146603043799099	-0.00363810573299119	-0.791914342932027	-0.595719256655834	-0.792342590617984	-0.59522029688325	0.00249524050343179	-0.00255787167209036
1.7	0.00137308545125979	-0.00386659075521573	-0.874453843479915	-0.465631472705437	-0.874757434006768	-0.465143182510812	0.00172545143166648	-0.00344500183559011
1.8	0.000978222485163354	-0.00410424644905409	-0.936080651092511	-0.323872445165532	-0.936096058010915	-0.32386301678212	0.000571066115044425	-0.00407611542663044
1.9	0.00043348316080622	-0.00434525371638291	-0.974806405989122	-0.174519102542143	-0.974850750078162	-0.17457170190286	-0.000710450276433165	-0.00449979566564844
2	-0.000950302734268046	-0.00396793079918359	-0.989384719924114	-0.0219908613273515	-0.989479663969767	-0.0213437484597917	-0.00260284244750031	-0.00377777810888221
2.1	-0.000854159176338423	-0.00316230922675447	-0.980808337175715	0.132632117635281	-0.980906995825333	0.132149413324773	-0.00263861359862605	-0.00276014136531994
2.2	-0.00130793832001766	-0.00331920416820443	-0.948492025085514	0.282424078591077	-0.948530843364722	0.282557351145105	-0.00302229635687552	-0.00265079508463983
2.3	-0.00190967988647544	-0.00320302256420512	-0.893112946016796	0.425961915067111	-0.892949775331481	0.426050312977903	-0.00364039649533923	-0.00242937675973874
2.4	-0.00280614298167811	-0.0032082539668616	-0.815623278800278	0.559592688423571	-0.815912869916726	0.559131840378908	-0.00430788925147331	-0.00228632700873022
2.5	-0.00426257571170165	-0.00246158803240871	-0.719605353894804	0.679025102053192	-0.719905849474708	0.678644960047769	-0.00527519544524497	-0.00178072224754346
2.6	-0.00453102760211837	-0.000868708023073124	-0.605954664657201	0.782374405630225	-0.605875522891736	0.782315352868492	-0.00481120618836757	-0.000545102599497203
2.7	-0.00394597979161819	-4.31314853156829E-05	-0.477138839169858	0.86667742162547	-0.47710947927268	0.866691540116097	-0.0041199131000466	-0.000426950973355617
2.8	-0.00343021787228829	0.000162170405688637	-0.337265712970699	0.930046973008093	-0.337148070233098	0.930131535922501	-0.0036387816480653	-0.000549513688060968
2.9	-0.00260106447702065	0.000244717702636322	-0.189206831913594	0.971156276673455	-0.18920254908508	0.971210938293926	-0.00325545373691074	-0.000338349580222959
3	-0.00182441364028752	0.000312941779908208	-0.0358551611570385	0.989152564621962	-0.0359195397331112	0.989223678241953	-0.00237496644826627	0.000170830576448035
3.1	-0.000655498262363275	-3.00467945100264E-05	0.117297679686217	0.982454930972568	0.117944034465636	0.982537753230611	-0.00128956061819762	0.000208674069083853
3.2	-0.000192148901072218	-0.000654369090374266	0.268657839547103	0.952269209099922	0.268647783507644	0.952308682790547	-0.000762678034677343	-2.65254730567669E-05
3.3	0.000448251114456049	-0.00130943391898258	0.413792866032896	0.899010486676994	0.413170516245009	0.899289430943893	3.11191873504499E-05	-0.000291704237909245
3.4	0.000449823800301468	-0.00206911468078767	0.547977844084055	0.824410144830549	0.547892670660665	0.824524985906752	0.000681722777944806	-0.000885566394228683
3.5	0.000727610368806	-0.00219752689749292	0.669167064007008	0.729119114831644	0.669181189366849	0.729145311074031	0.00128481272197671	-0.00126264370102487
3.6	0.00106433013469345	-0.00300706712668156	0.773387745083637	0.617190420530183	0.773810514437876	0.616798542408974	0.00189261115854866	-0.00244896400937083
3.7	0.000994811202338116	-0.00394349627197005	0.860356142648852	0.489390278021463	0.860362666967993	0.489516668518449	0.00170798771049282	-0.00354773367702994
3.8	0.000427176345001938	-0.00476658051465939	0.925978509847209	0.349948520167114	0.926006190013743	0.350131727049173	0.00105251536545941	-0.00459530751361427
3.9	-0.000117603739322665	-0.00557065977956975	0.969172225273356	0.201385446123236	0.969071798281159	0.201972441624232	-0.000335368634026089	-0.00567514102385461
4	-0.00139187564356195	-0.00546278981849367	0.988488595894279	0.0497690569279206	0.988570329938379	0.0498123479817851	-0.00193633386447459	-0.00555505152518434
4.1	-0.00139549377064655	-0.00557065386066181	0.985031772076175	-0.104113965564828	0.984969394250218	-0.104050224751602	-0.00254267063878697	-0.00569495193196763
4.2	-0.0022922311973191	-0.00609705887677237	0.956811622397509	-0.256565909861309	0.957002798201178	-0.255995798556985	-0.00379228242499849	-0.00605972886796924
4.3	-0.00317262726572113	-0.00671929973946924	0.905759587647599	-0.401451902830453	0.90576038478545	-0.401433366601487	-0.00529088300805909	-0.00632114593306023
4.4	-0.00469588826960931	-0.00728700506369868	0.832702767698705	-0.53693873666507	0.832622766318034	-0.536923141975477	-0.00727272192053761	-0.00632475174372339
4.5	-0.00683946110238267	-0.00726043381608725	0.740093601255777	-0.660081935763738	0.739969309595275	-0.659936273780098	-0.0098007475145784	-0.00534086546024138
4.6	-0.00836338646388883	-0.00614760246156513	0.628413134404069	-0.767617399297041	0.628397658841992	-0.76738767087095	-0.0111139532168616	-0.00354380698286087
4.7	-0.00954788479954917	-0.00562347198796828	0.501429160296981	-0.856016617195299	0.501545516454374	-0.855771095543275	-0.0123841597108543	-0.00227720862278686
4.8	-0.0108193364327229	-0.00459440811397817	0.362292870904222	-0.92351979271266	0.362586458314966	-0.923329812590078	-0.0133354410457388	-0.0005826432451642
4.9	-0.0115161558141809	-0.00374385506909964	0.214634256375881	-0.968628556781342	0.214894508127092	-0.968576458515873	-0.0136765440531373	0.00148610396277676
5	-0.0120076142855144	-0.00255620587514196	0.0614285023535714	-0.990569778242693	0.0615868451210254	-0.990441024862398	-0.0130675155320029	0.00397325735626544
5.1	-0.0117586885174354	-0.00197678772614528	-0.0930621054664394	-0.987825706925067	-0.0927402513417898	-0.987761877142224	-0.0115726249510039	0.00590616655059838
5.2	-0.0119241013762507	-0.00123725987571491	-0.24535350680378	-0.961658329539269	-0.244924392268505	-0.96177953865042	-0.0102241682782033	0.00788541286221366
5.3	-0.012119212008289	-0.000600828766505422	-0.39191442343634	-0.91221738984988	-0.391623511908881	-0.912562378258439	-0.00825139428569963	0.00991514298240026
5.4	-0.0124676198117902	0.000735886608852699	-0.529434822481403	-0.840386325018927	-0.529297703769662	-0.840676715924843	-0.00594534140822091	0.0117126290488174
5.5	-0.0120315771898039	0.00278980181739635	-0.65349322250841	-0.747267720636557	-0.653442618719505	-0.747582597872682	-0.00255589369165373	0.0133952845648707
5.6	-0.010930560589305	0.00361354297781217	-0.761265067660084	-0.637114445831028	-0.761278243041594	-0.637285473216728	0.000976661525333418	0.0126028940676125
5.7	-0.01088306670321	0.00430174960292325	-0.85143539900225	-0.51121710332611	-0.851411228934663	-0.511392908986203	0.00309555240099111	0.0119058466554858
5.8	-0.0108432156353707	0.00557930850563372	-0.920647716742992	-0.372436964844717	-0.920692367442975	-0.37273047828564	0.00504768989655474	0.0111982582914951
5.9	-0.011087591752719	0.00668205368205691	-0.967240914534542	-0.224694421693279	-0.967361798116381	-0.224742675047216	0.00636071120878323	0.0103306411430807
6	-0.0110570172059974	0.00961749379281631	-0.990262030547859	-0.0722186671168152	-0.990258865422722	-0.0722876502219603	0.00775288385327232	0.0108470344789416
6.1	-0.00890660623525124	0.0113143463410236	-0.990083331156252	0.0826843519279679	-0.990086442498218	0.0825804826055868	0.0110212646542376	0.00942017005589278
6.2	-0.00740099754822362	0.0121377680326983	-0.965076082403751	0.23602897909706	-0.965124349179387	0.235846306206124	0.0127432459111213	0.00651473691932205
6.3	-0.00627975530895947	0.0124306598318827	-0.916469088387265	0.383228646158564	-0.916493551488816	0.38309931184546	0.01332128565866	0.00312408369267314
6.4	-0.0054542156522168	0.0125519563045012	-0.845703884883011	0.520763067798138	-0.845695113254544	0.520548426046125	0.0125800578310393	-0.000357044538541003
6.5	-0.00476702287330982	0.0128241970255984	-0.755024506709696	0.646253996486415	-0.755125627858917	0.646080680856813	0.0111975380440052	-0.00308224478016062
6.6	-0.00353253081519181	0.0130988849107423	-0.644695503798713	0.756145157359158	-0.644845001215415	0.755998516346935	0.00959345581471937	-0.00529186226937749
6.7	-0.00217105986778555	0.0131248011878684	-0.519039563616759	0.846889041007668	-0.519161620591939	0.846731171518124	0.00768422540342796	-0.00681292254623372
6.8	-0.000499178611055248	0.0128765607854049	-0.381041241399507	0.917100678947579	-0.381253604873951	0.917025572327214	0.00576828766541749	-0.00789242313309079
6.9	0.000903068644661578	0.0120218997036407	-0.233918106309331	0.965387194918305	-0.234170241656172	0.965383851813333	0.00392052196690412	-0.00857114164905256
7	0.00249284320744773	0.0110633431382477	-0.0800898053313552	0.990159683848065	-0.0803496704411031	0.990130232039564	0.00226211925126435	-0.00916830057292619
7.1	0.00329076597248501	0.00947310318708142	0.0747465077276243	0.989687380667038	0.074538800678117	0.989675935453956	5.91576901542565E-05	-0.00953121830422288
7.2	0.00379739139933856	0.00817579765327681	0.227525698572752	0.965871905468419	0.227269340563399	0.965917072802181	-0.00193750907667153	-0.00890464666030382
7.3	0.00376099833349674	0.00674369270345579	0.374980504507476	0.918619740717426	0.374739541384972	0.918711855250051	-0.00367120516862073	-0.00786609295719379
7.4	0.00347297768280583	0.00561977949651573	0.51352874297831	0.848640888712277	0.513310278313248	0.848804553829222	-0.00528105155342952	-0.006452017205676
7.5	0.00309871822604331	0.00478761187123261	0.638519929129993	0.757385597301799	0.638360276326447	0.757558845702837	-0.00601242115818653	-0.00436486162626272
7.6	0.00294824660652344	0.00358896144263284	0.747881390120832	0.649315490231201	0.747666101224363	0.649477866839083	-0.0060107193654287	-0.00331581758738294
7.7	0.00190977620889026	0.00280619328744136	0.839607858325307	0.525097237318835	0.839457317896893	0.52529350416907	-0.00650858185433403	-0.00198154366318982
7.8	0.00101150068918064	0.00266996776461144	0.910847994214379	0.387814800639171	0.910727972011782	0.388037659914185	-0.00646987088619697	-0.000329102512010296
7.9	-0.000447492831946172	0.00301355541410495	0.959260311335677	0.241278267391912	0.959221069150427	0.241504398222281	-0.00640010790747908	0.00176980809991261
8	-0.000769637225894376	0.00523991272950111	0.984501628762087	0.0901239134044049	0.984573702554985	0.0904160703938933	-0.00529194902208432	0.00492013758458292
8.1	0.000482502167679105	0.00610871589414859	0.98691323768737	-0.0641810726848426	0.987039129203857	-0.0639099649296389	-0.00192715719432651	0.00598604053359278
8.2	0.00125478537516586	0.00620181038086202	0.964337710189048	-0.216965565927479	0.964405489128618	-0.216669537447956	8.48281174934345E-05	0.00560272797982352
8.3	0.00160710918675075	0.00630428670094722	0.918204890692839	-0.363905525645126	0.918344197053659	-0.363650153677321	0.00170152063846564	0.00481945669678497
8.4	0.00184842673281788	0.00603632602061341	0.850251904264038	-0.501413045155678	0.850464898902876	-0.501214382691162	0.00259911133707194	0.00337233619170182
8.5	0.00111499158321832	0.00698838145607861	0.762582186443794	-0.627601051236491	0.762698829162674	-0.627475709403025	0.00250380846049203	0.00313498244105522
8.6	0.0026553004755314	0.00783633022870328	0.654692234805787	-0.738384504389128	0.654890897742745	-0.738200396988246	0.0043180384792471	0.00238368719373859
8.7	0.0036586950035621	0.00773881266021859	0.531697576182141	-0.830226806389458	0.531979895011097	-0.830119460390604	0.00497501710383713	0.000554090575402243
8.8	0.0049308259839379	0.00731630814098669	0.396496457184237	-0.902163059569634	0.396702643575564	-0.902110006917673	0.00473580033074388	-0.0012121311932107
8.9	0.00596060784487265	0.00630306635472508	0.251751482786322	-0.952788806496813	0.251993912622741	-0.952650075643818	0.0040570682414754	-0.00262918855459229
9	0.00680761919676785	0.00515406752876371	0.099727377341474	-0.979853715326394	0.100089209644513	-0.979826606329881	0.0031690772891161	-0.00302757990188963
9.1	0.0077901220916916	0.00387975749359772	-0.0530202527047949	-0.982177477598265	-0.0526687905574687	-0.982194440164752	0.00308055190293247	-0.00312123446233461
9.2	0.00882557672967727	0.00240848427930311	-0.204467331026905	-0.961745771717112	-0.204112946257611	-0.961818585286372	0.00356612155606509	-0.00274486538458315
9.3	0.00993746440121219	0.000613405524306215	-0.351207075882874	-0.918154991446673	-0.350851408091841	-0.918221510137197	0.00511961181212734	-0.00266034953432604
9.4	0.0102975176094689	-0.00221350104811301	-0.489564246523513	-0.851902965910357	-0.489243057994578	-0.852052617611361	0.00645966580587516	-0.0037020801761827
9.5	0.010065360732028	-0.0040078102701264	-0.61464039411257	-0.764342360768354	-0.614436160181287	-0.764480441388119	0.00791304063293784	-0.00441000043049929
9.6	0.00901494540685815	-0.00750561697921563	-0.72495563467147	-0.660203358771243	-0.724685302563911	-0.66038884626722	0.00787282693119077	-0.00739845143911748
9.7	0.00624755913383545	-0.00935701114286798	-0.818297871351355	-0.539671736729475	-0.818054382471975	-0.539941044367227	0.00621350840188804	-0.0088329439222389
9.8	0.00339288240021174	-0.0105201947060927	-0.891586884050158	-0.405906338000691	-0.891380585226138	-0.406180895198262	0.00458812732114026	-0.00944279847865068
9.9	-0.000286805661984374	-0.0106819011829206	-0.942608012628341	-0.262602457199236	-0.942498133203296	-0.262930154483985	0.00271184701027109	-0.00937706914250867
10	-0.00329249874455083	-0.00859126327240196	-0.97141587387837	-0.114623173014593	-0.971337739241086	-0.114999441990414	0.00195685860208654	-0.00730900641083181
10.1	-0.00477848359020246	-0.00767299225210701	-0.977708132783439	0.0375717915835255	-0.977690410693594	0.037096854306034	0.0027698372693179	-0.00780167769896836
10.2	-0.00709751681473105	-0.00661177654703703	-0.9594943640075	0.188598690751003	-0.959481335903528	0.188151925641705	0.00197876504647639	-0.00845158158099174
10.3	-0.00945808234183896	-0.0046665445776579	-0.918191797427212	0.33450719576465	-0.918327976252677	0.333971459513556	0.000788594867766358	-0.00891483243838318
10.4	-0.0115659466174242	-0.00250981729197565	-0.855389489197407	0.471803683701691	-0.855653824412133	0.471272913635026	-0.000722270611031932	-0.00920443152515553
10.5	-0.0132566043895614	0.00148714188673663	-0.772847647602901	0.599156634251598	-0.773129256542893	0.598773136858747	-0.0017470047533288	-0.00817719492937662
10.6	-0.0122916393168183	0.00501163943687936	-0.669632741341667	0.71166344439525	-0.670056712027608	0.711323539261539	-0.000923821097856942	-0.00802225152226997
10.7	-0.0107809477299162	0.00762443066410373	-0.551219481795706	0.806140678250321	-0.55162833026515	0.805855963815285	-0.000278274082187589	-0.00907867685941645
10.8	-0.00911030246710605	0.00920564813942167	-0.419919009796906	0.881338317688378	-0.420425546928999	0.881112226071155	-0.000676281215373846	-0.0108245827386269
10.9	-0.00775647905229902	0.0110309522288889	-0.278687994771411	0.936027690222631	-0.279172021642221	0.935977891691902	-0.00221303369303573	-0.0118947701282956
11	-0.00530615970993064	0.0126498283940473	-0.12920605522296	0.967651612418137	-0.129747830631297	0.967648904612879	-0.00331002535453295	-0.0122490174741557
11.1	-0.00250742229522239	0.0135835707914725	0.0216112864594421	0.974860986565149	0.020988140598863	0.974944329015141	-0.00449946255268959	-0.0128533290264393
11.2	0.000599824059131849	0.0136407441482293	0.171712317584528	0.959884974679633	0.171198167610188	0.960086714456666	-0.00564454567959301	-0.0130849582953794
11.3	0.00363158218975248	0.0129975205509045	0.318110024865998	0.921949875221346	0.317684545156186	0.922210367059859	-0.00658528684253159	-0.0130799451028209
11.4	0.00602440396609818	0.0116471200030215	0.457474712292836	0.861329172686007	0.457014918852988	0.861587205371079	-0.00784418006610794	-0.0124936371911628
11.5	0.00910191671945021	0.0108275483149435	0.584143145212187	0.779147840941559	0.583788973521634	0.779561739261714	-0.00775222804108402	-0.011176490059355
11.6	0.0115111797280976	0.00733987520495219	0.697188244962602	0.680464588738177	0.696923616329889	0.680940239425241	-0.0083446079353059	-0.0119818313493113
11.7	0.0124094125641499	0.00439860424966243	0.79449358321227	0.564576876014836	0.794256258901135	0.56499483113849	-0.0100651764350678	-0.0117373620105709
11.8	0.0123731100044569	0.00116646997069653	0.872349769400394	0.434470382130982	0.872166665949281	0.435017467194868	-0.0119573053699024	-0.0109734209829572
11.9	0.0110828490292606	-0.00129348352233376	0.928317021962312	0.294259337642963	0.928278270361503	0.294798198471061	-0.0142909607426769	-0.00892518601039015
12	0.00965697375082329	-0.0016243841543782	0.962852585082708	0.148807623127831	0.962838787873577	0.149282904650858	-0.0147924093291092	-0.00482564544345798
12.1	0.00969098129777924	-0.00345605198699812	0.975329809102638	-0.00237906355440122	0.975303669703867	-0.00190979456406165	-0.0132713427425759	-0.00343103387844381
12.2	0.00813769386839388	-0.00536783062510012	0.963182187030794	-0.153520205377837	0.963286421441682	-0.153085851188215	-0.0129172626038315	-0.00229398111945927
12.3	0.00642133704736915	-0.00661542257697352	0.927851791493889	-0.3003896486956	0.928034500683848	-0.300033322109877	-0.0122735260231144	-0.00128609077364755
12.4	0.00386517005677522	-0.00800039653788707	0.871182785890333	-0.439856314119087	0.871312561782977	-0.439483183736679	-0.0120544273295137	-0.000848437840508135
12.5	0.000911457628874256	-0.00727574018987825	0.793776624977335	-0.570810713329169	0.794230564097618	-0.570417454166059	-0.0120959519269632	0.00088537851573009
