# GHZ S RI R 50
0.2	-0.000145850161229933	-0.000478531119267677	0.950630207318678	-0.307425245550759	0.95040379565661	-0.307567551969948	9.65627603464962E-06	-0.000314760437000183
0.3	-0.000579996338363405	-0.000271892284158244	0.891181378099189	-0.451319297439681	0.891043775174337	-0.451372760800157	-0.000394520259131947	-0.000491870139357299
0.4	-0.000780234323946568	2.62466702717155E-05	0.810190870365668	-0.584147075350892	0.810231243480237	-0.584286945387899	-0.000617322270981729	-0.000334279007408473
0.5	-0.000732399846718529	0.00084016890788407	0.709368703512576	-0.703452429387968	0.709257889924131	-0.703548630121681	-0.000345682752590719	0.0001930334058271
0.6	-0.000261923063719276	0.000559648731693532	0.591070675608725	-0.804760319412129	0.590880658803514	-0.80476337456684	2.07252487415308E-05	-0.00037538120802887
0.7	-0.00051351243139416	0.000720225038027858	0.458942070867296	-0.886624050487836	0.458867873503306	-0.886658584664863	-0.000226977012582854	-0.000757821203249632
0.8	-0.000505130178803132	0.000705671116323355	0.315555930711549	-0.947344381581573	0.31543697907766	-0.947257487214261	-0.000559767658824979	-0.000954617620147128
0.9	-0.00097331719779939	0.00101447372433214	0.164200617118792	-0.984891231854816	0.164051133630531	-0.984848289745683	-0.00131266248030664	-0.00113483405777358
1	-0.00104656472265357	0.00244948684191118	0.00892984914759717	-0.997695970392031	0.00881145937825592	-0.997666217479871	-0.00175506110286636	-1.49278664579523E-05
1.1	0.000756208308195193	0.00236933964924319	-0.145029833600475	-0.987161496963895	-0.145679234464029	-0.987126573916321	-0.000823218813732644	-0.000345983995723039
1.2	0.00136595449820021	0.000721679591497341	-0.297631246412875	-0.952663550001779	-0.297624242845621	-0.952719409495977	-0.000868046781242415	-0.00107645106019521
1.3	0.00173719389688032	-0.00151105208981862	-0.442168923260547	-0.894617378999368	-0.442261337221622	-0.894641908807246	-0.000249995003136485	-0.00126316023503064
1.4	0.00146322762655818	-0.00392088987638659	-0.575550378783903	-0.814738581141612	-0.575624363046295	-0.814638663032518	0.000542731166519185	-0.00179723796204374
1.5	0.00196740298639256	-0.00533509426762938	-0.694758838410606	-0.715657343719789	-0.694783521560804	-0.715585066887096	0.00217398107470573	-0.00290607588563394
1.6	0.00017710122361888	-0.00663417675347635	-0.797857453489085	-0.599548031682495	-0.798288489978467	-0.599045299937634	0.000472294712877305	-0.00422968907092903
1.7	-0.000800574777031503	-0.0055675838565722	-0.881344451425897	-0.467733667160344	-0.88164952683634	-0.467241468429025	-0.000596753565341763	-0.0035400005751442
1.8	-0.00134554004509304	-0.00472646519697683	-0.943269752686451	-0.324427352237962	-0.943285250713477	-0.324417829048323	-0.00140457058024223	-0.00317833689974283
1.9	-0.0014868484523104	-0.00328064407956037	-0.98214485137178	-0.173941084231243	-0.982189613281771	-0.173993978472265	-0.00194448022886387	-0.00229074709244657
2	0.000375175468480856	-0.00290506551045904	-0.997779540912405	-0.0195975397383815	-0.997873598503498	-0.018944726199421	-0.000851463319296405	-0.0020393954826623
2.1	-0.00037557778204696	-0.00475041807268265	-0.988030492481968	0.137857907984333	-0.988131988023119	0.137371791370029	-0.00201775195172147	-0.00338818786762065
2.2	-0.00201894595310277	-0.00467983814379751	-0.954226309338	0.288963373351776	-0.954264792734624	0.289097818987554	-0.00333128640557725	-0.00285769016636316
2.3	-0.00319654270756339	-0.0040426016052642	-0.897544632558329	0.433626677917543	-0.897379810507989	0.433714901712625	-0.00416412588694135	-0.00224035917334061
2.4	-0.00452393372981787	-0.00277814506906085	-0.818678936219175	0.568611380778299	-0.818973418217084	0.568148652726766	-0.00495465241273882	-0.00131724011302684
2.5	-0.00356428103080866	-0.000658750547143115	-0.719581817463625	0.689416889256041	-0.719887384092263	0.689036314095284	-0.00381585048348132	-0.000335909207232227
2.6	-0.00303306109575919	-0.00159410958635048	-0.603441854573688	0.791508498542013	-0.60336271062778	0.791448500514417	-0.00349535737327366	-0.00173598015831049
2.7	-0.00355290328373994	-0.00156840506201137	-0.473074592438287	0.875210960282531	-0.473044959298341	0.875224929705591	-0.00445199780567988	-0.00198118650098131
2.8	-0.00387236160831961	-0.00122841759886175	-0.331301125569021	0.937873903495524	-0.331182142261565	0.937957937472106	-0.0049665328882128	-0.00144643996478761
2.9	-0.00321918633294709	-0.000698056434598274	-0.180965116858971	0.977565946175164	-0.180960298967926	0.977620827974302	-0.00471118626103524	-0.000366965188678161
3	-0.00236369310393714	-0.000995856431778693	-0.026559857496388	0.992323159491831	-0.0266237446070522	0.992395088228076	-0.00369621897444423	0.000163522658293744
3.1	-0.0020939027441061	-0.000972613582301517	0.126231245996163	0.984394683705654	0.126880274132877	0.984472111294747	-0.00316214114735353	0.000889866852521846
3.2	-0.00149234269407719	-0.000908117713390391	0.278334979469874	0.952518521727541	0.278325263152226	0.952558203787762	-0.0020899909648982	0.00143093674077948
3.3	-0.000547643571854355	-0.00106929672926615	0.423588870000258	0.896871812961489	0.422967926437173	0.897157522283872	-0.00074353255516565	0.00152345801670051
3.4	0.000333932890181001	-0.00128355788751205	0.55670740648066	0.819737445796798	0.556623295587032	0.819853244104815	0.000823975868547289	0.00121029538160619
3.5	0.00193749756850994	-0.0028344668194421	0.676062567354023	0.723878027233834	0.676076932430892	0.723904121588256	0.00238572421648145	-0.000609339108506196
3.6	0.000861761214397734	-0.00439896124500233	0.780439864955339	0.610556306835677	0.78085942557915	0.610159789551536	0.00164274087819061	-0.00209810273392135
3.7	0.000415758917622688	-0.0048123007585278	0.865827238410752	0.48073988292342	0.865835071429111	0.480866267135571	0.0014597248530093	-0.00258923074103504
3.8	-0.000221641184349776	-0.0051863431130344	0.929222456470417	0.340224346432065	0.929252021109412	0.340407192267245	0.00105468778483116	-0.00338941912442488
3.9	-0.000348598656604723	-0.00503120407933951	0.970347712955753	0.191668280373395	0.970253153350019	0.192255775543445	0.000226803472786448	-0.00401142582717484
4	0.000780898243355508	-0.00557106673383884	0.988974288735457	0.0393421589890049	0.989056476100836	0.0393845863325277	0.00043945708672044	-0.00510225173678886
4.1	-0.000234878163604698	-0.00787839835463238	0.982150537441574	-0.11556232425703	0.982089016394501	-0.11549795435114	-0.0018180875422352	-0.00704339813993338
4.2	-0.00230324930129933	-0.00844477589161604	0.951068589393298	-0.266800180610874	0.95126575124742	-0.266233930980666	-0.00426352413744438	-0.007027944381918
4.3	-0.00403246405710182	-0.00871850863450787	0.898060310167349	-0.410131800206586	0.8980613113155	-0.41011333876234	-0.00645366093806663	-0.00672692604942694
4.4	-0.00622476871869048	-0.00798384679221812	0.82355720026743	-0.544379474053061	0.823477670358382	-0.544363031773241	-0.00880484120073449	-0.00551777993050161
4.5	-0.00636981129629405	-0.00653167565375094	0.72789506719905	-0.666087311324666	0.727773266473651	-0.66594082003081	-0.00950279553197609	-0.00369717184325811
4.6	-0.00708047562980754	-0.00713296434133702	0.615069487141474	-0.769309202128831	0.615056762195013	-0.769080950175188	-0.0107767284516991	-0.00349452735816143
4.7	-0.00865379878462133	-0.00722721562366408	0.488453224449267	-0.854793783690147	0.488571305623011	-0.854551387030987	-0.0127940349776876	-0.00229474294810127
4.8	-0.0102862709967022	-0.00650633192332646	0.349700232449961	-0.919732700914254	0.349993395636799	-0.919547336645483	-0.0141500782050524	-0.000331165901115664
4.9	-0.0113117322008125	-0.00558263767472077	0.202336863480384	-0.961952700862125	0.20259526225407	-0.961903855143481	-0.0145889533593772	0.00229538535126915
5	-0.0117176837663893	-0.00483402253002031	0.0514404174382895	-0.97966684362449	0.0515981311389532	-0.979541064980945	-0.0136892447292377	0.00475280225820642
5.1	-0.0126630649890956	-0.00423258181918849	-0.0994674541721728	-0.976033585663238	-0.0991487320774845	-0.975972899903438	-0.0127091428547707	0.00726756069602868
5.2	-0.0131587418723066	-0.00260840471971112	-0.249534253187125	-0.948931569187328	-0.249110902668573	-0.949054510349837	-0.0106737615252486	0.0100005281982891
5.3	-0.0130382718260608	-0.00111747274232905	-0.393351344910383	-0.898475503693933	-0.393066310308674	-0.898818278242375	-0.00771919143592729	0.0120942814938683
5.4	-0.0119424217597753	0.000935916304491622	-0.527155020274214	-0.826184804887327	-0.527021377305337	-0.826472106247762	-0.00411848234319588	0.0134808185571083
5.5	-0.0098600545715804	8.16197441937206E-05	-0.647591219272672	-0.735479091500839	-0.647542318209274	-0.735790090724767	-0.000378634009660766	0.0119900781862837
5.6	-0.0118185542058232	0.000172390867315965	-0.754457112846697	-0.626553280477109	-0.754470771524623	-0.626722191083965	-6.91220227513148E-05	0.0114700844379841
5.7	-0.0126529953060172	0.00216227092272116	-0.842263442717924	-0.501691556748759	-0.842240193222682	-0.501865186223478	0.00176368022521682	0.0122588801373331
5.8	-0.0127343576645803	0.00470126688771685	-0.909158314267412	-0.365134912678355	-0.909203090140902	-0.365424358369692	0.00406816115860565	0.0124020580553921
5.9	-0.0118803277607196	0.00777761005065676	-0.95447499034878	-0.220790140974792	-0.954594297055771	-0.220837635821952	0.00651221841748924	0.0124806750916085
6	-0.00781797865266365	0.00936740184438806	-0.978439575461369	-0.0703436845585913	-0.978436518557145	-0.0704118421168382	0.0104096481143374	0.010679631736993
6.1	-0.00720138082554642	0.00794339586567232	-0.976648558837957	0.0828700985989255	-0.97665176449423	0.0827676315382642	0.010597398178642	0.00725691397245081
6.2	-0.00719855997261752	0.00869009257181974	-0.951489530692617	0.232638526776399	-0.951537105009723	0.232458425438012	0.0106496009306759	0.00566056314212786
6.3	-0.00692152953998407	0.0094858018582453	-0.904193920620192	0.376694171765651	-0.90421787429284	0.376566608327876	0.0109839462483312	0.0037924287397051
6.4	-0.0062420474307403	0.0105698475439658	-0.835505267369295	0.512353197374972	-0.835496219392643	0.512141401366116	0.0110352690258296	0.00160739816478891
6.5	-0.00490181102361461	0.0108728526252878	-0.745035734210555	0.636265815614278	-0.745135231819094	0.636094844837997	0.0109621964911993	-0.00121501186094089
6.6	-0.00382963600070386	0.0111348048658583	-0.637399727844272	0.742495377268738	-0.637546462756582	0.742350470558945	0.00989432174646371	-0.00369625133826974
6.7	-0.00235853546810654	0.0111551595230138	-0.515460516338318	0.83209687031154	-0.515580050153468	0.831940727730026	0.00839233417432073	-0.00591503483286061
6.8	-0.000744191418460251	0.01085025789257	-0.380581344832166	0.902129110254227	-0.380790311755517	0.902053925044061	0.00618299806175563	-0.00761280500707774
6.9	0.000829791305354162	0.00998459583948152	-0.235885707769734	0.950245305023809	-0.236134206874016	0.950240619395064	0.00396057904537206	-0.00847146125127397
7	0.00203214261265335	0.00837696310163503	-0.0863549522147123	0.97395552768433	-0.0866105004215421	0.973924564440787	0.00146325480813823	-0.0093476185955708
7.1	0.00221310281050868	0.00739149517374801	0.0641002461922259	0.976523974306518	0.0638955649503726	0.976510675457436	-0.00127068595368186	-0.00872689598954487
7.2	0.00285294229577703	0.00652200417651559	0.214704860511279	0.955491592842088	0.21445141253935	0.955533557353696	-0.0030426976438599	-0.007492216461934
7.3	0.00300921784555771	0.00533834206573139	0.360167964650765	0.91084570605311	0.359929108562424	0.910934015643522	-0.00449569603484664	-0.006017845581443
7.4	0.00318503326961253	0.00442640266821204	0.496342062808406	0.843892359903949	0.496124432051906	0.844051189528634	-0.00551323417279783	-0.00421809921284533
7.5	0.00332197614059727	0.00272238288876637	0.620197347830424	0.758591510991831	0.620036863928287	0.758760472260786	-0.00576145540763298	-0.00278462569836494
7.6	0.00203863458819693	0.00136482885229245	0.731835689772544	0.654121159545368	0.731620030199691	0.65427899082188	-0.0063496635249789	-0.00132934410060922
7.7	0.000746181656044911	0.00129157795312347	0.824652642379944	0.532714610052263	0.824500563821517	0.532906977143457	-0.00615094127099573	0.000686136711565008
7.8	5.41226094768258E-05	0.00192712243557379	0.897448913504412	0.39874696615375	0.897326420774747	0.398966158401025	-0.00513862036424802	0.00234472944095868
7.9	-8.7289758187193E-05	0.00341440396780826	0.948814658934911	0.255846685697166	0.948771865218401	0.256070651450433	-0.00361058173212562	0.00388293124595211
8	0.00289336610204655	0.00363373343088586	0.979146445202664	0.105491440349868	0.979213565564919	0.105783586638521	-0.000839428373966032	0.00385586085245945
8.1	0.00232325524231253	0.00146726650397584	0.983436594832862	-0.0486541793921358	0.983557731004004	-0.0483823553068254	-0.00130864938202877	0.00256753681525367
8.2	0.00118135826878794	0.00138059127214297	0.964134144824754	-0.200257906942879	0.964196790317907	-0.199961921618166	-0.00171486641348471	0.00326286061713489
8.3	4.80675000354866E-06	0.00196351714541889	0.922166738612874	-0.347314941180175	0.922301337075393	-0.347057816130886	-0.00148076480692801	0.00400193418803506
8.4	-0.000939222199417552	0.00371026313283246	0.858204773371644	-0.48698223499342	0.858414349622403	-0.486780115203567	-0.00105679971218653	0.00506164798922404
8.5	0.00114830646613091	0.00626983120519991	0.771374300497023	-0.615553977421424	0.771488951247439	-0.615426987122562	0.00167160215767286	0.00590015972691012
8.6	0.00277529149807265	0.0048590093880268	0.666529856108065	-0.726762498667494	0.666725258484092	-0.726575213142355	0.00277692467242186	0.00382243994093797
8.7	0.00271728702027348	0.00460692265240288	0.546457394704914	-0.821728382810931	0.546738091250505	-0.821616077600931	0.00297376551842768	0.00323755364370527
8.8	0.00315518292929661	0.00457771623239694	0.412611688411274	-0.897444617490971	0.412817431186985	-0.897387964264779	0.00337633414301873	0.00269762087491704
8.9	0.00357225710291826	0.00482427482426023	0.26762761424493	-0.951265952134959	0.267868464033379	-0.951122985970831	0.0040127585741446	0.00237233345103636
9	0.00568076916331695	0.00480152039033089	0.117000625970013	-0.98002758129354	0.117362691854015	-0.979994112736386	0.00563950214641189	0.00172088312794281
9.1	0.00734402375544487	0.00330924844748719	-0.0353861618032983	-0.987800070706514	-0.0350327242936923	-0.987810713558628	0.00663866199329963	6.34279850292163E-05
9.2	0.00912277622908816	0.00140462336424827	-0.189056126187402	-0.971228259901429	-0.188698291154628	-0.971295379091984	0.00768342963979382	-0.00154454862377665
9.3	0.0102443573555244	-0.00104050847834009	-0.338175191210183	-0.930306565421088	-0.337815984162843	-0.930367562415228	0.0081715092683857	-0.00334822504536815
9.4	0.011187399492591	-0.00338861146736946	-0.478252513339193	-0.8663139564195	-0.477926495271835	-0.866459099477453	0.00842271438836712	-0.00463595742804835
9.5	0.0119398742916769	-0.00830970114445976	-0.606419425831785	-0.783390390806291	-0.606210591068087	-0.783526016311852	0.00833785526908283	-0.00759548311161099
9.6	0.00782821024882874	-0.0118848054800417	-0.722813955648257	-0.680076684618532	-0.722537318432361	-0.680259955610187	0.00503837937908859	-0.00819634831500685
9.7	0.00440516117723172	-0.0125392998527488	-0.820234996558126	-0.559108012739514	-0.819984283296382	-0.559376939324175	0.00385282240100427	-0.0074073993795114
9.8	0.00122795744381661	-0.0125489531294367	-0.897401319236316	-0.424880102770471	-0.897188086126594	-0.425155217341099	0.00304460293438304	-0.00684728873491487
9.9	-0.00153002390968848	-0.0105656616714869	-0.953092711971044	-0.280977353896121	-0.952976159161928	-0.281308413282801	0.00291929372362904	-0.00576458157670288
10	-0.000935141973817599	-0.0102861730346099	-0.987591621880659	-0.128718050804023	-0.987507416734204	-0.129100167805012	0.00447789182042947	-0.00667327582338802
10.1	-0.00460236934996415	-0.0113402447655582	-0.994970652071569	0.0279807278219309	-0.994947650231572	0.0274977818143153	0.00226799448660861	-0.00790655878708106
10.2	-0.0079800121824233	-0.00951390089138872	-0.978471301394013	0.182418177831221	-0.978453598063949	0.181963579466946	0.00117561977940074	-0.00707278325705202
10.3	-0.0106513453760088	-0.0065901207317043	-0.938627168877707	0.332720132697323	-0.938761182739623	0.332172996719145	0.00070541550000828	-0.00679759191243852
10.4	-0.0122354419928785	-0.00290825082189009	-0.875980287921834	0.475798406546967	-0.876246521160661	0.475255047421542	0.000478142650012977	-0.00680689567944631
10.5	-0.0111560370585065	0.000889883766256732	-0.789496409601476	0.607645574597875	-0.78978193607632	0.607253871866267	0.0013889652330867	-0.0078472581676786
10.6	-0.0102440777696755	0.0021483984337955	-0.684825273894177	0.721703423949275	-0.685255478603406	0.721355538435793	0.000325844963025943	-0.0101823291152079
10.7	-0.00985202420423485	0.00414344909211665	-0.56456387914725	0.819581173311802	-0.564979526085174	0.819289592682114	-0.00141013094314266	-0.0111232343454144
10.8	-0.00883692038000842	0.00605854782845143	-0.429800298075968	0.897825184646347	-0.430316339375034	0.897593712749886	-0.00302926262625394	-0.0114018928910039
10.9	-0.00723022971048888	0.0081351283662006	-0.283737116581807	0.9537235115762	-0.28423027377753	0.953672879052074	-0.00445731449388118	-0.0113937031394168
11	-0.00473996921203143	0.00890556308178195	-0.132105931352372	0.984288770248798	-0.132657069627867	0.984285642497717	-0.00558993138836244	-0.0115789915313191
11.1	-0.00268212844411553	0.00987743920462762	0.0218191225077001	0.993725415473188	0.0211839032869953	0.993810235843951	-0.00699277156337763	-0.0111185474142582
11.2	0.000105746812182277	0.0101101041172761	0.176750085609365	0.97843244573701	0.17622619149654	0.978639038914918	-0.00766002888292492	-0.0105955040418257
11.3	0.00298357548304955	0.00997655100601215	0.327132927446454	0.938488308031297	0.326700180681183	0.938755129350889	-0.00794195612444192	-0.00989587757972685
11.4	0.00629941761658223	0.00932661460039043	0.468653793620701	0.875309528095929	0.468186584204194	0.875573777731468	-0.00771008060504121	-0.00908176000782087
11.5	0.0100473577196595	0.0061000563357565	0.598285020608912	0.793096751661415	0.597924957369525	0.793520071262291	-0.00762841417474515	-0.0102128994052187
11.6	0.010019493536852	0.00268220953300177	0.715884212573745	0.690021855033215	0.715617172749086	0.690508986628966	-0.0100010415641255	-0.00958101554966646
11.7	0.0102947766183653	0.0010402920898633	0.814474448364741	0.56929216414389	0.814235808051812	0.569720157161176	-0.0107262585173344	-0.00801109978560399
11.8	0.0102497264591906	-0.000670551572723344	0.892597422732468	0.435105143597875	0.892415609240182	0.435664151084733	-0.0112223725315928	-0.00676277746582559
11.9	0.0109134901460196	-0.000765053353842402	0.949183196531503	0.291508247851153	0.949148626468538	0.292058010184556	-0.0110879896507223	-0.00501989733984776
12	0.0137841679425819	-0.00360434341604658	0.984491166953823	0.139385923994214	0.984483241728199	0.139871114158192	-0.00959070976383977	-0.00550408435266126
12.1	0.012228685815475	-0.00829776614305974	0.992522249211735	-0.0169450728679933	0.992502636140297	-0.016467125645006	-0.0118241226934335	-0.00625507021060317
12.2	0.00948063231622638	-0.011095239563461	0.976677818103699	-0.171000362469425	0.976790512361251	-0.170560465615122	-0.013538014863307	-0.00496300736220683
12.3	0.00612963417524012	-0.0126990182889162	0.937606710552645	-0.320546818905959	0.937798230421665	-0.320187862945095	-0.0148527973439801	-0.00333046938874737
12.4	0.00212068950109341	-0.0125640490980613	0.876341881339031	-0.463021757585031	0.876480675372655	-0.462645315174905	-0.0158195564688758	-0.000770682377206614
12.5	0.000966001408237347	-0.01110745505621	0.790929455804502	-0.594240602945401	0.791396992564747	-0.593852375090373	-0.0144648203244221	0.00153744972242392
12.6	-0.00123500168615466	-0.0119600399945147	0.688213793035856	-0.707689126145568	0.688566569927016	-0.707383154550679	-0.0143897569824433	0.00210363875721935
