# GHZ S RI R 50
0.2	-0.000372442971776693	3.18547963240082E-05	0.948741719323502	-0.307945267842927	0.948515525354788	-0.308087097307691	-0.00014168367702471	0.000110377776634014
0.3	-0.000494439594938971	0.00033401760908604	0.888736715179757	-0.451584908198684	0.888599324351998	-0.451638076476938	-0.000214273793244395	-6.98897205063669E-05
0.4	-0.000261091832617296	0.000487462516198027	0.807164856238409	-0.583791307062116	0.807204914315668	-0.58393086410671	-3.34645192049139E-05	-0.000152916523351359
0.5	-0.000370654356790868	0.000543600142134488	0.706390597818488	-0.701881636630482	0.70628004695022	-0.701977418340469	5.95231791533567E-05	-0.000397657716477755
0.6	-0.000472760416843416	0.000746466066499323	0.588560090862993	-0.802868806062491	0.58837064423154	-0.802871680014098	-6.07369097427292E-05	-0.00057428888553032
0.7	-0.000444294323941977	0.00123580433232954	0.456479486377805	-0.884133795362101	0.456405501459417	-0.884168136419616	-4.10253599015614E-05	-0.00081743003243231
0.8	-0.000128861854518606	0.001367535057626	0.313508873779995	-0.944041500336881	0.313390450699777	-0.943954827935266	-0.000193828723654182	-0.00105736334408505
0.9	0.000167360004817416	0.00173116188734433	0.163097446187364	-0.980910797252889	0.162948596313094	-0.980867966882733	-0.000488982823362792	-0.00130856848047333
1	0.000625072850274513	0.0013589940722889	0.00879572858788208	-0.994056962138829	0.00867777377539649	-0.994027305711291	-0.000843676223879856	-0.00169732280690609
1.1	0.000413655214590243	0.00123056792497054	-0.145069305605511	-0.983148785279202	-0.145716104428358	-0.983113595923962	-0.00180997595392564	-0.00150699484795933
1.2	0.000630143275737363	0.000597359395163626	-0.296608881604667	-0.948271467405578	-0.296601928257895	-0.948327077544011	-0.00188235370619931	-0.000900133302708631
1.3	0.000844649693190701	-0.000626670184455132	-0.440003900436625	-0.890454008704412	-0.440095877536804	-0.890478432099893	-0.000845013046634357	-4.07286356010492E-05
1.4	0.000869263086737085	-0.0023524408044618	-0.572602504473418	-0.811281801645952	-0.572676194566483	-0.811182367375727	0.000741142837691542	-0.000287865465078597
1.5	0.000497245660494669	-0.00298668685599149	-0.69164835191811	-0.71222533303112	-0.69167290899153	-0.712153387733802	0.00190122074373699	-0.00122669741489989
1.6	0.000641255597142394	-0.00289998211113642	-0.793098838749989	-0.596403926965996	-0.793527590313598	-0.595904212086426	0.00192758277890321	-0.00225563136319983
1.7	0.000929982579620558	-0.00299254387134186	-0.875712331068757	-0.46600973856034	-0.876016189489421	-0.465520734311924	0.00133740970864098	-0.0031225762893367
1.8	0.00082193389055223	-0.00330213378118256	-0.937387010736502	-0.324024070050537	-0.937402434910443	-0.324014625042453	0.000286631167430447	-0.0038070301501343
1.9	0.000628988269937705	-0.00359720791364664	-0.976224481188603	-0.174473565147857	-0.976268903067363	-0.174526225037842	-0.00076335109209292	-0.00415094926259131
2	-0.000430584280479129	-0.00392665700956003	-0.99093369610638	-0.0214253936591145	-0.991028395332975	-0.0207772188576744	-0.00223816547818167	-0.00396826774219343
2.1	-0.000943987940640152	-0.00322929117942657	-0.982001912556368	0.133523245697488	-0.982101053689952	0.133039978352751	-0.00278152055813213	-0.00315967157360994
2.2	-0.00136923355534051	-0.00318610931380061	-0.949536553696192	0.283488909086765	-0.949575325864904	0.283622385709676	-0.00322571897791727	-0.00291896704881889
2.3	-0.00186639123721478	-0.00305497051469158	-0.893985161766453	0.427282123324901	-0.893821694624658	0.427370507751199	-0.003865073101572	-0.00264070956108549
2.4	-0.00258960099297333	-0.00304195141214637	-0.816188721313811	0.561234216108944	-0.816479202432051	0.560773020782239	-0.00446238473429999	-0.00230389768279861
2.5	-0.00370840812287085	-0.00286240043280882	-0.719535677898953	0.680688895405643	-0.719836988193539	0.680308716217463	-0.0049735349988736	-0.00205363490202181
2.6	-0.0048312046644508	-0.00168269367131056	-0.605741400818632	0.783868014671928	-0.605662239668967	0.78380881260318	-0.00502275321786624	-0.00119901904144954
2.7	-0.00484274119114216	-0.000367620201097275	-0.476620878571762	0.868227339880553	-0.476591468630663	0.868241438517599	-0.00474224583403234	-0.000756094811921411
2.8	-0.00437938609934491	0.000506323345678466	-0.336339710461199	0.931496091139487	-0.336221826612629	0.931580581234833	-0.00426702832721194	-0.000395562448360053
2.9	-0.00321797593435525	0.000970692578213022	-0.187889697161789	0.972270830810074	-0.18788532747946	0.972325532423272	-0.00357729234292827	7.57544309868989E-05
3	-0.00224636272257473	0.00109860517982211	-0.0346131579975555	0.989875840225688	-0.0346774895938959	0.989947084971144	-0.00251524487143541	0.00050819886461712
3.1	-0.000812122173257664	0.000980444217036781	0.118797196436426	0.983201657347377	0.119444268938734	0.983283641712695	-0.00128339728335399	0.00062087121838956
3.2	3.23160258468411E-05	0.000274403710919222	0.270427472818571	0.952592876456788	0.270417473172414	0.952632398159402	-0.000516049176435765	0.000302247267316433
3.3	0.000912683685825057	-0.000556707623732168	0.415577765920076	0.898857782418862	0.414955509058317	0.899137957692199	0.000430475365198027	-9.20767871596154E-05
3.4	0.00114792595512207	-0.00160568230070548	0.549551158018159	0.823913894113697	0.549466129093354	0.82402892465446	0.00130254833080382	-0.000886181518563034
3.5	0.00117782784063633	-0.00226215006215017	0.67082646580186	0.728593909418313	0.670840643415615	0.728620102600246	0.00178454380842445	-0.0017941335752374
3.6	0.00127932550511195	-0.00278947561119482	0.775053565238652	0.615970707649098	0.775475776749193	0.615577763878799	0.00213473035704184	-0.00285568896253733
3.7	0.00140768252559408	-0.00371856866274836	0.861584563470733	0.487792131371072	0.861591344557762	0.487918544154419	0.00201182217916328	-0.00397814783025041
3.8	0.000971373471945522	-0.0046644887744343	0.926820251563293	0.348180357082225	0.926848297455922	0.348363539432986	0.00137034083893844	-0.00507833047846683
3.9	0.00066202107031724	-0.00568440049600013	0.969780497785779	0.199510965242625	0.969681210766742	0.20009828651403	0.00016318987798869	-0.00619084225368142
4	-0.000734632353437626	-0.00643455117175089	0.988709186099671	0.0473504080202196	0.988791034436127	0.0473935029922786	-0.00134927648236951	-0.00672347302985662
4.1	-0.00157412082323701	-0.00644708371296418	0.984348298462229	-0.106359757825104	0.984286096915318	-0.106295900390661	-0.00256019870266668	-0.00690684118386063
4.2	-0.00265774307399498	-0.00669834220267291	0.955753076846924	-0.258503550407198	0.955945387055295	-0.257934152795266	-0.00398173631902907	-0.00714901087345384
4.3	-0.00366238217228325	-0.00709312068904808	0.904372371075303	-0.403198002910855	0.904373208145	-0.403179478909389	-0.00566366639372411	-0.00726163735613268
4.4	-0.00505269548691002	-0.00731446014652769	0.830849592576691	-0.538550575465613	0.830769683550047	-0.538534801075594	-0.00761850465675072	-0.00688570054047078
4.5	-0.00678617817917153	-0.00763052111153492	0.737542006251199	-0.660939685284599	0.737418225186528	-0.660793926051315	-0.00966458528943715	-0.00603003983960985
4.6	-0.00885686935670706	-0.00662360773025631	0.626136010896324	-0.767781382612588	0.626120987939256	-0.7675519297343	-0.0112393275543283	-0.00437727119317607
4.7	-0.0101721748033018	-0.00579166602578391	0.499148679252711	-0.855860019387593	0.499265351769418	-0.855615037950268	-0.0125058660433225	-0.00300305029442576
4.8	-0.0114389954211804	-0.00451625598444255	0.359957018141726	-0.922877389778706	0.360250547613107	-0.922688261650461	-0.0134316490517798	-0.00128088153847472
4.9	-0.0120227023026181	-0.00343520169897377	0.212398586937639	-0.967248644507377	0.212658457351876	-0.967197136642324	-0.0137331688792372	0.000833327048577208
5	-0.0125109286386238	-0.00216198968990806	0.0600545291068317	-0.988713986342887	0.0602127258029274	-0.988585684746893	-0.0132003846945791	0.00323353046231083
5.1	-0.0120422787989025	-0.00111645285357399	-0.0942847486910947	-0.986089166156891	-0.0939633294029541	-0.986025887912607	-0.0117354220118849	0.00542194611176525
5.2	-0.0115973197766824	-0.000367360568857908	-0.246305297192957	-0.959513683030364	-0.245877156808351	-0.959635295080308	-0.0101434674800172	0.00744020817919237
5.3	-0.0113233613833952	-0.000183702229007586	-0.392284342869105	-0.909803808652739	-0.391994487472713	-0.910148455995268	-0.00795647075109615	0.0092757501264998
5.4	-0.0115621447276367	0.000303289004823158	-0.529065351109096	-0.838078604033178	-0.528928797361715	-0.838368493169089	-0.00551839199189316	0.0106137594696843
5.5	-0.0124304508947658	0.00155522142283058	-0.653091796222533	-0.745434978998201	-0.653041563043427	-0.745749380922848	-0.0029997571152952	0.0115941618498211
5.6	-0.0119025245106076	0.00365628201511859	-0.760540080746315	-0.634829095838561	-0.76055345102288	-0.634999757681058	3.49387715331185E-06	0.011725837301474
5.7	-0.0113777787261348	0.00479184809678992	-0.84998336435381	-0.509112558710848	-0.849959437990036	-0.509287977984678	0.00236163108176819	0.0114077264028694
5.8	-0.0108885723452511	0.00617304538915164	-0.918718794894815	-0.370800736418154	-0.918763572057628	-0.371093504413897	0.0045650159924481	0.0109685030223123
5.9	-0.0104225678862949	0.00701087983488738	-0.965224081775603	-0.223549454780693	-0.965344726626439	-0.223597519923373	0.00656072981287402	0.0102328073119368
6	-0.010706536189254	0.00846426105907119	-0.987905510250958	-0.070896268240985	-0.987902432576827	-0.070965085097675	0.00818282273883179	0.00962374940474555
6.1	-0.00979962507389129	0.0107637658731593	-0.986977367416221	0.0830543160702902	-0.986980534680481	0.0829507690174828	0.0107265823391951	0.00842406587354872
6.2	-0.00825040282577799	0.0122842188560668	-0.962126050610838	0.235509420823783	-0.962174208203617	0.235327306982777	0.012548220376378	0.00576900615090898
6.3	-0.00677409014436502	0.0130632940838528	-0.913807089727973	0.38214038137429	-0.913831484972902	0.382011422005401	0.0132917839037897	0.00254032699376439
6.4	-0.00527486112287895	0.0133525687582204	-0.843170182470316	0.51934631207621	-0.843161462841222	0.5191322960162	0.0129055646324762	-0.000870991840227107
6.5	-0.00413311718345997	0.0132346273138301	-0.752468313211045	0.643738024895317	-0.752569026831497	0.643565307863181	0.0117468106500818	-0.00390483583039602
6.6	-0.00261860695380902	0.0131207752050939	-0.643388504726058	0.753118456384289	-0.643537385011299	0.752972134571856	0.0102213560400754	-0.00636984976504366
6.7	-0.00140251009096824	0.0124750494030639	-0.518347634787456	0.843928086920884	-0.518469184937944	0.843770558474974	0.00810173879159276	-0.00831026758906606
6.8	-0.000310763767959491	0.0119225863614692	-0.38078811271276	0.914030571749357	-0.380999777724248	0.91395548494335	0.00572714916493646	-0.00949376782244368
6.9	0.000533156100437394	0.0111266116802701	-0.234279383862731	0.961937593934602	-0.234530685872676	0.961933966456022	0.00354774944093074	-0.0100525322483204
7	0.00154748024353634	0.0106206124265353	-0.081936385684175	0.986966676092427	-0.082195394972923	0.986936765350399	0.00153223528507444	-0.0103447403854095
7.1	0.0024982700285227	0.00963739972458607	0.0726955778934888	0.987408430666999	0.0724884003442515	0.987396621331281	-0.000523628654032244	-0.0102849500743751
7.2	0.00320958210573704	0.00856063522519013	0.225151596825332	0.963826786968135	0.224895809872274	0.96387136304298	-0.00233929220258748	-0.00953388217136394
7.3	0.00337291927963454	0.00729655039842399	0.372039031572269	0.916996152771064	0.371798507608987	0.917087512181639	-0.00390135332632015	-0.00842705993340472
7.4	0.00335168966676512	0.00619922184372293	0.509975784144392	0.847934917743996	0.509757416373701	0.848097590717085	-0.0052954513748021	-0.0070785230403589
7.5	0.00283397338193539	0.00524787038628034	0.635584990548786	0.757905089705756	0.635425127631154	0.758077661112445	-0.0061947093418081	-0.00526035210273387
7.6	0.00285714883345993	0.00463987561254729	0.745090099965472	0.649729844747829	0.744874858867387	0.649891454543566	-0.00622337180697943	-0.00383313610639517
7.7	0.00253165941249756	0.00392315514684209	0.836640633527235	0.526174974701935	0.836489895733124	0.526370478128227	-0.00639012347115273	-0.00241145339100189
7.8	0.00232653665049729	0.00339066607949735	0.908169697768121	0.389710455891142	0.908049255459782	0.389932588937821	-0.00594890596089246	-0.000867204886148613
7.9	0.00166473673594919	0.0027160617864107	0.957403736861877	0.243746987336781	0.957363891347402	0.243972731264974	-0.00518603777399826	0.000661052372821261
8	0.000232401596924206	0.00270382674007571	0.982937011285659	0.0921073013169434	0.983008358824464	0.092399205676964	-0.00447616936021766	0.00221313741004198
8.1	-0.000533669516043864	0.00416432868092102	0.985270280513708	-0.0612675165457808	0.985395171502075	-0.0609965535272783	-0.00257982537387257	0.00355741744750888
8.2	-0.000335987699168054	0.00529086701116938	0.963652411567713	-0.213521732952923	0.963719131638571	-0.213225911025861	-0.000938770449100982	0.00379365980572583
8.3	-6.82025207440767E-05	0.00633138912069629	0.918465459792378	-0.360519725336159	0.918603785718798	-0.360264155787111	0.000555046922329438	0.00359750135565774
8.4	0.00082119657194085	0.00695673934719402	0.850973443829574	-0.498475600554672	0.851185667600427	-0.49827648824854	0.00186280911809117	0.00288345071460801
8.5	0.000825083445239509	0.00707627567820247	0.763512512770852	-0.624050409177914	0.763628550885567	-0.623924868919469	0.00253624388429459	0.0020177994484676
8.6	0.00135950250333994	0.00838316552882983	0.65719507856688	-0.735200265684624	0.657392852629419	-0.735015490712224	0.00364106978530969	0.00138017173025359
8.7	0.00272533190269343	0.00924940605426484	0.534742311865959	-0.827983531736564	0.535024149058308	-0.827875131965776	0.00445397366657719	5.87407191396794E-06
8.8	0.00477124264823381	0.00938901157258503	0.39973327322643	-0.900597193559293	0.399939238724409	-0.900543396144469	0.00447122609144512	-0.00150413423059435
8.9	0.00693779742874915	0.00860835405150723	0.255250539109142	-0.951492593549246	0.255492357700708	-0.951352999617367	0.00424939394164837	-0.00263130265206645
9	0.00887482761168515	0.00665077977055776	0.10435984119675	-0.979654765749281	0.104721645703343	-0.979625948791647	0.00401011677069185	-0.0033762133221234
9.1	0.0103373057130148	0.00448578147186968	-0.0491335551244148	-0.983492310675478	-0.0487816305537871	-0.983507880172314	0.00423386551085995	-0.00389836835164288
9.2	0.011359677466865	0.00152590228608671	-0.201100435286442	-0.963507401736181	-0.200745410801285	-0.963578972036759	0.00476238428661986	-0.00445866103609936
9.3	0.0112670648594329	-0.00139753620603914	-0.348037403692471	-0.920434133737188	-0.347681119994931	-0.920499354106777	0.00548850340128595	-0.00506027713488535
9.4	0.0103444805340676	-0.0044536911047025	-0.486516547847353	-0.855200696636292	-0.486194268266017	-0.855349151636177	0.00613991085904434	-0.00607453558384056
9.5	0.00793767654443411	-0.00581918412747976	-0.613311464922424	-0.768727519906508	-0.613106160067798	-0.768865176595624	0.00625934450120792	-0.00667656456909134
9.6	0.00697684389121569	-0.00680666217190964	-0.724493010567465	-0.663927032170719	-0.724221501793234	-0.66411208450402	0.0063672069724579	-0.00798955580975887
9.7	0.00536377243661187	-0.00804411473584519	-0.818311224485596	-0.543550154637475	-0.818066315024537	-0.543819249665158	0.00546265808212253	-0.00914671745111413
9.8	0.00336679988313213	-0.00910314144280441	-0.892496020384592	-0.40996655612079	-0.892288263064059	-0.410241117863328	0.00429275196954744	-0.00963250101916863
9.9	0.000824360612450846	-0.00977815988663704	-0.944917288198223	-0.266362368848999	-0.944806040214427	-0.266690811797177	0.00332322697726508	-0.00966317388462362
10	-0.00294012816143886	-0.00956840028164194	-0.974072813026134	-0.116772318206091	-0.973993746158591	-0.117149553504957	0.00230121611654882	-0.00907425807207915
10.1	-0.00546605937533765	-0.00733166479640434	-0.980267937891977	0.0352540300716143	-0.98024899913645	0.0347779380566797	0.00238610326356397	-0.00870232248162725
10.2	-0.00705554657006912	-0.00563511444811918	-0.962887653211434	0.186756242540305	-0.962873460493581	0.186308151351575	0.00207350499843632	-0.00898231854292692
10.3	-0.00861633483937739	-0.00366436063649665	-0.922049969372995	0.333717811792696	-0.922185485077538	0.333179948923138	0.00133887600741197	-0.00936416727057706
10.4	-0.00971799410168097	-0.00203322797640461	-0.858857427101151	0.472261992525854	-0.859121951884464	0.471729107644773	0.000567549436852411	-0.00978474976872598
10.5	-0.011341289390651	2.01638941953156E-05	-0.77565339251751	0.59922002231388	-0.775934996688383	0.598835159390555	-0.000119001246966367	-0.0100729522544006
10.6	-0.0120369817894207	0.00298331690153218	-0.673350557835733	0.712443658310562	-0.673775124621275	0.712101726476597	-0.000320845463581918	-0.0104027150910176
10.7	-0.0117119315256686	0.00622525202188246	-0.554618471537922	0.808084533008928	-0.555028296874259	0.807798076082094	-0.000422152996849101	-0.011093118563994
10.8	-0.0103525860248574	0.00894287599835287	-0.422562564454016	0.883972623526544	-0.423070635219855	0.883745067427925	-0.000883237852160456	-0.0121560956711771
10.9	-0.00849571750977077	0.01122362996586	-0.28073096044641	0.938609688684688	-0.281216440437195	0.93855912894486	-0.00191206952695332	-0.013108193994859
11	-0.00605633053289305	0.0129195569885888	-0.131756933409483	0.971136771934528	-0.132300807581181	0.971132906369755	-0.00298850307691578	-0.0137698440200648
11.1	-0.00292088565839867	0.0142117467101045	0.0207546404040429	0.979385773148471	0.0201285339969807	0.97946888919539	-0.00409558147903021	-0.0144347017011786
11.2	0.000488432556283313	0.0142258635719734	0.172028810530513	0.9640985591856	0.171512355137192	0.964300941642664	-0.00529381423630849	-0.014905203957158
11.3	0.0037556973247204	0.013491661162734	0.319067094259089	0.92583320705038	0.31863978020179	0.92609460486862	-0.0063465199555351	-0.0149999242743438
11.4	0.00646921628404756	0.0116106668161044	0.458845695483715	0.86541731300027	0.458383709696128	0.865676137836733	-0.00748534272986998	-0.0147589376518069
11.5	0.00821415202491558	0.0103023976677991	0.587616088097574	0.783275462188201	0.587260086268528	0.783691759758292	-0.00860056703300823	-0.0139704247864123
11.6	0.0106766938481702	0.008352598411672	0.701219620653301	0.682695585280947	0.700954380348627	0.683173736533827	-0.00942226669859658	-0.0135855211767555
11.7	0.0124761361420508	0.00569513460727506	0.798508954293569	0.566077683464699	0.798271094116881	0.566497683434092	-0.010816317135812	-0.01300076883494
11.8	0.0132852234897745	0.00235522808370576	0.876704615917012	0.435407593227207	0.876521320531301	0.435957308279229	-0.0123629641649091	-0.0118910832941564
11.9	0.0130876745265297	-0.00100124163344969	0.933533657280425	0.294155234194262	0.933495636213591	0.294696895836502	-0.0138180012952919	-0.00985888051298715
12	0.0105923185086436	-0.00386173389680495	0.967317451881038	0.146299822973237	0.967305139235029	0.146777114875098	-0.0145469837433268	-0.00738283851251687
12.1	0.00910879734688712	-0.00474799102996496	0.978599026301413	-0.00493740108601323	0.978574026160119	-0.00446648781156281	-0.0136961540810965	-0.00526511729439641
12.2	0.00745201758982635	-0.00623755681830106	0.966183865960451	-0.156641105033697	0.966289631760974	-0.156205490867716	-0.013082459306368	-0.00403985746290325
12.3	0.00549133978185473	-0.00718780537777386	0.930183288615914	-0.304396051355149	0.930367774790142	-0.304039043023925	-0.0125205997081452	-0.0030587353116793
12.4	0.00320873221899877	-0.00809926470725529	0.871958769672403	-0.444671441926609	0.872090435951114	-0.444297742031625	-0.0120579320726329	-0.00233659380876178
12.5	0.000190151152509902	-0.00839357209017528	0.793033025797848	-0.574243656590425	0.793488910820078	-0.573851329700607	-0.0119510801832618	-0.00157394787453311
