# GHZ S RI R 50
0.2	-0.000380681661463859	-6.00605084082748E-07	0.949023064504093	-0.307829920547177	0.9487968458777	-0.307971827574302	-0.000138720451198757	6.55880053911966E-05
0.3	-0.000532658886490714	0.000333942860406216	0.889125709646118	-0.451502344558241	0.888988289502229	-0.451555563766341	-0.000238200732248252	-9.70285659833142E-05
0.4	-0.000321364573393169	0.000550474003313566	0.807662492429349	-0.583812506419018	0.807702605672709	-0.583952110654043	-8.36880334496022E-05	-0.000131287753212015
0.5	-0.000331152039957654	0.000717771465546388	0.706877912400467	-0.702090049646585	0.70676732566827	-0.702185900448949	0.000106199429944254	-0.000267330347283942
0.6	-0.000334309779803087	0.00082276630293705	0.589009632693801	-0.803125550732552	0.588820096692759	-0.803128466150628	9.75790673350992E-05	-0.000555661791798978
0.7	-0.000316448096348243	0.00126534814586325	0.45693444199916	-0.884508992071169	0.456860424795732	-0.88454336908808	0.000105160819442375	-0.000874252280097568
0.8	-1.74416679903835E-05	0.00136073068982266	0.313901312721974	-0.94456225787697	0.313782797947742	-0.944475556425668	-8.30652460459475E-05	-0.00117908354535674
0.9	0.000177551557195641	0.00171573265728173	0.163341687761077	-0.981548497204546	0.163192731874794	-0.981505658413966	-0.000525024623339796	-0.00145816113771571
1	0.000604250120596347	0.00159772438846559	0.00891053094724895	-0.99466054566189	0.00879250115880256	-0.994630884180723	-0.000977504288280432	-0.00154937527359274
1.1	0.000562197992101569	0.00145285442650509	-0.144990142601587	-0.983852056881767	-0.145637393100629	-0.983816961088178	-0.0017604346970074	-0.00129386768762497
1.2	0.000664967291260426	0.000869819253723811	-0.296711457263069	-0.949047646125109	-0.296704491009954	-0.949103298508056	-0.00188798350892811	-0.000589455865916279
1.3	0.000726336089873964	-0.000190514148034569	-0.440296182155159	-0.891214411690781	-0.440388232521833	-0.891238861969279	-0.000919064646111815	0.000442204150901865
1.4	0.000603748476418697	-0.0016997140019132	-0.573034812682504	-0.811961836090736	-0.573108566391072	-0.81186232412365	0.00059264788137957	0.00035754590551991
1.5	0.000380793413850082	-0.00233675646351775	-0.692166277211741	-0.712930066488563	-0.692190864356501	-0.712858061372385	0.00195966775395798	-0.000674034915791897
1.6	0.000426495744939845	-0.00235552278105512	-0.793908067196783	-0.597026445698606	-0.794337265479286	-0.596526221553855	0.00185979043830168	-0.00196738427994387
1.7	0.000813926889729561	-0.00242187531413398	-0.876671551653803	-0.466410107565284	-0.876975679153724	-0.465920563423666	0.00125253371836255	-0.00286842544003523
1.8	0.0008185405856653	-0.00278305895363168	-0.938420856088547	-0.324220831679393	-0.938436295004305	-0.324211374410003	0.000212300467995356	-0.00358562343380704
1.9	0.000751869403760731	-0.00306799503619645	-0.977323295543889	-0.174507881390539	-0.97736777461361	-0.174560591904969	-0.000779423458350657	-0.00384464625833456
2	5.44729976847176E-05	-0.00360607936175414	-0.992209886871107	-0.0211809201490922	-0.992304529614076	-0.0205318884449299	-0.00184011138173757	-0.00377657618745065
2.1	-0.00064647159529697	-0.00328305814446047	-0.983151477151279	0.134182624440602	-0.98325098419393	0.133698808178845	-0.00251432217536511	-0.00339896064744802
2.2	-0.00121843241310022	-0.00325191465217579	-0.950501831946795	0.2843818206066	-0.950540572241403	0.284515478888861	-0.00315530964006602	-0.00320851831455838
2.3	-0.00178754125643099	-0.00312008163855791	-0.894768265193589	0.42837795152818	-0.894604545449259	0.428466333726281	-0.00393712162289836	-0.00290571918117473
2.4	-0.00257579504904127	-0.00303414276227937	-0.81677020966061	0.562555123103152	-0.817061404137509	0.562093578777381	-0.00466425340590492	-0.00239858492986646
2.5	-0.00349647082307009	-0.00281664318944995	-0.71968701297815	0.682226627775214	-0.719989067036339	0.68184630895572	-0.00491352995604057	-0.00193520685991536
2.6	-0.00475967074876091	-0.00192661628730981	-0.605538038248309	0.785293161738773	-0.60545885860159	0.785233817225111	-0.00491173915216717	-0.00134760276286927
2.7	-0.00508436394686253	-0.000541924227581692	-0.476157468248997	0.869614271464121	-0.476128013521285	0.869628352354262	-0.00483711168792861	-0.000923031169719409
2.8	-0.00481081059760139	0.000599470133387238	-0.335559286122961	0.93281744848911	-0.335441184955041	0.9329018812066	-0.00452064500898431	-0.000397589209902296
2.9	-0.00363071631842786	0.00139876687632134	-0.186729747812064	0.97340821447864	-0.186725299321676	0.973462959635865	-0.00381928156794587	0.000328753579425526
3	-0.00248540348827416	0.0017113190727832	-0.0332415237936749	0.990569402853708	-0.0333057969393722	0.99064078461177	-0.00259242128810899	0.000868623240073902
3.1	-0.000882284583383182	0.00173745448466706	0.120190926234861	0.983678288591546	0.120838526961522	0.983759459268927	-0.00125753177773509	0.00104211811087044
3.2	0.000222373086203837	0.00104319140953688	0.271947327245994	0.952797346996389	0.271937377551623	0.952836907315726	-0.000309461685730222	0.000729178434458211
3.3	0.00129343510197639	0.000133897256702679	0.417140378238067	0.898705360855772	0.416518215640935	0.898986613958722	0.000775945445777953	0.000282297447709485
3.4	0.00172184883027096	-0.00100995675571876	0.55100027999292	0.823384587165571	0.550915393974685	0.823499788677964	0.00183173716244721	-0.000555743608808853
3.5	0.00191178600030021	-0.00197935625966176	0.672066864879967	0.727933921628701	0.672081083527339	0.727960104728753	0.00254616535421165	-0.001778417509282
3.6	0.00188369622718325	-0.00266823877241317	0.776324131898959	0.61506231689369	0.776745930553354	0.614668562229587	0.00275057937090045	-0.00308859441121735
3.7	0.0020327287613131	-0.0036862332154165	0.862661862344513	0.486552285542226	0.862668851192147	0.486678729005539	0.00257136725747847	-0.00431613893639022
3.8	0.00160416355212695	-0.00478811014333603	0.927605144713621	0.346709416009345	0.927633502607789	0.346892591769896	0.00187167663266232	-0.00553180515074459
3.9	0.00128083363678372	-0.00595518742548057	0.970263332583986	0.197938365198733	0.970165001362679	0.198525943255854	0.000619703729020365	-0.00668762566077242
4	-8.41109840836537E-05	-0.00705094266260537	0.989023141458847	0.0455833810826136	0.989105086233809	0.0456263388410791	-0.000743218816969444	-0.0074504003321539
4.1	-0.00140790451540295	-0.00734005080551015	0.984116401245631	-0.108319779292209	0.984054328246434	-0.108255799156154	-0.00230940728544145	-0.00798698452435143
4.2	-0.002889295358771	-0.00745205845558786	0.955022876724043	-0.260336455746601	0.955216270143892	-0.259767568983876	-0.00412119156060027	-0.00817436547782646
4.3	-0.0041124132495752	-0.00758514746416345	0.903262055211852	-0.404812925311224	0.903262928029837	-0.404794409608427	-0.0060534370774187	-0.00806656599662796
4.4	-0.00550812692963899	-0.00748270943169544	0.829447139839446	-0.539956796726381	0.829367295011934	-0.539940872103058	-0.00807112440429119	-0.00734916242730166
4.5	-0.00693144906122769	-0.00769902253898606	0.73566586343875	-0.662083015527165	0.73554247123232	-0.661937086719253	-0.00976844525718651	-0.00627507753680341
4.6	-0.00907726443232444	-0.00694023883545607	0.624068717683511	-0.768311551470136	0.624054156953509	-0.768082276658474	-0.0112558816463065	-0.00489278690201802
4.7	-0.010642528784642	-0.00603241371366797	0.497079739410091	-0.855957676128416	0.497196753188339	-0.855713147813629	-0.0126976473401714	-0.00355550027582312
4.8	-0.0120385231015317	-0.00451261422300499	0.357884212140199	-0.922586016428147	0.358177786467954	-0.922397624786843	-0.0137408594086027	-0.00170988589071618
4.9	-0.0125835079199372	-0.00314234298856231	0.210304351208998	-0.966504574928479	0.210564011130641	-0.966453623125261	-0.0140448684827751	0.000591929407334251
5	-0.0129160143846746	-0.00172426012564036	0.0582205856915956	-0.987323964436201	0.0583787692338108	-0.987196135854183	-0.0133979334886779	0.00304165382041103
5.1	-0.0123652592694575	-0.000531371341436882	-0.0956860823822809	-0.984453656508962	-0.0953650490302719	-0.984390976888573	-0.0119909778421792	0.00525721253220979
5.2	-0.0117171105429449	0.000319515014086121	-0.24739532295117	-0.957619617264161	-0.246968045752399	-0.95774169720893	-0.0103998980173544	0.00739394575266652
5.3	-0.0112254645738663	0.000500227517522002	-0.392967044075825	-0.907648750567237	-0.392678203431899	-0.907993236583971	-0.00813475078220474	0.00936925206879819
5.4	-0.0112027821130088	0.000904940310640472	-0.529178195765196	-0.835743550302125	-0.529042298249299	-0.83603306441872	-0.00542333897762247	0.0108387430615648
5.5	-0.0119529909404293	0.00171163374600404	-0.652623021793899	-0.743313030652695	-0.652573216892464	-0.743626881268987	-0.00255028543813817	0.0114275915342459
5.6	-0.0116831810253081	0.00380000417450728	-0.759798520639152	-0.632797039395221	-0.759812052503622	-0.632967364224089	0.00021828945179125	0.0113514016991292
5.7	-0.011042112851523	0.00495812685054953	-0.848778955421138	-0.507187635543361	-0.848755260651423	-0.507362721721345	0.0025586996823418	0.0110202870762774
5.8	-0.0104131303479387	0.00614773921533512	-0.917037536238235	-0.369174107340068	-0.917082475164569	-0.369466195011075	0.00479109242079796	0.0104788022729965
5.9	-0.00989477093778126	0.00667367350383109	-0.963205413958633	-0.222436123335642	-0.963325819199456	-0.222484004308183	0.00681849789921816	0.00965090803980263
6	-0.0103522368187836	0.0074501599132526	-0.985867551166287	-0.0701673212412028	-0.985864520242871	-0.0702359950854195	0.00856945213105768	0.00856870239059508
6.1	-0.010533280468176	0.00964059737654791	-0.984658750241814	0.0834012706423869	-0.984661966566478	0.0832979637299307	0.0103141134162518	0.00704833242567555
6.2	-0.0095640698922836	0.0119471172358814	-0.959763876107474	0.235249272890679	-0.95981197586247	0.235067607158793	0.0115819446072456	0.0049328298511908
6.3	-0.0079117217565579	0.0135765721249288	-0.911626603798643	0.381339705119593	-0.911650955226287	0.381211050287014	0.0123944598484184	0.00237810273085306
6.4	-0.00577731957549307	0.014278828466469	-0.841300173901243	0.518205395841029	-0.841291475591234	0.51799185301827	0.0124721297175169	-0.000669571780614803
6.5	-0.00403399083314676	0.0140127502146519	-0.750659408853192	0.642312937230839	-0.750759904725182	0.642140630911957	0.0117889815291182	-0.00381243885444622
6.6	-0.00226542196799066	0.0135976450715888	-0.641956884179183	0.751163947948584	-0.642105374635874	0.751017955756834	0.010404306736262	-0.00649880084285071
6.7	-0.00100149169216	0.0126470014095758	-0.517410738281175	0.841743755672784	-0.517531945011184	0.841586558888148	0.00830339286384116	-0.00860151922919334
6.8	-2.51184615837663E-05	0.0119076551096998	-0.380291306130701	0.911729771833711	-0.380502444016539	0.911654769421885	0.00588541413399412	-0.00986294057323675
6.9	0.000703952737568126	0.0110668549965553	-0.234154132104406	0.959514616356385	-0.234404827429256	0.95951088294023	0.00370450202510487	-0.0104278604548335
7	0.0015581302520465	0.010539364365676	-0.0824703194747626	0.98431730887955	-0.0827286271370078	0.984287280044276	0.00165003778100209	-0.0108131566936345
7.1	0.0024392896639692	0.00970642799748203	0.0714797382414213	0.985074367836048	0.0712730788678645	0.985062369450723	-0.000464105727344974	-0.0107050755695861
7.2	0.0031795248117539	0.00870891101239028	0.223493819251662	0.961818150274501	0.223238583103382	0.961862322168821	-0.0022581019616494	-0.00993422286378395
7.3	0.00335619833319677	0.00750278566426745	0.369967507715931	0.91534267463955	0.369727425615387	0.915433505237355	-0.00381932710392343	-0.00883066925574206
7.4	0.00337868603247613	0.00649198965402954	0.507459684242599	0.846725833190332	0.507241579291477	0.846887784308698	-0.00520700460081011	-0.00743491561111899
7.5	0.00291407885121202	0.00560303996744798	0.632812320910737	0.75753355607648	0.63265246294685	0.75770546221244	-0.00605647076686419	-0.0056413630728688
7.6	0.00301180757754304	0.00520105504813897	0.742494701428461	0.649890132601746	0.742279564696697	0.65005104214704	-0.00612364504979234	-0.00418619653484099
7.7	0.00301979266183255	0.00448669602914919	0.834061270160623	0.52680650900849	0.833910436723558	0.527001356063957	-0.00616764584272866	-0.00270284542852768
7.8	0.00309130478174094	0.00375609256170669	0.905672218637652	0.390936936948726	0.90555152238925	0.391158405432456	-0.00561072302831242	-0.00120074527593245
7.9	0.00264206216657068	0.00279193234428493	0.955241411788003	0.245677326029534	0.95520108223417	0.245902602994896	-0.00466186580588486	0.000267445941446667
8	0.0013555575759254	0.00195572171791269	0.981473630564089	0.0943905773323493	0.981544175667027	0.0946822880301415	-0.00346476666699243	0.00139796054389399
8.1	-0.000162660866364294	0.002918792357557	0.984196002860702	-0.0587264635089241	0.984320060415277	-0.058455525662089	-0.00199454894415959	0.0020408688101816
8.2	-0.000652993016566367	0.00407622888348968	0.963227676434716	-0.210700577259717	0.963293529249384	-0.210404882554455	-0.000932658562084364	0.0020804322788185
8.3	-0.000967099065862317	0.00545719267909478	0.918811869325897	-0.357689982792613	0.918949380448859	-0.357434210508736	-4.06431243093366E-05	0.0020294290746417
8.4	-0.000374695948869454	0.00676148774629409	0.85202161728308	-0.495991237349252	0.852233225710021	-0.495791620665623	0.000837123788741335	0.00189937037020697
8.5	-3.71514627948434E-05	0.0073747837978335	0.764783919426422	-0.621951811663315	0.764899607798855	-0.621826029267	0.00184985967818286	0.00164016875606246
8.6	0.000506481230967554	0.00889091576561654	0.658936308914144	-0.733260938108523	0.659133540307591	-0.733075697043838	0.00313361016906419	0.00103175723381237
8.7	0.00204747332836577	0.0101868036657919	0.536894435452846	-0.82651616031904	0.537175967664443	-0.826407023128508	0.0040203928430838	-0.000196695207134353
8.8	0.00447277804133042	0.0106780983495237	0.402086840275883	-0.899683285240878	0.402292693055837	-0.899628954131053	0.00413433358483757	-0.00153495409726702
8.9	0.00719829952520139	0.0101471668966228	0.257571433458574	-0.951032873561267	0.257812956150066	-0.95089267784947	0.00408889715498467	-0.00239015343008846
9	0.00992385597856237	0.00802664074205393	0.106874909347005	-0.979427578738117	0.107236654874483	-0.979397833319312	0.00438701029982129	-0.00303559701013981
9.1	0.0118424562480963	0.00521319756435708	-0.0465283553950122	-0.983932379433797	-0.0461762787132532	-0.983947016076327	0.00497109852110552	-0.003952017423244
9.2	0.0128311662144366	0.00147005825429416	-0.198643121319948	-0.964468487672793	-0.198287749381852	-0.96453915140032	0.00549143478986658	-0.00499366430490314
9.3	0.0122358267772573	-0.00197514920423769	-0.345761205884047	-0.921854227702351	-0.345404558319267	-0.921918530057472	0.00591601818652097	-0.00586739323231222
9.4	0.0108096152114609	-0.00508691927292512	-0.484385454903258	-0.85708717274074	-0.484062563150768	-0.857234803918277	0.00638732503513645	-0.00678834193789604
9.5	0.00796269588215373	-0.00664826381552921	-0.611569369142065	-0.77139824923373	-0.61136343148779	-0.771535414113826	0.00654670971179667	-0.00774945155683493
9.6	0.00651639921429165	-0.00718257383022704	-0.72355741771308	-0.666908399469775	-0.723285010074003	-0.667092919376204	0.00621017166419793	-0.00907916665233106
9.7	0.00492715963459864	-0.00806563740795606	-0.818018121365885	-0.546683471674163	-0.817772081264259	-0.54695228368473	0.00511118392880013	-0.0100734830485759
9.8	0.00301089148703449	-0.00890481471632927	-0.892881866728293	-0.41320803564611	-0.892672970671951	-0.413482484695688	0.00379943227490681	-0.0103325948154196
9.9	0.000693436809124345	-0.00940020677235112	-0.946153244327111	-0.269645753178647	-0.946040815593911	-0.269974572046606	0.00291882265583416	-0.00995907832827992
10	-0.00283714802136019	-0.00951684405291748	-0.976329288913393	-0.119525409032778	-0.976249067238128	-0.119903433153286	0.00240279037643367	-0.00945918471876307
10.1	-0.00572794498530151	-0.00715516994261022	-0.982982687360266	0.0331695096924266	-0.982962639211416	0.0326921793458091	0.00231336141182317	-0.00921503460890413
10.2	-0.00716653008130126	-0.00506371037600827	-0.96605455013538	0.185351121187866	-0.966039410639552	0.184901760574103	0.00201799765593067	-0.00925990305903966
10.3	-0.00826393863392296	-0.00288993891664328	-0.925490138747943	0.333161030895318	-0.925625145956306	0.332621263458955	0.00155382319935339	-0.00941662222026324
10.4	-0.00871207122162262	-0.00140085985920732	-0.862277150270746	0.472688352372965	-0.862541846500407	0.472153382734718	0.00128689901923414	-0.00976546782181617
10.5	-0.0098030032445059	-0.000200256531911749	-0.778486869403158	0.600339874246732	-0.778768982255071	0.599953618966668	0.00128113689533017	-0.0105685279455226
10.6	-0.010984375508932	0.00178168158895832	-0.675967387842464	0.713863601270163	-0.676392856841102	0.713520281195354	0.00094512991828185	-0.0118445214917042
10.7	-0.0116089241934748	0.00473551187486172	-0.556988573596449	0.810041114220794	-0.557399386710326	0.80975343954121	0.000132962521117182	-0.0129856251379723
10.8	-0.0109501991442796	0.00770736275772232	-0.424459835619034	0.886467123731804	-0.424969350074888	0.886238524974034	-0.000942584047785246	-0.0138938541929116
10.9	-0.00951425347595296	0.0106563084999004	-0.281916986616994	0.941403820996765	-0.282403944314889	0.941352939109441	-0.00235449996725826	-0.0145075692687957
11	-0.0071936179304193	0.012796816130012	-0.132550438815203	0.973923180946304	-0.13309590293938	0.973919075495015	-0.00354912680496035	-0.0149285382803422
11.1	-0.0040346794514841	0.014610681592478	0.0205159291286503	0.982516955991002	0.0198877991779071	0.982600142240773	-0.00476874406897381	-0.0153051575817487
11.2	-0.000423837530538472	0.0150376622597894	0.172542294897649	0.967240547715745	0.172024151100822	0.967443563542376	-0.00597112627903672	-0.0154770648947858
11.3	0.00317131051331877	0.0146277348545179	0.320248525734446	0.928744445736409	0.3198198876197	0.929006754506499	-0.0069230771051972	-0.0152281009768313
11.4	0.00636487027902939	0.0129392843207744	0.46045496870402	0.868002409536175	0.459991605899969	0.868262136503227	-0.0076995807808067	-0.0146664214680069
11.5	0.00842814873997761	0.0114590157118229	0.589779110122557	0.785819769882527	0.589421982891718	0.786237558536534	-0.0083949767586234	-0.0140906957930627
11.6	0.0111327722739874	0.00967502992573369	0.704094581182385	0.684633265755414	0.703828717774618	0.685113251109529	-0.00914236451632834	-0.0137491687756218
11.7	0.0135373008916902	0.00694643596463716	0.801715475937816	0.56732964457633	0.801477161598818	0.567751280149375	-0.0102616083957105	-0.0131928539480655
11.8	0.0149556215420501	0.00319834741508226	0.880095730755505	0.4360235767438	0.879912352611296	0.436575330429641	-0.0114855631910413	-0.0122324910184846
11.9	0.0155829106055123	-0.00110574118297109	0.937150802260015	0.294223200163505	0.937113212104813	0.294766822028829	-0.0122370160010318	-0.0106192467427317
12	0.0128226924098762	-0.00544191136028351	0.971226046045526	0.145308241073568	0.971214450115509	0.145787365771159	-0.0127950631583008	-0.00920750322686373
12.1	0.0100278084601698	-0.00754499312149393	0.982082587864968	-0.00688938294376628	0.982058429318105	-0.00641673922603392	-0.0127345503957771	-0.00832870633687213
12.2	0.00683002766134501	-0.00913915189812864	0.969177427894612	-0.159382730828448	0.969284551635833	-0.158945846949133	-0.0134283258206877	-0.00738919230179794
12.3	0.00351232314773964	-0.00944009536589269	0.932494811506076	-0.307830641457642	0.932680841603483	-0.307472921909685	-0.0141163220175221	-0.00595936018229613
12.4	0.000445793941136559	-0.00906888424547745	0.873398227518608	-0.448715504243445	0.873531439233886	-0.448341009965412	-0.0144628894652804	-0.00407608796432488
12.5	-0.00244708972768464	-0.00820515432186821	0.793163594341826	-0.578414310208754	0.793621990417359	-0.578022498015746	-0.0140926460315402	-0.00208063265204076
12.6	-0.00481333100776969	-0.005918133949602	0.694069803944814	-0.694546009744215	0.69441653118569	-0.69423691831833	-0.012998270904156	-0.000695610835193901
