# GHZ S RI R 50
0.2	-0.000223842989893479	-8.45196392405561E-05	0.949137656405931	-0.307845966859441	0.948911414799378	-0.307987894650758	-6.24491668482836E-05	7.20448681069832E-05
0.3	-0.0003985360276776	0.000137671413259943	0.889233270406991	-0.451528507810899	0.889095836767112	-0.451581736267593	-0.000205953898995414	-9.6986904941786E-05
0.4	-0.000278315400134223	0.000252533708749424	0.807781726285148	-0.583834212557646	0.807821851247218	-0.583973830010725	-0.000110773443922127	-0.0001300843198464
0.5	-0.000437170090909566	0.000468371516617803	0.707051399581316	-0.70217599379831	0.706940798352677	-0.702271869077467	-4.8342471495258E-05	-0.000201642379517937
0.6	-0.000358588926467033	0.000589107822980433	0.589098916230267	-0.803257682583449	0.588909349875239	-0.803260597307163	-6.68676591644156E-05	-0.000375328179830174
0.7	-0.00038726414589824	0.000923305329484255	0.457016783480299	-0.884622892294806	0.456942756647746	-0.884657275674675	-9.3253365153745E-05	-0.000597904223178601
0.8	-0.00018730179646611	0.000954696006598404	0.313991770296637	-0.944700527693712	0.313873232799253	-0.944613817369834	-0.000243881702543258	-0.000763053048491794
0.9	-0.000151751110998938	0.0012282263048306	0.163413440884352	-0.98174752565418	0.163264452173706	-0.981704683619539	-0.000516702211078908	-0.000987722757954493
1	-9.20878602279329E-05	0.0013077524014419	0.00885790079502875	-0.994856930356487	0.0087398493464662	-0.994827256586572	-0.000859427681440169	-0.00119826732691762
1.1	0.000206397632457195	0.00151985312303782	-0.144991571820132	-0.983979777039328	-0.145638905331245	-0.983944687974239	-0.00141407885565936	-0.0011855048653078
1.2	0.000715511121287978	0.000730840498593637	-0.296720161626416	-0.949233705873234	-0.296713191492852	-0.949289368002415	-0.00153092875681701	-0.00102991266539534
1.3	0.00125924688498845	-0.000730633906030053	-0.440369827091266	-0.891417908179006	-0.440461896799026	-0.891442365970477	-0.000686557926095789	-0.000452731628233983
1.4	0.00151061390763353	-0.00285229777205544	-0.573175941310555	-0.81211456168112	-0.573249707609954	-0.812015027035208	0.000674820050472764	-0.000745103288593847
1.5	0.0015351299550298	-0.00388239186913272	-0.692215380278407	-0.713027837684621	-0.692239972410659	-0.71295582579876	0.00184606663862011	-0.00151125354156798
1.6	0.00118538457375858	-0.00466401252311228	-0.794029359314934	-0.597280177529789	-0.794458730807312	-0.596779883867097	0.00156295908378821	-0.0024390287049878
1.7	0.000733517660816561	-0.00464264650972089	-0.876938667384565	-0.466613965040662	-0.87724292332837	-0.46612427410721	0.000948138428877036	-0.00281196477431626
1.8	0.000188882803374792	-0.00459224427027506	-0.938744647347356	-0.324324143698464	-0.938760091490498	-0.324314683038679	9.02690792279045E-05	-0.00322300632148018
1.9	-0.000273057621859255	-0.00425048141495336	-0.97761884762389	-0.174544298023027	-0.977663340888719	-0.174597023581334	-0.000807592231078164	-0.00339633891863309
2	-0.000541072208084353	-0.00390237932848936	-0.992607027317832	-0.0212864522867932	-0.992701771617717	-0.0206371686801869	-0.00181549219684969	-0.00312080185763594
2.1	-0.000743813449257619	-0.00402792475093758	-0.983651502823569	0.13434413567629	-0.983751106809237	0.133860076487666	-0.00240335507304951	-0.00278151112520595
2.2	-0.00165391034203037	-0.00416607491119003	-0.95087734082761	0.284675988582993	-0.950916075001758	0.284809713506234	-0.00301645663071267	-0.00248067965337782
2.3	-0.00256243587904311	-0.00386089193570708	-0.895059525523208	0.42871380242014	-0.894895722708772	0.428802191716225	-0.00362290386000532	-0.00217789642102961
2.4	-0.0036908088871214	-0.00330403360277013	-0.817056617498212	0.56292167786458	-0.817348007166028	0.562459967941044	-0.00424737553489098	-0.00190409691154529
2.5	-0.00427394789126652	-0.00195056539717485	-0.719924791866733	0.682860545408994	-0.720227145049948	0.682480083446902	-0.00461797171399091	-0.00157898296709119
2.6	-0.00418934203498514	-0.00112052592940911	-0.605421686411953	0.785888349321466	-0.605342502098242	0.785828944481749	-0.00463972053490466	-0.00120415289189351
2.7	-0.00387900686192333	-0.000534528049364029	-0.475971914187674	0.870088607440334	-0.475942444233547	0.870102681385393	-0.00470216131391341	-0.00093909495084158
2.8	-0.00355242790257741	-0.000286184687718164	-0.335328059243356	0.933267312156418	-0.335209885500932	0.933351730220255	-0.00455189788848199	-0.000557451182131731
2.9	-0.00270083365984182	-0.000105047878557821	-0.186379599655095	0.973899183668585	-0.186375125217343	0.973953949874392	-0.0041024255940388	0.000112719730938184
3	-0.00185638803110871	-0.000254610216793963	-0.0325968975703889	0.990844327062126	-0.0326611400858784	0.990915769440758	-0.00310969382912975	0.000746646328724772
3.1	-0.00100011819689951	-0.000559913057866644	0.120645206208076	0.98373746196286	0.121292917659453	0.983818351986035	-0.0020201777563828	0.00114116747449832
3.2	-0.000516388084845876	-0.000994547041166283	0.272410403889761	0.952881345021794	0.272400468961225	0.952920917882055	-0.00112919119460679	0.00115017355020124
3.3	0.000224350747540124	-0.0014831348762464	0.41769549948087	0.898704386024864	0.417073333727829	0.898986021662063	-1.46877277339724E-05	0.000933465694475214
3.4	0.000579958182852148	-0.00206143180860165	0.551603259081897	0.823144555909754	0.551518435215209	0.823259827592816	0.00102381464029842	0.000292039939024525
3.5	0.0013787645368007	-0.00274824796191172	0.672321640760967	0.727526501442087	0.672335869843853	0.727552674544242	0.00182637061205178	-0.00065841090558549
3.6	0.00128216902792561	-0.00392407740072618	0.776611199608958	0.61487627988598	0.777032916045052	0.614482343679296	0.00205660013398653	-0.00180951398276124
3.7	0.00104993750438575	-0.00481230623209522	0.863013866286163	0.486227700751249	0.863020914342399	0.486354159784452	0.00204614835068918	-0.00278275971189668
3.8	0.000388991614137344	-0.00555603058950275	0.927849007073179	0.346252567280009	0.927877461877076	0.346435741008199	0.00158583278594528	-0.00392823418494851
3.9	-5.74772898999809E-05	-0.00605629651450832	0.970289493684455	0.197497310851989	0.970191428199376	0.19808489523906	0.000427195595851819	-0.00515454418915877
4	-0.000522610500382661	-0.00623854377983765	0.989186085400917	0.0453992819446645	0.989268051251011	0.0454422305554466	-0.000889151122910218	-0.00583172803998044
4.1	-0.000926282737738893	-0.007176637579339	0.984361112646284	-0.10886850373276	0.984299054149646	-0.108804471480788	-0.00246738911619377	-0.00645170000776504
4.2	-0.00236944075508062	-0.00778669430385579	0.955007382218939	-0.26096487461314	0.955201155795145	-0.26039602070693	-0.00429064801604087	-0.00652526879435307
4.3	-0.00373130449887992	-0.00822505352164102	0.903097973390096	-0.405365175269842	0.903098856961762	-0.405346658646219	-0.0061311331550817	-0.00640802540869449
4.4	-0.00560650959686682	-0.0081241579348328	0.829313660735376	-0.540439135172453	0.829233811385433	-0.540423169627385	-0.00819554662776687	-0.0058243861138575
4.5	-0.00697623284620751	-0.0073469499053745	0.735444035798994	-0.662941743148185	0.735320708530386	-0.662795655870429	-0.0101098097399049	-0.00462077071245623
4.6	-0.00797620060128604	-0.00664082746658208	0.623279996563833	-0.768958824943601	0.623265672100414	-0.768729533927816	-0.0116045292324134	-0.00312950921284311
4.7	-0.00898999268790096	-0.00636925945519124	0.49621643981583	-0.856272579154498	0.496333658037061	-0.856028197616031	-0.0130326734644687	-0.00161921924475125
4.8	-0.0101862946464793	-0.00562519548044675	0.35703354805892	-0.922715353321788	0.357327226784303	-0.92252724645393	-0.0139502016959294	0.000317960614895465
4.9	-0.0109242021723109	-0.00497208271605707	0.209375663167021	-0.966576812778645	0.209635337319365	-0.966526109766618	-0.0141370077958516	0.00263606200436547
5	-0.0114207046615204	-0.00416668999852462	0.056994883034657	-0.9869038460011	0.0571531429017948	-0.986776272687466	-0.0133424184768606	0.00513822676811167
5.1	-0.0117178527040681	-0.00379256919211423	-0.0963898552493702	-0.9836503951945	-0.0960690099819564	-0.983588014499678	-0.0117714751141921	0.00737584425112523
5.2	-0.0122534602167085	-0.00284383015876827	-0.247882479523661	-0.956858786002297	-0.247455549629906	-0.956981076039667	-0.00987780450674536	0.00946185031175746
5.3	-0.012559409957372	-0.00184285381453055	-0.393370950896264	-0.906821007635091	-0.393082528872658	-0.907165489263219	-0.00740352641663738	0.0111685445955709
5.4	-0.0124772831802604	-0.0001244398514974	-0.52944078519537	-0.834669102432942	-0.529305226275384	-0.834958501414085	-0.00477268784408267	0.0123523755762454
5.5	-0.0114711820756855	0.000967146531751719	-0.652187420338952	-0.742210794886965	-0.652137798539684	-0.742524311619732	-0.00192954229810752	0.0128267525027234
5.6	-0.0114048201937885	0.00149854377951207	-0.759358859712546	-0.632219480397716	-0.759372409934171	-0.632389681094732	0.000429283061746487	0.0126215653504755
5.7	-0.0118082609354819	0.00260499232658303	-0.848393388300373	-0.506614763894108	-0.848369760635613	-0.506789746410957	0.00264004424589849	0.0125066317203939
5.8	-0.0119763713526478	0.00446951988955253	-0.916518820740724	-0.368599932973391	-0.91656382827892	-0.368891799627279	0.00483074353386773	0.0120039302090399
5.9	-0.0118266853160076	0.00657322740852416	-0.962413826658315	-0.222051544291206	-0.96253413706484	-0.222099359680636	0.00658350631931111	0.011190373246168
6	-0.010130575852878	0.00925241186648802	-0.985363190040355	-0.0702897070981276	-0.985360149831878	-0.070358345967803	0.00826409485341684	0.0105649109020972
6.1	-0.00811222895812644	0.00989148905657962	-0.984303896943323	0.0836780951889406	-0.984307144295825	0.083574823979116	0.0100413763202627	0.0090766370149855
6.2	-0.00685536355203189	0.0104427406274591	-0.959118518992438	0.23548396533727	-0.95916666118724	0.235302423341988	0.0113732724765515	0.00709774303841581
6.3	-0.00595603681960708	0.0106306961062485	-0.910884954206106	0.381320968439536	-0.910909323607384	0.381192410428155	0.0122366250676621	0.00447777512810302
6.4	-0.00523638825707258	0.0108500910375387	-0.840758368961712	0.517942040864948	-0.840749688832091	0.517728627182572	0.0122098990977208	0.00137665025906583
6.5	-0.00448223214485674	0.010942806783408	-0.750160460875612	0.642449891061148	-0.750261001923331	0.642277679002956	0.0114824257633289	-0.00164858891437102
6.6	-0.00354348934923777	0.0111343231548795	-0.640982669255893	0.750874936085439	-0.641131113205449	0.750729153031699	0.0101795512099712	-0.00421914722617331
6.7	-0.00237167065045265	0.0112229485778275	-0.516691114765724	0.841034572791759	-0.516812239555581	0.840877561802741	0.00830267328724581	-0.00630677922688476
6.8	-0.000832965101217893	0.011107684696666	-0.379897305038577	0.910938236349456	-0.380108258800497	0.910863313580309	0.00600592801405529	-0.00774811085037899
6.9	0.000640025215529321	0.0103706924453954	-0.233852863594346	0.958894327238813	-0.234103388348929	0.958890633395506	0.00371567510386207	-0.00845331756037363
7	0.00212535857873281	0.00925576752066985	-0.0818990630338902	0.983260025265618	-0.0821570972883389	0.983230155751759	0.00151593372398919	-0.00887061788576276
7.1	0.00276066530166828	0.00790063918880464	0.0712913046376477	0.983785053550852	0.0710849183776442	0.983773051181943	-0.000809514387060979	-0.00862118565732955
7.2	0.00334463515403419	0.00677726458737368	0.223013726927604	0.96081834102133	0.222758759821202	0.960862402111387	-0.00265512841381475	-0.00762327938443115
7.3	0.00343629961723761	0.00545020601158384	0.369409531214512	0.914480066705579	0.369169676591663	0.914570757288233	-0.00417868759045432	-0.00627895747885587
7.4	0.00339783397179542	0.00436885134206984	0.506775523175309	0.845726504192298	0.50655767331814	0.845888240820031	-0.00541208882736027	-0.00465003647986484
7.5	0.00324348956699825	0.00312522938167075	0.631246938693643	0.756738652880667	0.63108722158106	0.756910165961431	-0.00591645817268967	-0.00271846937964318
7.6	0.00268185569636888	0.00175082093851218	0.741066118123147	0.650013297510289	0.740851029528166	0.65017381963847	-0.00582588556974836	-0.00131510105397601
7.7	0.00143782793024535	0.00113961936069753	0.832918294820947	0.527127827652686	0.832767408684933	0.527322382875532	-0.00564246661947587	0.000138490725153565
7.8	0.000524176474883629	0.00131905815318729	0.904602203169957	0.391389695228755	0.904481416635511	0.391610880701172	-0.0049261326237685	0.00140958646566571
7.9	-0.000363045804427073	0.00218809184976169	0.954081373515446	0.246468436272509	0.954040840854669	0.246693458512833	-0.00417449093991668	0.00255778130055221
8	0.000592245990405463	0.00362618906401784	0.981024566687649	0.0958365408740427	0.981094651172194	0.0961282663436333	-0.00325586940073102	0.00379493829429767
8.1	0.00133203440427586	0.0033025252013774	0.984206251767376	-0.0578628096479997	0.984330067062953	-0.0575917745672415	-0.00209873021527982	0.00430984578977603
8.2	0.00136040863345717	0.00308208987362046	0.963124469735014	-0.209920983255369	0.963190082911375	-0.209625319353761	-0.00129945798903058	0.00470340766593654
8.3	0.000943896305829216	0.00327252805723577	0.918786207305565	-0.356747869439949	0.918923442098181	-0.356492070875305	-0.000335301947317833	0.00491904677413541
8.4	0.000592711780813606	0.00385574342156358	0.852466694999189	-0.49493458822704	0.85267804164855	-0.494734757227627	0.000584299953653441	0.00474999942372955
8.5	0.000855760594382298	0.00550036208874741	0.765416263919194	-0.621684079521389	0.765531912629987	-0.621558184879113	0.00146417978769218	0.00474835367175827
8.6	0.00255318559168312	0.00566548724832673	0.659085591212791	-0.732735928541252	0.659282677641846	-0.732550649679449	0.00274269867258338	0.00415350748305298
8.7	0.00327062991330238	0.0053540729221279	0.537367857728852	-0.825799531077372	0.537649204754234	-0.825690206956792	0.00363892567387969	0.00334698907254629
8.8	0.00409465238831402	0.00490533007850929	0.402897413990575	-0.899149942987742	0.403103181346431	-0.899095420444965	0.00426003915281876	0.00228960626164861
8.9	0.00462739497069719	0.00434384013350193	0.258400625599809	-0.950983909776999	0.258642074135574	-0.95084349062111	0.00478448264635548	0.00117085084562267
9	0.00568761190568065	0.00377082839306843	0.107262128334868	-0.979066272814946	0.107623744601937	-0.979036381244613	0.00522108653119112	0.000135431414538462
9.1	0.00686259886964387	0.00267598592226491	-0.0453856751461683	-0.983639673495911	-0.0450337055082574	-0.983653901962537	0.00569143912658455	-0.000953728781655652
9.2	0.00822610907231852	0.00127136321442587	-0.19750790536421	-0.964800850691122	-0.197152413999099	-0.964871095879499	0.00635292514534407	-0.00188434235163748
9.3	0.00950775957426469	-0.000585007644886066	-0.344984122296727	-0.922478383977045	-0.34462730008414	-0.922542363695414	0.00712395901078648	-0.00296866443347392
9.4	0.0103878342103337	-0.00314696892857173	-0.483932107276149	-0.857479610458744	-0.483609088533432	-0.857627066578306	0.00746788954345632	-0.00439467948923449
9.5	0.0107883898486291	-0.00615854325893335	-0.610433755459185	-0.771883238855096	-0.610227719943898	-0.772020109052995	0.00739256781009066	-0.00551190387846678
9.6	0.00891428209395272	-0.0100339336641821	-0.722940001135458	-0.668190289022419	-0.722667223401387	-0.66837450977366	0.0063752259965622	-0.00673066948175669
9.7	0.00577159659033408	-0.0118050340546514	-0.817900222395773	-0.547864379573478	-0.81765375649482	-0.548133082038181	0.00533996910799204	-0.00720821128416275
9.8	0.00256110835333971	-0.012627500629135	-0.892908617808563	-0.414228886347823	-0.892699370190527	-0.41450326736413	0.0043607121165668	-0.00749205616897898
9.9	-0.000885058148066494	-0.0118988924167763	-0.946057495265798	-0.270827451561019	-0.945944651432737	-0.271156215020084	0.0033683476545576	-0.00755575349453255
10	-0.0026020863382902	-0.0103717413766299	-0.977114724849144	-0.121262242408398	-0.977033796559812	-0.121640514365306	0.00272661739364349	-0.00706038150920771
10.1	-0.00470452939018262	-0.0101372097464935	-0.984224450020105	0.0323445179392538	-0.984203956649392	0.0318666165299079	0.00216994771628475	-0.0071172229996452
10.2	-0.00744715955852503	-0.00892378699726567	-0.967146615767711	0.184760168256007	-0.967131102326105	0.184310380713073	0.00161875573946482	-0.00696598779677913
10.3	-0.01006200206968	-0.00658497715490238	-0.926716912083236	0.33256950420593	-0.92685151676134	0.332029079905024	0.00107165174534587	-0.00722266560679012
10.4	-0.0120490984087177	-0.00368369771833512	-0.864101201976626	0.47227827240133	-0.864365603042624	0.47174220699952	0.000343835193588578	-0.00782452402578848
10.5	-0.0126720438294929	0.000453302503222622	-0.78036564894438	0.60131694062206	-0.780648213224757	0.600929759170193	-0.00031675248874786	-0.00823959257112204
10.6	-0.011469747913906	0.00334162342285469	-0.676919789558239	0.714894979237901	-0.677345872260785	0.714551176647059	-0.000831171243284869	-0.00893694718006361
10.7	-0.0100555466345759	0.0056902505362226	-0.557809822188412	0.811034375918488	-0.558221138476335	0.810746278111146	-0.00139745563589034	-0.00961471824008615
10.8	-0.00839004425167508	0.00718474659093815	-0.425180229703948	0.88766883819651	-0.425690436895367	0.887439847383334	-0.00229273430558295	-0.010416608695605
10.9	-0.00679830961088772	0.00885738149783486	-0.282174048641499	0.943059653787398	-0.282661840680821	0.943008799490061	-0.00370525590420198	-0.0108699452533494
11	-0.00430632332072723	0.0098580203255585	-0.131874758996607	0.974885604165304	-0.132420705010043	0.974881938828398	-0.0048171031727855	-0.0109618760804243
11.1	-0.00187852446371834	0.0104708726816241	0.020568215948531	0.98319902449284	0.0199396527591636	0.983282292934981	-0.00588189699777691	-0.0109461013641599
11.2	0.000853582031799359	0.0103797830910118	0.172718456277795	0.968246284892798	0.17219977342869	0.968449510017217	-0.00663358219833549	-0.0108220558087059
11.3	0.00357016295883792	0.00987740637847818	0.320855262032967	0.929756643938251	0.320426185186401	0.930019367302484	-0.00712480259332583	-0.0105779197375705
11.4	0.0061185749925922	0.00882634197481746	0.461385647545906	0.868442057336883	0.460922058779064	0.868702292796519	-0.00772669552069594	-0.0101379563566024
11.5	0.00930689890666563	0.0072002280955029	0.5898157687379	0.786190734566918	0.589458443449543	0.786608588450646	-0.00807940242225409	-0.00962487527692027
11.6	0.0108073980731212	0.00367174395119051	0.704766974158695	0.685674416590804	0.704500648034191	0.686154917103035	-0.0089556018669899	-0.00936728351430941
11.7	0.0111846056723732	0.00120117912271727	0.802897427192693	0.567947393895653	0.802658868778563	0.568369640145855	-0.00978138961400189	-0.00869529597052878
11.8	0.0108994220449491	-0.00116134690559706	0.881291436713535	0.436138452067018	0.881108089356289	0.436690916163724	-0.0107165447512756	-0.00805701216917213
11.9	0.0102506301258609	-0.00225660397559303	0.937944286093703	0.294242678798361	0.937906787986198	0.294786731281033	-0.0119463819752467	-0.00689398491164852
12	0.0108961838705295	-0.00313289352390487	0.972729462996342	0.145739510986724	0.97271774920896	0.146219389852979	-0.0123892338318731	-0.00529168069989496
12.1	0.0111360324430997	-0.00607585350371652	0.983672222649272	-0.00759740908408281	0.983648360261031	-0.00712398082978995	-0.012674903752388	-0.00443721085691669
12.2	0.00947114758923109	-0.00892180084701656	0.970223207146438	-0.160326791015672	0.970330799026153	-0.15988946308675	-0.0132526595252033	-0.00331128163232931
12.3	0.00696037119866202	-0.0108294089445119	0.933354242821412	-0.308693168281889	0.933540678975131	-0.308335157074755	-0.0137121957036588	-0.00209897074416532
12.4	0.00347916801609412	-0.0117856970754811	0.874622242273655	-0.449649972462168	0.874755763301265	-0.449274936967342	-0.0142100561486637	-0.000722689313059438
12.5	0.0009477776783446	-0.0106879687372841	0.794086697652261	-0.580721530480525	0.794546603775686	-0.580329494500159	-0.0142854857122087	0.00123922792485488
12.6	-0.00063717550937385	-0.0106515068945319	0.693750639797783	-0.696532051266075	0.694098296460235	-0.696223164083992	-0.0135470464198493	0.00258747952278192
