# GHZ S RI R 50
0.2	-0.000466944216144408	9.37666628581768E-05	0.948549112728231	-0.307978279874659	0.948322945073338	-0.308120064134915	-0.000219949991955554	0.000154008637794019
0.3	-0.000552557135253992	0.000456788812623626	0.888502568845523	-0.451601132025559	0.8883651993484	-0.451654272950693	-0.000251930923930646	1.33546897560397E-05
0.4	-0.000222481651348677	0.000646839743458274	0.806860132277263	-0.583765004156407	0.806900157778408	-0.583904530774196	1.92021111505584E-05	-5.37242240002578E-05
0.5	-0.00026252120125746	0.00057304788491307	0.706060655953647	-0.701681833379674	0.7059501379756	-0.701777568950232	0.000177277118252738	-0.000431499607909994
0.6	-0.000479850316215981	0.000817717653226121	0.588353905314566	-0.802636730266903	0.588164517427256	-0.802639597793105	-3.97741078149262E-05	-0.000586306372130636
0.7	-0.0003878576238717	0.00139353468919847	0.456275408874582	-0.88388190002241	0.456201445303719	-0.88391622523454	4.07000764212128E-05	-0.000783864463575454
0.8	1.54204194642084E-05	0.00157008025919446	0.313328666393321	-0.943709054678563	0.31321029342471	-0.943622406831302	-5.16992404386897E-05	-0.00101972166631519
0.9	0.000501460738716877	0.00201034033109382	0.163026400556012	-0.980471715127027	0.162877617200424	-0.980428904208203	-0.00022287168586261	-0.0012213899374582
1	0.00134743931171033	0.00129713931393729	0.00894065742792437	-0.993713478951594	0.0088227388315888	-0.993683850302409	-0.00028390674376178	-0.00188790037261017
1.1	0.000779427962587273	0.000832712743116003	-0.14501722762495	-0.982878407863174	-0.145663847829437	-0.982843236110417	-0.00158234671191621	-0.00191206919370551
1.2	0.00078221220316106	0.000184939527276306	-0.296495250593163	-0.947935542652138	-0.296488299264551	-0.947991132903263	-0.00178926759381786	-0.00124971016800331
1.3	0.000539158150437257	-0.00102694348004375	-0.439772089142659	-0.890149177668789	-0.439864029632845	-0.890173598569475	-0.00108214539521547	-0.000365355691134481
1.4	9.6074367616685E-05	-0.00236289077013448	-0.572302810257486	-0.811127259867612	-0.572376493748856	-0.811027867112968	0.000148687710052531	-0.000307570603909696
1.5	-0.000678531045989763	-0.00255138766818984	-0.691564559209549	-0.712112697202565	-0.691589111507191	-0.712040761550733	0.000986496365239249	-0.000936568157948423
1.6	-4.20344494569493E-05	-0.0016075217673276	-0.792857951872295	-0.59607907747759	-0.793286478054834	-0.595579508257125	0.0014679622999031	-0.00134628070785648
1.7	0.000959075363357574	-0.0017904434911552	-0.875303156857361	-0.465807522197692	-0.875606882286975	-0.465318747047374	0.00141864748411073	-0.00238709188186168
1.8	0.00128063251413417	-0.00239232774683941	-0.936964437792767	-0.323969133104476	-0.936979856290372	-0.323959693417052	0.000646396622026487	-0.00333624797218334
1.9	0.00144858981523551	-0.00320686729322301	-0.975896167208621	-0.174446089393572	-0.975940572750646	-0.174498733242112	-0.000141533973819445	-0.00409108682876091
2	-0.000169389524698784	-0.00430123076977548	-0.990373507127213	-0.0212627970713208	-0.990468054098504	-0.0206149764629253	-0.00210092886528067	-0.0045374552441769
2.1	-0.000998051096776382	-0.00297379342171738	-0.981347372913088	0.133254256968107	-0.981446358567163	0.132771305707313	-0.00287714123749609	-0.00317957516435261
2.2	-0.00104747475357984	-0.0028543741311912	-0.949080904697298	0.283082158195797	-0.949119690168406	0.283215550179725	-0.00301861448562204	-0.00291873386249327
2.3	-0.00127637447457757	-0.00288130910472667	-0.893625008435666	0.426855612379754	-0.893461645716734	0.426943989274462	-0.00349303722520231	-0.00276470410365968
2.4	-0.00165638473200843	-0.00325432357227652	-0.815773984270039	0.560753320065227	-0.816064210178237	0.560292363432499	-0.00383859315302629	-0.00267132621771362
2.5	-0.00313179022168282	-0.00418382825120201	-0.719257401110278	0.679744309850421	-0.719558262433041	0.679364306872733	-0.00461223271655081	-0.00327278569727018
2.6	-0.0054386741726948	-0.00278159603044402	-0.605994145452883	0.783082776695726	-0.605914980920141	0.783023656844086	-0.00557384023771294	-0.00216969489521203
2.7	-0.00586308416718024	-0.000794703960287245	-0.476930371112213	0.867628367794392	-0.476900980287309	0.867642477656243	-0.00555773795908382	-0.00118279027264795
2.8	-0.00535271692623809	0.000733345699005053	-0.336703066977039	0.930920483686429	-0.336585278713333	0.931005002040143	-0.00499426913221387	-0.000309238863296632
2.9	-0.00391048125260683	0.00158675420327609	-0.188473892038045	0.971631075265221	-0.188469563029885	0.971685751354939	-0.00402050699167998	0.000429586219537461
3	-0.00275112446366438	0.00202430406535327	-0.035615373078217	0.98969586132049	-0.0356797677604703	0.989767030178011	-0.00278350131414597	0.00105789924023611
3.1	-0.000678547043122665	0.00207484648761975	0.1181901131084	0.983310089709624	0.11883715739804	0.98339247924304	-0.00101495375504112	0.00123710782604388
3.2	0.000540017648101986	0.00107258854191554	0.269819948277566	0.952656474215488	0.269809925672106	0.952695985660448	1.76077043200414E-05	0.000595512770968018
3.3	0.00158279799589184	-8.21069674402405E-05	0.41486949212217	0.899070600406331	0.414247093491844	0.899350286149696	0.00104908696030096	-8.63403753518847E-05
3.4	0.0018244820978189	-0.00156679687316497	0.548868453358541	0.824523835959637	0.548783308114348	0.824638803616876	0.00191354170411908	-0.00124227445443147
3.5	0.00121042334017417	-0.00233868125534524	0.670823216889222	0.729330974468349	0.670837388965998	0.729357189118079	0.001855167572611	-0.00226438687037784
3.6	0.00154605106264678	-0.00233033139973289	0.774965354665179	0.61627965015083	0.775387736482043	0.615886784049552	0.00241535333469723	-0.00291301558184231
3.7	0.00203307112894175	-0.00341560059211263	0.861437764610834	0.488255415135933	0.861444485677779	0.488381844007653	0.00254073748243145	-0.00421629519910468
3.8	0.00179573706991914	-0.00463385223316962	0.9268746610706	0.348739202033715	0.926902620720409	0.34892244444802	0.0020023638821801	-0.00553053270110651
3.9	0.0016617842857666	-0.00620227381047501	0.970156165433094	0.199873948819322	0.970056668180076	0.200461503692056	0.000924811338846085	-0.00704237546184094
4	-0.000612301835465561	-0.0077543009352553	0.988687037438525	0.0472197833943264	0.988768889060896	0.047262866428388	-0.00129377069432341	-0.00820722884137725
4.1	-0.0020981704492117	-0.00698067767386786	0.984162157266327	-0.105921014779609	0.98409994346255	-0.105857198464394	-0.00296378302058571	-0.00771801287785792
4.2	-0.0030618450906181	-0.00683768786771282	0.955883727470325	-0.258015686751642	0.956075746981468	-0.257446191761342	-0.0042553165980544	-0.00768598022450481
4.3	-0.00384122252402012	-0.00697477594979654	0.904598918701492	-0.402862787248276	0.904599748375962	-0.402844261591057	-0.00575936161403298	-0.00760145454807069
4.4	-0.00460906940173383	-0.00722527648513628	0.830863664297713	-0.5382749875148	0.830783762607247	-0.538259234606138	-0.00717431950573556	-0.00722703844817903
4.5	-0.00631343814829872	-0.00870972312771402	0.737698911197196	-0.659955869810816	0.737575074342277	-0.65981029467608	-0.00913085012596165	-0.00736607258171808
4.6	-0.00944288675780706	-0.00772383087274706	0.627101814172389	-0.767181940892786	0.627086527913101	-0.766952471334687	-0.0115333159254997	-0.00577186105759883
4.7	-0.0112726732080134	-0.00648545273889532	0.500117652861729	-0.855710966436526	0.500234142168329	-0.855465788724924	-0.0132075618676202	-0.00415578413185848
4.8	-0.0128189502945417	-0.0046070294482768	0.360843565520535	-0.922908142820739	0.361137043378157	-0.922718706286377	-0.0143972112549401	-0.00200201156758393
4.9	-0.0133068426684115	-0.00292323230458924	0.2134338244569	-0.967265692662493	0.213693705102112	-0.967213907997139	-0.0146675018046513	0.000565945498100634
5	-0.0137343465871907	-0.00112582456755871	0.061519316855916	-0.989551252340905	0.061677478413517	-0.989422605590544	-0.014138955007779	0.00335552190152817
5.1	-0.0125003125549054	0.000593455150680284	-0.0937303670798747	-0.987374570539249	-0.0934085927948017	-0.987310995165668	-0.0121104296661721	0.00605515752041718
5.2	-0.0111110964103571	0.00117643523724035	-0.246063850268026	-0.96062545193619	-0.245635207772537	-0.960746968269072	-0.00986907245715574	0.0079384935791044
5.3	-0.0102181900598196	0.00065481258063009	-0.392148023014866	-0.910954170671808	-0.39185767237587	-0.911298996823695	-0.00726437922873141	0.00928697161631909
5.4	-0.01052985222643	-1.14757317306204E-05	-0.529175699498666	-0.839578255797838	-0.529038756042452	-0.839868435635127	-0.00486773646937402	0.00979625405195463
5.5	-0.0130959354808543	0.00115908216089744	-0.654349622800017	-0.746774388469827	-0.654299316628744	-0.747089376178064	-0.00367789959728199	0.010771919870002
5.6	-0.0119869494098806	0.00470780782186654	-0.761650644524518	-0.635220370450789	-0.761664100518966	-0.635391216853117	-5.5484227304424E-05	0.0120618510196935
5.7	-0.0104807889115777	0.00564541019621023	-0.8509150524613	-0.509427042636419	-0.85089113987415	-0.509602637108505	0.00310555960120854	0.0114987442651988
5.8	-0.00931418490968347	0.00632662352164362	-0.919771100684576	-0.371043782083424	-0.919815975819928	-0.371336857722626	0.00583931765876827	0.0104834491842556
5.9	-0.00847422864116093	0.00561208030053805	-0.966582308037118	-0.223379251637866	-0.966703132173511	-0.223427321592748	0.00819953558267193	0.00850290469071472
6	-0.0110407311398296	0.0051387565168558	-0.988530350541786	-0.0699269170640962	-0.988527341276553	-0.0699957756554854	0.00797756206045011	0.00623835022567082
6.1	-0.0121873393044777	0.00908332604834523	-0.987281511592352	0.0833000293027857	-0.987284702794201	0.0831964489768628	0.00889433576617053	0.00636772081710472
6.2	-0.0109838868255366	0.0122157942530809	-0.962755312261919	0.235806121779291	-0.962803528491921	0.235623889220339	0.0104176058226695	0.00493874171489657
6.3	-0.00890280782322966	0.0144448452382843	-0.914428311669526	0.382768798032098	-0.914452771326875	0.382639740793006	0.0115970063439188	0.00286977458558249
6.4	-0.0060899821321313	0.0152396784418189	-0.843284796123396	0.520197579001261	-0.843276215392695	0.519983439491297	0.0122430691268857	-0.000125857369179406
6.5	-0.00408396403752262	0.0147883863999931	-0.752530040045387	0.643694609604385	-0.752630742827204	0.643521881849274	0.0117557756795221	-0.00342021525470173
6.6	-0.0018337814406471	0.0141446468433985	-0.644180534596237	0.753674389943387	-0.644329520154989	0.753527893428725	0.0107891387574937	-0.00632310342451918
6.7	-0.000596270675736663	0.0126345610050765	-0.518712519116204	0.844961337033321	-0.518834237332962	0.844803666356979	0.00861608557856601	-0.00892027779122325
6.8	5.16497176805277E-05	0.011687793809877	-0.380701792937807	0.914995469103175	-0.380913675445961	0.914920413582995	0.00588227706142534	-0.0103235111332007
6.9	0.000430066142411807	0.0108845665471612	-0.234218216313238	0.962486714481905	-0.234469650782856	0.962483133116203	0.00342237078479383	-0.0108436814517754
7	0.00111716483789345	0.0109189148135108	-0.0823796117383785	0.988269463450204	-0.0826389601448675	0.988239425004143	0.00124290398347323	-0.0107251092170209
7.1	0.00254249820539635	0.0101854840701107	0.0734237953106217	0.988923449341239	0.0732162830296428	0.988911750046337	-0.000364528605698442	-0.0105440186948466
7.2	0.00345041459547445	0.0089634426200816	0.22618561568016	0.964810788246545	0.225929555564632	0.964855620449501	-0.0020013114924552	-0.00999548514299387
7.3	0.00365292056061566	0.0075747586469494	0.373048633198971	0.917767223244964	0.372807902922917	0.917858840596642	-0.00353716319355079	-0.00908382651631134
7.4	0.00355864796132268	0.00634515422722457	0.51111556635239	0.848984694373592	0.51089694202811	0.84914770797583	-0.00507048983212038	-0.00793644233661284
7.5	0.00251008551463901	0.00569197499746425	0.63810698794133	0.758575098152141	0.637947042172358	0.758748284656038	-0.00651775482216623	-0.00591789586740028
7.6	0.00315127094674397	0.00600170066216304	0.747198225997673	0.648928975560678	0.746983078760161	0.649091192131523	-0.00607144510327132	-0.00380049708478202
7.7	0.00390051713818265	0.00515154405253639	0.838200341411648	0.52512031792092	0.838049828749327	0.52531623422817	-0.00546720722239939	-0.00241543663285972
7.8	0.00453624337729061	0.00384052984117714	0.909545368807073	0.388492779393965	0.909425204400666	0.388715291127392	-0.00440939489715971	-0.00140712354007239
7.9	0.00430829744603671	0.00165863048582828	0.958822536036497	0.241990043115735	0.958783121572988	0.242216084935374	-0.00335489146161041	-0.00109508765841216
8	0.000675509951869109	-0.000633241095225111	0.983000154551013	0.0894392347099854	0.983072275811549	0.0897308916409736	-0.00409072901376868	-0.00122052210314232
8.1	-0.00182964583271192	0.00238295321694873	0.984611521027945	-0.062776828812734	0.984736765384226	-0.0625062163069115	-0.00358264602848732	0.00138887566795705
8.2	-0.00192649148263786	0.00456039949958407	0.963196569704714	-0.21479612416204	0.963263680784727	-0.214500443765227	-0.00207598897867568	0.00233662810804741
8.3	-0.00158263699379347	0.00656941585183694	0.917873714084927	-0.361954666860001	0.91801243827236	-0.361699321751305	-0.000541694154717669	0.00281717421252747
8.4	0.000242069270060749	0.00782845848463193	0.849592885410616	-0.49991565566498	0.849805401215462	-0.499717054456552	0.00150377820356048	0.00261208195666067
8.5	0.000255586236670249	0.00671168316471017	0.762044692570614	-0.624012047922486	0.762160708576096	-0.623886761246723	0.00222926907096444	0.000677165494099742
8.6	-0.000200434933473321	0.00931463854085716	0.656597071727663	-0.73559049380037	0.656794956479744	-0.735405880568391	0.0025628276473004	0.00102996395660424
8.7	0.00193613795849372	0.0112223194845923	0.533719301696461	-0.828598343982701	0.534001259062076	-0.828490289556053	0.00395594684783169	0.000300821680923912
8.8	0.00503315910877	0.0118983359726745	0.398318463155158	-0.900850058321395	0.398524433190137	-0.900796571384004	0.00459708779501623	-0.000905679205868231
8.9	0.00872397549343728	0.0111748797452549	0.254041130224805	-0.950973440710186	0.25428289525345	-0.950834215946873	0.00535714974098422	-0.00190290157036911
9	0.0118960926830008	0.00796893967633657	0.103929588469177	-0.979822882711401	0.10429145073597	-0.979794225815662	0.00601620060069782	-0.00351811193068916
9.1	0.0139468270139251	0.00439067988357733	-0.050694735172299	-0.983528972092203	-0.0503427942560217	-0.983545100030621	0.00669826450919291	-0.00508724518590698
9.2	0.0143917221468656	-0.000619386399464969	-0.202505971907134	-0.96265169276212	-0.202151258714584	-0.962723782462835	0.00671787822874441	-0.00725940293849532
9.3	0.0124117109355997	-0.00460940871327417	-0.34879519851724	-0.919297583299337	-0.348439276338231	-0.91936315325946	0.00585938942939748	-0.00858771211562827
9.4	0.00963321780473434	-0.00772702953219434	-0.486832526768869	-0.85465137368015	-0.486510434906989	-0.854799959285976	0.00514078743386881	-0.00946584907642655
9.5	0.00458401955438743	-0.00745571069830009	-0.614833316893536	-0.768008395521099	-0.614628160678073	-0.768146448444676	0.00330572658774292	-0.00869224225216771
9.6	0.00478906420905782	-0.00556868081849404	-0.725153777460457	-0.662032609833577	-0.724882834900257	-0.662218022183625	0.00462409323134644	-0.00780684109121902
9.7	0.00465730938461374	-0.00648126110286127	-0.818264764507963	-0.54192232784208	-0.818020453733872	-0.542191497251648	0.00487313544318701	-0.00891883656703199
9.8	0.00368875123128971	-0.00768200444658245	-0.892348921283168	-0.408635459821746	-0.892141630872122	-0.408910071774281	0.00440133354040394	-0.00953650589068994
9.9	0.00221223043139335	-0.00944029082243275	-0.945057425266788	-0.264704742997386	-0.944946759533577	-0.265033265622185	0.00429503757140943	-0.0102889020204846
10	-0.0034047873521198	-0.0107464707822179	-0.972762045054913	-0.114268255265129	-0.972684003087053	-0.114645063452379	0.00181965265384181	-0.0109064193673165
10.1	-0.0063335984391601	-0.00637174376495078	-0.978387516278314	0.0362648416780505	-0.978369136248299	0.0357896233332557	0.00174302813952567	-0.00876628290344439
10.2	-0.00668609914230868	-0.00412925322041467	-0.961330165638726	0.187474785900876	-0.961316450817701	0.187027316253242	0.00245321000148891	-0.0087152078221024
10.3	-0.00699254829347232	-0.00233842284693348	-0.920287685346429	0.334510440422136	-0.920423747106745	0.33397352443567	0.00267837949710185	-0.00922104292520838
10.4	-0.00664570776149768	-0.00193182328428848	-0.856104409023486	0.472738696250226	-0.856369293033768	0.472207468834328	0.00313230662524075	-0.0105215516782629
10.5	-0.00874189178592124	-0.00270238072040074	-0.77302392539637	0.597430135076136	-0.77330469223527	0.597046573933613	0.00222035462246282	-0.0131163593178095
10.6	-0.0116446188313738	-0.000567476297709894	-0.672241950819042	0.710753490641611	-0.672665531503847	0.710412098943767	0.00030410380587222	-0.0142300561715873
10.7	-0.0133243678229804	0.00321716125465637	-0.553734587110981	0.806526876887795	-0.554143621388665	0.8062408771592	-0.00147070258700204	-0.0145590586591172
10.8	-0.0128459192216868	0.00733890589303149	-0.421886585563809	0.882155210541627	-0.422393614574877	0.881928012306104	-0.00263423277528089	-0.0143663974982001
10.9	-0.0110074372717604	0.0110848674201307	-0.280885754466898	0.936231044054321	-0.281370084548421	0.936180188022626	-0.00364490004547539	-0.0143449186642756
11	-0.00853071946960012	0.0137462878035971	-0.133266628508371	0.970181600618296	-0.133810084142034	0.970176836508214	-0.00464694470459628	-0.0143487817914678
11.1	-0.00455980288891624	0.0158662941310133	0.0204043522016084	0.978919838744257	0.0197785193187596	0.979002697209776	-0.00511563456664034	-0.0144959508896315
11.2	-0.00043259352244527	0.0160868248319298	0.171601387170044	0.963201912247047	0.171085382452405	0.963403957971831	-0.00585305431574956	-0.0148979091809144
11.3	0.00348381525010465	0.0153281168624131	0.318109360884312	0.925034471568048	0.317682340280017	0.925295302974585	-0.00644921327090337	-0.0150268218945548
11.4	0.00673046016313595	0.0128132489927179	0.457648509040717	0.86561618133084	0.457186400785472	0.865874361617883	-0.00719013844281012	-0.0152976111868583
11.5	0.00731454790261875	0.0116915641810431	0.588083517015873	0.783404909557874	0.587727501495856	0.783821478097676	-0.00941926043243111	-0.0143377513905085
11.6	0.0111331359095449	0.0112485174998814	0.700815193548086	0.681692378776645	0.700550434799927	0.682170164897088	-0.00909546022841278	-0.0127357403773154
11.7	0.0146222136032545	0.00817016938177121	0.797498894526965	0.565617187448455	0.797261209859246	0.566036668899671	-0.00924494904115295	-0.0125446572033785
11.8	0.0168520774723918	0.00367991272944725	0.875864782104817	0.435526236407634	0.875681348233346	0.436075468832533	-0.00976836665695341	-0.0122529123159141
11.9	0.0181904450351472	-0.00255821927794394	0.933423017843162	0.294055961591495	0.933385036041271	0.294597550708425	-0.00987730817937977	-0.0123009174284443
12	0.0121824752368016	-0.00855989195099832	0.965959454105271	0.145274650799632	0.965947555796236	0.14575122300341	-0.0134357498654189	-0.0124621092217924
12.1	0.00823506476493713	-0.0088134670970665	0.977031551870577	-0.00432361465142947	0.977006300305036	-0.00385347266759173	-0.014358040171837	-0.00980191289277934
12.2	0.00496152424733778	-0.00929546268366684	0.965357851169836	-0.155895232859041	0.965463247105664	-0.155459969439835	-0.0150489477975852	-0.00784131233253091
12.3	0.0020472550232223	-0.00855870842144898	0.929431832185687	-0.303967997510281	0.929616095492593	-0.303611265622011	-0.0153142313003547	-0.00548132453121725
12.4	0.000285113826934171	-0.0079189216411482	0.870336417128985	-0.444166711718653	0.870467967881772	-0.443793689825768	-0.0143955242962682	-0.00337685852328938
12.5	-0.00288592466010112	-0.00850848720933635	0.791865913269588	-0.571506642553124	0.792319996716936	-0.571114624304896	-0.0142464684217927	-0.00296142357208725
12.6	-0.0058518115473507	-0.00506320155720895	0.695322472189182	-0.688619359273903	0.695666434035015	-0.688309516464288	-0.0137124890591889	-0.000416740786389269
