# GHZ S RI R 50
0.2	-0.000170583912691091	7.51912688016248E-05	0.948736342624635	-0.308033221927657	0.948510131526384	-0.308175035179004	-6.33912470740241E-06	0.000228381610426967
0.3	-0.000250833464865832	0.000306915100397207	0.888659617941718	-0.451679882431143	0.888522224278009	-0.451733032855698	-5.47688374632382E-05	6.52000941430536E-05
0.4	-4.16287284017899E-07	0.000360368908046404	0.807012582331558	-0.583834345680833	0.807052619072428	-0.583973893964699	0.000169390817139828	-3.29164053321495E-05
0.5	-0.000229725478891748	0.000335345268559627	0.70628601003054	-0.701836690686188	0.70617546688956	-0.701932457569241	0.0001602850756057	-0.000345789646413904
0.6	-0.000313235033609856	0.000601878961449705	0.588434858629251	-0.802856757556565	0.588245427663256	-0.802859613402108	-1.71028481728412E-05	-0.000376949279071259
0.7	-0.000276223165450604	0.0010165285395899	0.456333173219832	-0.884055182613751	0.456259195239974	-0.884089511960277	2.14049689004892E-05	-0.000525884775393033
0.8	-5.53869525285965E-06	0.00110702860943324	0.313393123169221	-0.943896708856302	0.313274726381062	-0.943810043963235	-6.32906648305998E-05	-0.0006388088062755
0.9	0.000284324966477684	0.00144107775466071	0.163069077146353	-0.980725642783998	0.162920255200171	-0.980682820840421	-9.34954050995768E-05	-0.000807475090910003
1	0.00062107836680742	0.000941706000389378	0.0088076450509048	-0.993957777701684	0.0086897016051408	-0.993928125748977	-0.000175656351319981	-0.00158548659466834
1.1	0.000383230490719312	0.000977252715558509	-0.145076100696809	-0.982999181656846	-0.145722802834613	-0.982963978918171	-0.00125967769909132	-0.00172456164830915
1.2	0.000738442635566646	0.000227265939578145	-0.296550350632969	-0.948125699867315	-0.29654339769529	-0.948181301154372	-0.00152240237269441	-0.00151671525681873
1.3	0.00101491604344101	-0.0011215894810667	-0.439906984909539	-0.890349503366286	-0.439998948363607	-0.890373927160456	-0.000921715648494761	-0.000825171274010667
1.4	0.00122747467402618	-0.00295082870504825	-0.57251810609358	-0.811244628354951	-0.57259179508634	-0.81114520552375	0.000423315820652039	-0.000843442137703387
1.5	0.000991708819955788	-0.00367866400125272	-0.691635958832574	-0.71213125539419	-0.691660509927545	-0.712059314206064	0.00135287210127892	-0.00133565585608951
1.6	0.0012343254812134	-0.00390127009221669	-0.792994356350458	-0.596304745344212	-0.793423037792673	-0.595805095407734	0.00165740393053543	-0.00175097180004377
1.7	0.00119534779254868	-0.00414437766702256	-0.875610025923193	-0.46595471562388	-0.875913848517944	-0.465465768470102	0.00142021259817243	-0.00240114892760044
1.8	0.000814962678710599	-0.00435309418669092	-0.937305737274597	-0.323973902309677	-0.9373211598076	-0.323964457854168	0.000699749977084566	-0.00306778084272205
1.9	0.000453875144556119	-0.00449297499361393	-0.976147065026803	-0.17436774449153	-0.976191487470036	-0.174420395280956	-0.000115180465407937	-0.00370294043183818
2	-0.000720406727559541	-0.00452279094431585	-0.990703613650145	-0.0213163797895139	-0.990798222655794	-0.0206683470171453	-0.00201586069356144	-0.00378129974231388
2.1	-0.000974906893567544	-0.00374611320827242	-0.981782529701189	0.133508747664018	-0.981881656306316	0.133025588797457	-0.00264103157387706	-0.00255443176731291
2.2	-0.00146104610340494	-0.00379919972779742	-0.94932610602952	0.283449149527998	-0.949364866891131	0.283582598323582	-0.00284517580196209	-0.00217900310884156
2.3	-0.00208300605032203	-0.00359325737898957	-0.893758287070064	0.427211341462844	-0.893594855709495	0.427299699304377	-0.00318526051315062	-0.00196846013485403
2.4	-0.0028628637468744	-0.00341612046732723	-0.815912867517621	0.561087319548281	-0.816203273991693	0.560626279149644	-0.00346949808022084	-0.00204851040435682
2.5	-0.00398437708542468	-0.00297059128881916	-0.719358552776265	0.680374294216995	-0.719659717164794	0.679994214909754	-0.00436281194476952	-0.00258281872748996
2.6	-0.00470749311368301	-0.00158140730057848	-0.605655186115191	0.783596403710164	-0.605576040517224	0.783537225458078	-0.00514682697172945	-0.00164630604641474
2.7	-0.00436961952618964	-0.000440222086621393	-0.476560238639985	0.867919138180826	-0.476530838959197	0.867933235391599	-0.00515638052282527	-0.000848915442412412
2.8	-0.00372002606807771	0.000115214688239816	-0.336351068355041	0.931132250698625	-0.336233236250671	0.931216727922643	-0.00467541035768076	-0.000186020730666583
2.9	-0.00256093735364295	0.000242230723773717	-0.188058631978357	0.971871661892234	-0.188054277239831	0.971926344707752	-0.00391760489054795	0.000406250847355613
3	-0.00168899024203934	0.000101789839742906	-0.0349143955140022	0.989651293874247	-0.0349787354432874	0.989722503182302	-0.0029020177959371	0.00102714983990035
3.1	-0.000476725552345286	-0.000278903448657809	0.118534582922825	0.983011493514836	0.119181491794832	0.983093615091577	-0.00147818904452498	0.00133802665682426
3.2	5.8634930403497E-05	-0.00101293080047585	0.270093940181936	0.952447841664014	0.270083931639063	0.952487351324624	-0.000558842522586571	0.00103620940455158
3.3	0.000742895133143354	-0.00174231527995333	0.415191352359019	0.89881688886982	0.414569126339546	0.899096798152102	0.000485137752399132	0.000587009964037254
3.4	0.000883172689772123	-0.00265914940326304	0.549190007638983	0.824036840924169	0.54910494431745	0.824151828416317	0.00130557317031032	-0.00037696352176052
3.5	0.000934787359544149	-0.00317316387945342	0.670634647461751	0.728717018847472	0.670648818574567	0.728743214202201	0.00138303715291885	-0.00114932663531851
3.6	0.00106823378086152	-0.00379058327137919	0.774792462244467	0.616074275613535	0.77521471072182	0.615681491259228	0.00184117831448495	-0.00176680778660259
3.7	0.000995345374715927	-0.00469286029479755	0.861340980007017	0.487982674116353	0.861347723792054	0.488109073779304	0.00197049150816007	-0.00275813281035176
3.8	0.00040828345715906	-0.00542101666634819	0.92664576822367	0.348424761453017	0.92667375823967	0.348607937704901	0.00156828010660275	-0.00387675898647561
3.9	8.82128079756221E-05	-0.00610730502319607	0.969690580131861	0.199723012095072	0.969591163705832	0.200310283823383	0.00053073745543721	-0.00526434987141474
4	-0.0010835644884651	-0.00644792188357788	0.988503964475315	0.047545664509901	0.988585787715614	0.0475887679026944	-0.00146080069260696	-0.00607321937415806
4.1	-0.00136985192931327	-0.00639836944934717	0.984230593881972	-0.105990289439657	0.984168379304	-0.105926464396207	-0.00288987123384192	-0.00572932894156499
4.2	-0.002154192237461	-0.00686503797370042	0.955765360895112	-0.258141175253144	0.955957452013943	-0.257571756665561	-0.00405725297653378	-0.00568106067992311
4.3	-0.00301440052980317	-0.00748191754582089	0.90444238453001	-0.402886051354927	0.904443215683305	-0.402867528268376	-0.00539829429480697	-0.00575461683549018
4.4	-0.00438447595906547	-0.00788836317529841	0.830885957767211	-0.538239653261112	0.830806055455218	-0.538223903731554	-0.00697359458284618	-0.00567413788290545
4.5	-0.00613986244809791	-0.00823151818578618	0.737715228287172	-0.660470873652517	0.737591401804529	-0.660325199565126	-0.00926781985174612	-0.00556498230454895
4.6	-0.00796396546443955	-0.00728081665833072	0.626478603549641	-0.767459895450086	0.626463472540362	-0.767230457232039	-0.0115565239699367	-0.00383356948629488
4.7	-0.00914306706513123	-0.0067589530807298	0.499510533219098	-0.855618349216651	0.499627095225507	-0.855373323173161	-0.0131352996128341	-0.00210110867705159
4.8	-0.0104409942223655	-0.00580793796475122	0.360361477650787	-0.922662288820166	0.360654904423518	-0.922473036072755	-0.0141512635731647	1.90944868552103E-05
4.9	-0.011173553665846	-0.0050096030879642	0.212945096087934	-0.967058486093979	0.213204918634799	-0.967006831010984	-0.0143499878969057	0.00245772796357226
5	-0.0118514230526355	-0.00395403534178776	0.0607264164737055	-0.98882688363497	0.0608845516932956	-0.988698456148493	-0.0137537823302207	0.00519858425608185
5.1	-0.0116882888839965	-0.0031617129780619	-0.0937703259977626	-0.986332300073266	-0.0934488782542199	-0.986268835827659	-0.0117536007004339	0.00783310870064407
5.2	-0.0117168077416046	-0.00240190014193097	-0.245813814661112	-0.95983855397968	-0.2453855227355	-0.95995994900198	-0.00940751736665279	0.00974276785964491
5.3	-0.0117807589402277	-0.00192679077146947	-0.391826734988477	-0.910276929747436	-0.391536594160605	-0.910621487453671	-0.00672640435022589	0.0109761595286353
5.4	-0.0120703632945949	-0.00101692460315787	-0.528751086321166	-0.838770305079765	-0.528614289375822	-0.839060228736952	-0.00445179617718279	0.011423719949017
5.5	-0.0126110470410258	0.000537158874296929	-0.653138735362232	-0.746108728728052	-0.653088345285523	-0.746423280509775	-0.00306344162701148	0.0123830764287766
5.6	-0.0118390881334719	0.00234463877347247	-0.760614874324622	-0.635391734172403	-0.760628184098913	-0.63556247318792	1.92325715754188E-05	0.0133923102131115
5.7	-0.0115689972729431	0.00338965025213543	-0.850161834236387	-0.509710345776432	-0.850137822211584	-0.509885836354606	0.00287924454590976	0.0132074075637956
5.8	-0.0112829392342838	0.00502916198375277	-0.919085748307843	-0.371381896112464	-0.919130432027599	-0.371674847068739	0.00551293081716338	0.0124983793365483
5.9	-0.0107448480232723	0.00635291709584279	-0.96580828277607	-0.223955290726043	-0.965928995313777	-0.224003419990574	0.0076687068822723	0.0109443130121058
6	-0.0104395253794854	0.00827986989413883	-0.988399680661588	-0.0710618712025401	-0.988396592426068	-0.0711307227087209	0.00802710233483069	0.00959649327779457
6.1	-0.00858767599492056	0.0102365361559659	-0.987533142786365	0.082871093506153	-0.987536287845999	0.0827674894514234	0.0097182202200204	0.00937350271668529
6.2	-0.00679089248727697	0.0109269378271312	-0.962753846208751	0.235513041560255	-0.962802006723733	0.235330808387644	0.0116037196439709	0.00745069261972672
6.3	-0.00565882081387302	0.011006561534425	-0.914368437763839	0.382348979036841	-0.914392844626746	0.382219941192268	0.0126727893066895	0.00465628280642569
6.4	-0.00479800203554794	0.0110508331117238	-0.84351305566969	0.51964360348676	-0.843504347961849	0.51942949001909	0.0127311594815462	0.00134911355443051
6.5	-0.0041889768355156	0.0110737874337091	-0.752804368254258	0.643845884335893	-0.752905091182919	0.643673096693349	0.0118265965213924	-0.00172940453029398
6.6	-0.00303170784377887	0.011253627257675	-0.643816048845886	0.753399831500747	-0.64396498200848	0.753253415715683	0.0107115176547469	-0.00432060307511714
6.7	-0.00193376047713882	0.0110431276409544	-0.518667972050696	0.844301077286239	-0.518789569413012	0.844143462124992	0.0087266105954378	-0.00668815769803963
6.8	-0.000652293572574967	0.0108460157156638	-0.381029305544269	0.914400293222556	-0.381241057229886	0.914325156344193	0.00616552306344814	-0.00818326773812933
6.9	0.000550279753360415	0.0101506535713205	-0.234574929017509	0.962280799486319	-0.234826332654506	0.962277118296942	0.00363257250036961	-0.00883517247116195
7	0.00188636662437878	0.00950511807440214	-0.0822766821193665	0.987624678745677	-0.0825358616599284	0.987594672920114	0.00130664606984169	-0.00881347933078082
7.1	0.00294506988320242	0.0082333700480902	0.0726827737007603	0.988137517710016	0.0724754449942048	0.988125685858791	-0.00062926196430309	-0.00849874520318957
7.2	0.0036447421662706	0.00694102476065925	0.225274322534933	0.964509169482046	0.225018355039926	0.964553767522076	-0.00237663419362303	-0.0076649331430622
7.3	0.00375613120663373	0.00546878516232107	0.372262041015921	0.917690384964825	0.372021335303756	0.917781798301446	-0.00388971080195408	-0.00646214361825261
7.4	0.0036206577098761	0.00417503959118291	0.510386449569032	0.848730742608048	0.510167875006978	0.848893549646407	-0.00523572402144953	-0.00505785347588596
7.5	0.00295010814830934	0.00303052981492071	0.636451248535746	0.758522946747277	0.63629126568115	0.758695740973179	-0.00625884063799196	-0.00300652597128273
7.6	0.00267975702668995	0.0021650116590721	0.745955667408098	0.650004516562988	0.74574030412369	0.650166341303468	-0.00588353866190105	-0.00109323044900403
7.7	0.00181497490057437	0.00148922205633517	0.837553500143281	0.526303421942453	0.837402708691325	0.526499149291352	-0.00535969184210077	0.000287513835361802
7.8	0.00119427486407424	0.00138643732669725	0.909180306164917	0.389633115419832	0.909059859943536	0.389855507595898	-0.00438505351232355	0.00130858477440475
7.9	0.000473751527249059	0.00145610899026613	0.958466427498858	0.243286547329765	0.958426706901038	0.243512529192147	-0.00353734652413182	0.00173361721989509
8	-0.000505124973298091	0.00220803411773674	0.983599119282279	0.0912494782018184	0.983670779479012	0.0915414876296804	-0.00438819054881271	0.00233602798515834
8.1	-0.000279427803414358	0.00379356025088831	0.985706245884757	-0.0620800062117893	0.985831413464348	-0.0618090090859706	-0.00367064639616673	0.00478520483077633
8.2	0.00052761347509373	0.00456314707000643	0.963920892417751	-0.214437783983269	0.96398789424664	-0.214141880632848	-0.00203598951467939	0.00608899637007537
8.3	0.00114345234815533	0.00511815428359388	0.918458768533887	-0.361511272280675	0.918597384081265	-0.361255740243424	-3.67559049935262E-05	0.00659575397922287
8.4	0.00211837543090302	0.00525424622637286	0.850572505559247	-0.499375126267959	0.850784950338005	-0.499176202645178	0.00216997682925591	0.00593600658587817
8.5	0.00212763998703988	0.00504373168310736	0.763046347662673	-0.62450916122704	0.763162460245874	-0.624383706471897	0.00278028345944919	0.00410324044251619
8.6	0.00284766458455578	0.00575347161647868	0.656827577450026	-0.735695199588219	0.657025489542932	-0.73551052247124	0.0031231978846857	0.00401293933899802
8.7	0.00381029851057431	0.00576133892537556	0.534238301460013	-0.828434917240122	0.534520242384275	-0.828326696928007	0.0042376175428237	0.00344816237669679
8.8	0.00495799642822419	0.00538793328518609	0.399131701637099	-0.900883294249954	0.399337707139971	-0.900829635082283	0.00510518581705986	0.00241578137842841
8.9	0.0060663628738805	0.00464220466575993	0.254741588271275	-0.951559811637427	0.25498346254687	-0.951420352131776	0.00609918344537705	0.00111288379888317
9	0.00720832356351841	0.00324278102762958	0.103986900121107	-0.979917382043589	0.104348797683738	-0.979888705000999	0.00654064170397679	-0.000682445834278452
9.1	0.00828412738852546	0.00176943703173898	-0.0497899869174022	-0.983679357471311	-0.0494379940917586	-0.983695161407914	0.00688498914450648	-0.00207200504740815
9.2	0.00922350095205354	-0.000376348897302413	-0.201774438975854	-0.96348481656361	-0.201419421099336	-0.963556634913771	0.00712439099964976	-0.00364868007829261
9.3	0.00951144048044845	-0.00250531344051854	-0.348638090873337	-0.92030701797783	-0.348281813513009	-0.920372464254225	0.00696214285193777	-0.0049343923968894
9.4	0.00943055876178079	-0.00502918166840531	-0.487122135070809	-0.855137920918357	-0.486799859374141	-0.855286595453861	0.00641817484958922	-0.00628600537948721
9.5	0.00807487368579144	-0.00652374210337271	-0.614250711004637	-0.768426780272661	-0.614045461981203	-0.76856467849068	0.00474897685787817	-0.00590430753191792
9.6	0.00759283611968059	-0.00842453557824908	-0.725217194257597	-0.663230214988461	-0.724945856961735	-0.663415556304126	0.00516156095855063	-0.0052833880204013
9.7	0.00565191362834297	-0.0101961565880699	-0.81884365635239	-0.542736392136154	-0.818599014996193	-0.543005727684106	0.00527597341307809	-0.00583222253320969
9.8	0.0032578627192302	-0.0112848413929003	-0.892909061886782	-0.409034994700654	-0.892701592309799	-0.409309768103958	0.00505516261708393	-0.00639886356581001
9.9	0.000555704117269655	-0.0115659330730378	-0.945198715943658	-0.265164020563816	-0.945087885519832	-0.265492584589841	0.00474276993844188	-0.00744031195088963
10	-0.00282583689373432	-0.0109906241439464	-0.973714113797272	-0.115355220939558	-0.97363561381477	-0.115732364362812	0.00248665625626457	-0.00783711431592518
10.1	-0.00484720626600677	-0.00917946920223315	-0.979543249872124	0.0363018347081477	-0.97952484525004	0.0358260552406	0.00204341014250243	-0.00637765471026242
10.2	-0.00670976638237	-0.00796992585233123	-0.961981788830888	0.187594426651944	-0.96196806137878	0.18714665445617	0.00232347305433653	-0.00627108620776628
10.3	-0.00881176357437326	-0.00602321697867843	-0.920939419124595	0.334343774009852	-0.921075350097895	0.333806500685363	0.00221433083840055	-0.00690677218825591
10.4	-0.0103456431223649	-0.00392015134682344	-0.857469832728835	0.472545832966495	-0.857734564954759	0.472013782383161	0.00186747426417806	-0.00823129543395302
10.5	-0.0118688568848394	-0.0011218833107705	-0.774409387223954	0.59881050923046	-0.774690807950365	0.598426256523813	0.000319839691362665	-0.00981594153201958
10.6	-0.0119241854583202	0.00223932013905756	-0.672474429401456	0.711965128007907	-0.672898692377334	0.711623660761612	-0.00131147204847089	-0.00997553646704847
10.7	-0.0109263573758369	0.00543574233213089	-0.553827071960486	0.807518803941712	-0.554236612174976	0.807232753199979	-0.00218485848888562	-0.00983528254447353
10.8	-0.00893810371733738	0.00766698981788056	-0.421877150348564	0.883210722960494	-0.422384778699617	0.882983545470047	-0.00269713626134728	-0.00996581887777061
10.9	-0.00681448051441378	0.00948203178665601	-0.280372104423466	0.937624395303155	-0.280857068869652	0.937573920086379	-0.00359247686675444	-0.0103291610391522
11	-0.00424164697095467	0.0105418114162602	-0.131764087634694	0.970459992658614	-0.132307589782701	0.97045607535676	-0.00458831747469682	-0.0104366245868047
11.1	-0.00128902376783889	0.0111022067506456	0.0208999461569712	0.978726720320321	0.0202742724413788	0.97880988252292	-0.00516730562256654	-0.0105237509119758
11.2	0.00164937160587533	0.0106278683414445	0.172030923314287	0.963318490000042	0.171514901466143	0.963520787202807	-0.00573387275346708	-0.0108034419480701
11.3	0.00439563427851867	0.00969703222125123	0.318828863702811	0.925095085973527	0.31840189210667	0.925356283456628	-0.00618879486851998	-0.0110376648656161
11.4	0.00670404997323547	0.00785510302234645	0.458487726834449	0.864942352471768	0.458025993267969	0.865200977890726	-0.00706200090873153	-0.0113893171528213
11.5	0.00831282868963223	0.00653058540639587	0.587536045149917	0.782741863110258	0.587180324888932	0.783158051929819	-0.00899187722182676	-0.0105261143667409
11.6	0.0103770924127989	0.00419558233388974	0.700831189624294	0.681968550612525	0.700566284331683	0.682446385840133	-0.00928435491210006	-0.00914697828497686
11.7	0.0112969706011712	0.00163747664418144	0.797903477487434	0.5655092759809	0.797665865951092	0.565928950525809	-0.00964229208511478	-0.00859879820281838
11.8	0.0113477070860682	-0.000994717301624178	0.876055871345812	0.435012812822965	0.875872754153406	0.435562115127379	-0.0103036726108052	-0.00819713757112098
11.9	0.0108506788575448	-0.00304651899694151	0.932934785196156	0.293709420124277	0.932896927238934	0.294250701037923	-0.0114774763003542	-0.00784155298150723
12	0.00904213921959056	-0.00462319152209326	0.966199661889285	0.14580227860098	0.966187522558928	0.146278999068425	-0.0141790670070345	-0.00683363691778491
12.1	0.00878583211975652	-0.00502345100528552	0.977352180915966	-0.00485467588574513	0.977327175865522	-0.00438436476271258	-0.0148479522283199	-0.00353485897692578
12.2	0.00812477968531479	-0.00657881285076709	0.96507655004273	-0.156249398985428	0.965182097747704	-0.155814276556507	-0.014397060635355	-0.00120179108573052
12.3	0.00705925200140508	-0.00787740938087404	0.92919091273128	-0.303821745762505	0.929375100940233	-0.303465101920658	-0.0134137301367716	0.000555403750675397
12.4	0.00545082964895401	-0.00941794555476522	0.870926403720316	-0.443867381164345	0.871057802737234	-0.4434941386031	-0.0120577023198776	0.00130069522732108
12.5	0.00285807150363774	-0.0104727933100178	0.792365820433174	-0.572848305055801	0.792820776737236	-0.572456178604094	-0.0121834561623749	0.00105648499430945
12.6	0.000498797114996442	-0.0104135450082872	0.694567402914815	-0.689418628512845	0.69491172197231	-0.689109163927278	-0.0122374753766351	0.00237384872698678
