# GHZ S RI R 50
0.2	-0.000302413526362997	-7.97037984837422E-05	0.949245881720426	-0.307778278491516	0.949019635414803	-0.307920240124739	-8.53115380188561E-05	1.44319513059238E-05
0.3	-0.000500337226008598	0.000199478221940647	0.889403807950799	-0.451470599133599	0.889266363846338	-0.45152385206181	-0.000237236148314176	-0.000170950697173464
0.4	-0.000385059371012615	0.000389912742786524	0.808015952481423	-0.583833211980529	0.808056104395937	-0.583972850386871	-0.0001689422016071	-0.000199649203062042
0.5	-0.000455072580272307	0.000671456749393634	0.707257453559706	-0.702271019102926	0.707146836154365	-0.702366923522226	-3.24931859079093E-05	-0.000216585102733945
0.6	-0.000378304366419054	0.000737075595064009	0.589305579662665	-0.803348617351622	0.589115976425062	-0.803351554125199	1.05957194841078E-05	-0.000513813365756584
0.7	-0.000430030632007614	0.00112402572403341	0.457239237762535	-0.884785180031155	0.457165196873156	-0.884819581068142	-4.72994704322525E-05	-0.000825267024240171
0.8	-0.000206631952592361	0.00120543699493567	0.314180446064137	-0.944942995881583	0.314061865151579	-0.944856272541692	-0.000269072639168856	-0.00108153496513258
0.9	-0.000151462995255046	0.00152680486324346	0.163517597020378	-0.982047177638687	0.163368559199076	-0.982004330154394	-0.000749766233860117	-0.00135270505086563
1	4.09069508180849E-05	0.00169620547003309	0.00891011490393385	-0.995119205480524	0.0087920307958731	-0.995089529787561	-0.00129050733031529	-0.00125423423002917
1.1	0.00036963566399421	0.00171415742017862	-0.144957612769705	-0.984319057634585	-0.145605164445035	-0.98428401095385	-0.00173880169554922	-0.00102182784550462
1.2	0.000684950611762029	0.00097155714527839	-0.296798066089393	-0.949595166754067	-0.296791091496033	-0.949650849254814	-0.00177696479503187	-0.000584927450395624
1.3	0.00108258430568459	-0.000311367391775095	-0.44054415530216	-0.891747410971244	-0.44063625976545	-0.891771876967813	-0.000662918697816209	0.000207786124142496
1.4	0.00123860467351006	-0.0022217430994916	-0.573405408617332	-0.812379605881669	-0.573479197327199	-0.812280033731476	0.000961738448913154	-0.000149686050949672
1.5	0.00124629707135301	-0.00319417775113586	-0.692470410239101	-0.713309119551349	-0.692495012685615	-0.713237080491284	0.00243095644737906	-0.00131208280874035
1.6	0.000809011390943508	-0.00375815722039422	-0.7944275995322	-0.597484531184429	-0.794857123311601	-0.596983982549017	0.00190919617011983	-0.00279232894613483
1.7	0.000619067356154314	-0.00360975476124874	-0.877360421066664	-0.466687447353128	-0.877664735922263	-0.466197515059119	0.0009843279395223	-0.0033469832666803
1.8	0.000299801181435898	-0.00363611913550716	-0.939148938738524	-0.324301699092164	-0.939164387235122	-0.324292232493579	-0.00015222731908907	-0.00376735238704342
1.9	-6.34295259113362E-06	-0.00343276756513466	-0.978001498882352	-0.174472678535546	-0.978046015764921	-0.174525417267775	-0.0012322442792171	-0.00370477758905373
2	-0.000226779720094551	-0.00338892736893392	-0.993044328148157	-0.0211150240960952	-0.993138995597446	-0.0204654397373507	-0.00193102650637265	-0.00326381002748337
2.1	-0.00073087227416798	-0.00350773255954067	-0.983974329009756	0.134642632146721	-0.984074092035138	0.134158422586515	-0.0025353572534483	-0.00320236306189777
2.2	-0.00156285505116023	-0.00346914523251562	-0.951134052181711	0.284993704126882	-0.95117276842165	0.285127483454718	-0.0033236515859503	-0.0029179256993933
2.3	-0.00228801244921275	-0.00318137929226256	-0.895278156230667	0.429074204690901	-0.895114274639358	0.429162587349292	-0.00410269397352144	-0.00251180151420961
2.4	-0.00326624599648033	-0.00278767035928607	-0.817229239525306	0.563362292369522	-0.817520867625511	0.562900477765682	-0.00488053646482966	-0.0019141088153439
2.5	-0.00382479991449462	-0.00180652366972337	-0.719919021729079	0.68337984350742	-0.720221628518159	0.682999362144439	-0.00490847002491875	-0.00108115202459407
2.6	-0.00423075170799015	-0.00117371716777662	-0.605325784811482	0.786316383972432	-0.605246598286645	0.786256935422353	-0.00446926458295959	-0.000797159287528378
2.7	-0.00426221719105501	-0.000308631528015678	-0.475817976376264	0.870518737213692	-0.475788492545147	0.870532805318208	-0.00433736963449746	-0.000697352892325837
2.8	-0.00399985879521078	0.000309766357185212	-0.335072756415458	0.933685378512125	-0.334954513574764	0.933769777238348	-0.00410006590920845	-0.000468975602552558
2.9	-0.00302012435815005	0.00075264397176201	-0.185992978024027	0.974259213971495	-0.185988477595975	0.974313993669597	-0.00358716944932663	8.16340529275846E-05
3	-0.00206412187563708	0.000743212819225368	-0.0321695871597621	0.991033657536256	-0.0322338097938319	0.991105140612955	-0.00252893687470457	0.00047295413798626
3.1	-0.00102185202381313	0.000619767948205891	0.121073933179274	0.983925897128182	0.121721833830181	0.984006543563534	-0.00159872178043189	0.000656572512132164
3.2	-0.000264693521795206	0.000155490284078165	0.272935866949953	0.952975896483731	0.272925948799325	0.953015483544082	-0.000826197290840016	0.000606552271068898
3.3	0.000625940946915903	-0.000494763990968539	0.418254848433588	0.898647539607659	0.417632717998172	0.898929561077419	0.000192967547238918	0.000361342224158304
3.4	0.00100237678556031	-0.00128938204550258	0.552112328683369	0.822925965978794	0.552027559454944	0.823041296123783	0.00121648409472064	-0.000241705282903166
3.5	0.0015829063789502	-0.00216678545311518	0.672741754007969	0.727280564355391	0.672755997154112	0.727306733389295	0.0021612706948298	-0.00137600589363761
3.6	0.00128967878256968	-0.00314043294595462	0.777060918919446	0.614494295826482	0.777482454396512	0.614100067347082	0.00213175551059571	-0.00277570645154604
3.7	0.00114928578911625	-0.00391413614410132	0.86332755150027	0.485706084560926	0.863334677353654	0.485832541467618	0.00183263690538307	-0.00372069524197395
3.8	0.000582880666471057	-0.00467261185951931	0.928000567725824	0.345684524959778	0.928029129137713	0.345867671404516	0.00114096126166808	-0.00468208938569507
3.9	0.00021214012242412	-0.00528265708997005	0.970310407366787	0.196962257231379	0.970212664022359	0.197549842790082	-9.07986840148593E-05	-0.005508339661692
4	-0.000369798831137707	-0.00572694793488966	0.989182931966344	0.0448324208185078	0.989264919958497	0.0448753213047937	-0.000933459948616099	-0.00587657186365558
4.1	-0.00110481937246201	-0.00652238087792051	0.984147203968873	-0.109460372279522	0.984085194273941	-0.10939631123133	-0.00219887218783303	-0.00674502256385728
4.2	-0.00248645874185022	-0.00693014795458249	0.954675370353934	-0.261458025911397	0.954869430310132	-0.260889391575495	-0.00392558866768122	-0.00703992699682529
4.3	-0.00373206648969747	-0.00736179804164903	0.902691795696998	-0.405786899797786	0.902692689397843	-0.405768387367524	-0.00580805635414049	-0.00713460374579525
4.4	-0.00551452539198471	-0.00735913474318613	0.828833727951132	-0.540816230706561	0.828753903746767	-0.540800221703428	-0.00807968301111099	-0.00655792128539622
4.5	-0.00691943784916691	-0.00688575091942879	0.73476393771097	-0.663234348716393	0.734640748207331	-0.663088223276173	-0.00984172877310231	-0.00506115925894432
4.6	-0.00838039099752901	-0.00624705859148455	0.62257712314956	-0.768979767023443	0.622562934390676	-0.768750566667273	-0.011000205619896	-0.00374726576488866
4.7	-0.00964638729160091	-0.00570357258024155	0.495557916360757	-0.856155043965867	0.495675209567842	-0.855910829574068	-0.012308278434587	-0.00252551167495514
4.8	-0.0109227030182977	-0.00467272725842626	0.356405442177712	-0.922468154388697	0.356699079601589	-0.922280281843508	-0.0132548027802856	-0.000903210676084822
4.9	-0.0116299489994132	-0.00375188482502428	0.208777649494389	-0.966179483732833	0.209037214097206	-0.966128938489362	-0.0136238603371534	0.001175136679514
5	-0.0120965955882805	-0.00269612009008918	0.056565143469515	-0.986291157264345	0.0567233522543996	-0.986163729112488	-0.0130138993902218	0.00346482181402287
5.1	-0.0121591368683412	-0.00190180677862448	-0.0966367557148429	-0.983070506625882	-0.0963160708990168	-0.983008258962242	-0.0119106116615544	0.00553670041583639
5.2	-0.0121628813412925	-0.000857568639800899	-0.248053839583503	-0.956240306689239	-0.247627189436184	-0.95636266661161	-0.0105151091431538	0.00781948346003842
5.3	-0.0120617741031071	-0.000149624496932686	-0.393412571069456	-0.906147479683417	-0.393124431221913	-0.906491841098943	-0.00833078671756302	0.0099843203208399
5.4	-0.0119453869654204	0.00104784689629358	-0.529292667256265	-0.833977009044248	-0.529157271282888	-0.834266247372277	-0.00557150411524636	0.0117495714350419
5.5	-0.0115556209809	0.00183615146954811	-0.651877807322205	-0.741677452177556	-0.651828253803301	-0.741990782941149	-0.00211766371325206	0.0121955326194534
5.6	-0.011797820107366	0.00300479086853674	-0.759046523972394	-0.631701679350648	-0.759060100452629	-0.63187177893427	7.26954465360385E-05	0.0116418826151363
5.7	-0.01184123849206	0.00441130957482301	-0.847936735115487	-0.506135124651975	-0.847913154128639	-0.506309998482153	0.00200628313472138	0.0116374182208657
5.8	-0.0116362769976464	0.00621175802686663	-0.9159434660396	-0.368239802063503	-0.915988478379662	-0.368531465924644	0.00404185428933213	0.0115151539516554
5.9	-0.0112201817672056	0.00794337096363999	-0.961791485149045	-0.221856687780985	-0.961911718735724	-0.221904465687802	0.00599069139953758	0.0114168525877907
6	-0.00984213777683547	0.0099866720967467	-0.984797433869084	-0.0701386759039238	-0.984794403067482	-0.0702072752311682	0.0088966198618768	0.0111642661075986
6.1	-0.00847672701174923	0.0108785090278535	-0.983577527825972	0.0837535865162777	-0.983580787083769	0.0836503906679859	0.0115183645075868	0.00883029843864708
6.2	-0.00723922301831652	0.0118053062755889	-0.95835905388854	0.235354314306666	-0.958407168752123	0.23517291618834	0.0129778987815919	0.00592411483963324
6.3	-0.0061967615487833	0.0122109222380666	-0.910152813339259	0.38101478206447	-0.910177163192423	0.380886327321533	0.0134317779361607	0.00258582537469748
6.4	-0.00523751077940933	0.0125605290087684	-0.840094221151419	0.517494728343811	-0.840085541042205	0.517281487813859	0.0127451429786927	-0.00067334593545457
6.5	-0.00425421295996171	0.0126546607343979	-0.74947961995043	0.641828120216573	-0.749580062078982	0.641656065827837	0.0115951028597182	-0.00353507609898155
6.6	-0.00302412543180623	0.0127712424405764	-0.640538963357505	0.749976316919014	-0.640687224920079	0.749830640319404	0.00995431803569013	-0.00582945105156728
6.7	-0.00172748974959876	0.0125069716032175	-0.5165169500852	0.840087915572417	-0.516637909505789	0.839931004771812	0.00799625928287992	-0.00755696201518292
6.8	-0.000393800976800266	0.0120800322976116	-0.379932547150875	0.909996272825519	-0.380143288010152	0.909921330560338	0.00581035827706179	-0.00875790024385499
6.9	0.000708310064797535	0.011260175760279	-0.234063964860399	0.957958410924732	-0.234314269925081	0.957954611939662	0.00374021969798266	-0.0093800622338273
7	0.0018198824985136	0.0103452314079345	-0.0824159392251753	0.98230665060077	-0.0826737182439464	0.982276653131766	0.00170565029976942	-0.0099770108799539
7.1	0.00240394368920967	0.00932647397796279	0.0705465623508366	0.983115820699538	0.0703403354626791	0.983103681790732	-0.000682376474844835	-0.00985799765794937
7.2	0.00303248796059727	0.00838655098547729	0.22220976031208	0.960336775466392	0.221954931325032	0.960380633179963	-0.00255615173626888	-0.00893137437611695
7.3	0.00318447579506167	0.00721297519905149	0.368534858494572	0.914156037280644	0.368295093191181	0.914246502394139	-0.0041092265948776	-0.00768860167231116
7.4	0.00323808324366352	0.00622647911759495	0.50581076039452	0.845583651976061	0.505592923469656	0.845745120522726	-0.00538925446347465	-0.00617432591281443
7.5	0.00306146656990094	0.00505501937115904	0.630283666305646	0.756929906897478	0.630123875332001	0.757101198405053	-0.00593644527775382	-0.00452316422031483
7.6	0.00261290162912747	0.00399306326605374	0.740290749577711	0.650329132891889	0.740075620803701	0.650489430641003	-0.00631282862266117	-0.00341890510122499
7.7	0.00176449645060509	0.00346992151587073	0.832189890712248	0.527558280112251	0.832038914879807	0.527752643979569	-0.00676025986017408	-0.00182346713768723
7.8	0.00119931365115252	0.00340336602420115	0.903976361905866	0.391965654796826	0.903855443339802	0.392186667462324	-0.00649334809310584	-1.29249244798462E-05
7.9	0.000473624905125208	0.00365745575544952	0.953616947006962	0.247167799897123	0.953576244491287	0.247392726765706	-0.00570005705106196	0.00208858286204561
8	0.00070668557649572	0.00441194545949107	0.980768991323263	0.0964597850926288	0.980838871092886	0.0967514990829165	-0.00387325497185627	0.00404104772506346
8.1	0.000494631586055925	0.00454930791035002	0.98388927598971	-0.0572419887961603	0.984012881707254	-0.0569709752275113	-0.00181349507451726	0.00424709252976584
8.2	0.00044508380984229	0.00511054124996765	0.962870660592305	-0.209156862972061	0.962936038707011	-0.208861276163502	-0.000558272458894087	0.00422241385973238
8.3	0.000368545432019915	0.00577434117162841	0.918681195382044	-0.355871033365106	0.918818170081342	-0.355615234057215	0.000622155228929467	0.00390697638241155
8.4	0.000540296661629919	0.0064480468312849	0.85256036631069	-0.494020048521381	0.85277146200548	-0.493820114530306	0.00138278334278241	0.00335842377221957
8.5	0.000979722070332907	0.0075691656205398	0.765606531051416	-0.620723339743726	0.765722015520296	-0.620597402048648	0.0024740487011816	0.00336764982194582
8.6	0.00206591108951302	0.00789823649853615	0.659634450875797	-0.731690067867155	0.659831247002059	-0.731504644712902	0.00395122472542733	0.00200326890164966
8.7	0.00289402563332587	0.00831176864254469	0.538230447854475	-0.824944357673824	0.538511592563047	-0.824834721234023	0.00439025517909394	0.000512523987147945
8.8	0.00439238396072622	0.00834699931223268	0.403950669251691	-0.898540366937496	0.404156343396565	-0.898485598557464	0.00422797730168159	-0.000909781237081518
8.9	0.00586855540364963	0.00776149024221121	0.259556616266789	-0.950614830242332	0.259797879061212	-0.950474121615148	0.0037810050654213	-0.00190045724433861
9	0.00757265926521976	0.00653630846066502	0.10860774992768	-0.978922615405291	0.108969326498826	-0.978892226870411	0.00360616889713873	-0.00224408275696469
9.1	0.0089230980902351	0.00483735847397786	-0.0440422047865227	-0.983995996547474	-0.0436901104228874	-0.984009743689424	0.00381797092014821	-0.00262647457597
9.2	0.0102606372793732	0.00268655633219003	-0.196381918292538	-0.965461838159753	-0.196026186551811	-0.965531667386767	0.0046081359554602	-0.00276118335742481
9.3	0.0109902851355558	0.000131512428988224	-0.344070431656272	-0.923336912880983	-0.343713358933511	-0.923400505040649	0.00588897521165261	-0.00329381955945816
9.4	0.0109276146262307	-0.00281261240523181	-0.483198378745016	-0.858492846622249	-0.482875018559553	-0.858640007869294	0.00697592947345175	-0.0043696804242307
9.5	0.00995812068653509	-0.00546627370780547	-0.609996278150586	-0.773152757900514	-0.609789933707476	-0.77328949210313	0.00793767441060043	-0.00603235164280089
9.6	0.00775954612428504	-0.00784854635631236	-0.722915411749982	-0.669382050710712	-0.722642247920166	-0.669566172323067	0.00676335051526144	-0.0081507067070358
9.7	0.00529037714542609	-0.00889027404205355	-0.81807751372756	-0.548946738723198	-0.817830641546444	-0.549215445404663	0.00527937395462249	-0.00886450941860729
9.8	0.00279385903515376	-0.00961708345665125	-0.893269632044578	-0.415224188891877	-0.893060016375085	-0.415498618387918	0.00388929401865457	-0.00901648463371095
9.9	-0.000107584254419739	-0.00939070147639155	-0.946617085007346	-0.271723181184578	-0.946503914950885	-0.272052125716383	0.00274311206272495	-0.00844056138280554
10	-0.0022622071471484	-0.00864756561968172	-0.977850232942423	-0.121868763014245	-0.977769042050315	-0.122247302095491	0.00300788064810324	-0.00758024058357399
10.1	-0.00492728487458926	-0.00784665527122942	-0.984826777318124	0.0318641935376785	-0.98480602914507	0.0313860179688099	0.00276087484475228	-0.00833457483210799
10.2	-0.00724100274101433	-0.00623568877905026	-0.967808361862986	0.184255053114577	-0.967792556329466	0.183805021661316	0.00191377243835293	-0.00852525377769794
10.3	-0.00932120994899877	-0.00402828851131803	-0.927536108564711	0.332120734980105	-0.927670414253262	0.331579875054915	0.000915433371221813	-0.00872637278666008
10.4	-0.0109211256383369	-0.00167420970668663	-0.865078274402642	0.472023738128529	-0.865342496274472	0.471487086683331	-0.000159845231008006	-0.00872502230948079
10.5	-0.0117979360842748	0.00158318694033816	-0.781304584046761	0.601247383946635	-0.78158710258806	0.600859746745622	-0.000294166762466365	-0.00826868439670369
10.6	-0.0114383400891678	0.00430954113376158	-0.678009911385393	0.714957049865078	-0.678436076441207	0.714612645716092	0.000126844176198132	-0.00890225690282267
10.7	-0.010547534751911	0.00697510287967502	-0.558917802703081	0.811426741246196	-0.559329314314801	0.811138076504232	0.000285583133593288	-0.0100185911981417
10.8	-0.00909749217901895	0.00888646269671316	-0.426154082518888	0.888345473533703	-0.426664687775137	0.888115939094382	-0.000264703201618488	-0.01151641033548
10.9	-0.00758020134857141	0.0108806919264304	-0.28294030517998	0.943913451073187	-0.283428586109598	0.943862300664352	-0.00162487457547001	-0.0126343058313873
11	-0.00523478057472634	0.0122049741508022	-0.13257484127361	0.975841561338119	-0.133121362981214	0.975837578211451	-0.00283930839811826	-0.0134221870300799
11.1	-0.00265936903839292	0.0133405196044232	0.0201241266955349	0.984481639483456	0.0194947099479018	0.984564714764251	-0.00437063767600512	-0.0139983590920192
11.2	0.000439412283653941	0.0135069538012371	0.172671881937995	0.969595741	0.172152444346214	0.969799089773005	-0.00569221344338994	-0.0141930489664535
11.3	0.00351553192255053	0.0129884002735963	0.32113435874082	0.931040658721357	0.320704671249672	0.931303662987164	-0.00677767010124983	-0.0140133273969573
11.4	0.0062551905049829	0.011637644415387	0.461912934077735	0.869625003726787	0.46144871256627	0.869885538982912	-0.00777162948049146	-0.0133389162598797
11.5	0.00894825173517202	0.00991037329670443	0.590684981349984	0.787343277216854	0.590327132785639	0.787761746154343	-0.00805545095108238	-0.0129889932637804
11.6	0.0104859791967951	0.00714957279328374	0.705973365354974	0.686424091167462	0.705706811952875	0.686905352007996	-0.00966165127486208	-0.0131187217982951
11.7	0.0115460806506499	0.00483684411785958	0.804148876937899	0.568334009394625	0.803910191315298	0.568756888908905	-0.011421372874473	-0.0121685582864515
11.8	0.0118286160854056	0.00208704797240211	0.882536498516113	0.436246270303846	0.882353190161225	0.436799473190125	-0.0131584679272536	-0.0107078440114069
11.9	0.0113188402164196	8.26990767034102E-05	0.939170964583933	0.294104689604119	0.939133699500186	0.294649386036032	-0.0147904525298628	-0.00796285711130706
12	0.0109638170590368	-0.00175177413467211	0.973888676167733	0.145198928883894	0.973877294305966	0.145679336401296	-0.0139428666665986	-0.00494723538781575
12.1	0.0100608257788397	-0.00389008836243292	0.984484128805608	-0.0082879067346095	0.98446057587395	-0.00781406857846443	-0.0130538651634808	-0.00392952724130812
12.2	0.00845886998124942	-0.00584603836046019	0.970907153684833	-0.161023474977928	0.971015087907344	-0.160585859444651	-0.0125948834333121	-0.00290537592927448
12.3	0.0064473701085783	-0.00731112424365301	0.933977959572346	-0.3094958115536	0.934164762011751	-0.309137600284034	-0.0121556889791331	-0.00219496210574901
12.4	0.00360784136462323	-0.00838953603752235	0.875101232642678	-0.45066355637563	0.875235134666092	-0.450288274345791	-0.0121810664962467	-0.00149590176957384
12.5	0.00105128225552165	-0.00806525128670386	0.79418287346978	-0.581787920783216	0.794643430559634	-0.581395978873602	-0.0117193736273648	-0.000158219073337898
12.6	-0.00121201648256043	-0.00794906918423523	0.693738020013519	-0.69749698174664	0.694086132057303	-0.697188126520617	-0.0108254971953961	-0.00026090646360097
