# GHZ S RI R 50
0.2	-9.18229010581051E-05	-0.000281190398106515	0.950217308169205	-0.307610703211302	0.949990929374569	-0.307752893021299	0.000142806188710714	-0.000206207961628079
0.3	-0.000447889106282042	-3.91061948166499E-05	0.890588314701343	-0.451455056381607	0.890450755385756	-0.451508441116516	-0.000162196369068161	-0.000451985189658688
0.4	-0.000531418904304775	0.000219182899546771	0.809414926139193	-0.584104315059499	0.809455214110015	-0.584244110396261	-0.000299300303747036	-0.000435570883931799
0.5	-0.000613784845463059	0.000841314998321213	0.708646831686657	-0.703092537133218	0.708536078723341	-0.703188636069553	-0.000179465723302488	-0.00011614576615993
0.6	-0.000288166610445126	0.000798764522048961	0.59040698222003	-0.804359992396126	0.590217100670252	-0.804362988661343	0.000132086804995893	-0.000543417083427073
0.7	-0.000453560874293516	0.00110423193407311	0.458265808715113	-0.886025269543337	0.458191662722912	-0.886059750393514	-4.17752886727436E-05	-0.000981882052395718
0.8	-0.000312663782650636	0.00122245924099599	0.314996148391566	-0.946510113767844	0.314877335399344	-0.946423271812603	-0.000376430563386785	-0.00124642799419352
0.9	-0.000395510143253338	0.0015905913307955	0.163908899531962	-0.983881953506349	0.16375957750685	-0.983839038043108	-0.00106764212689257	-0.00150143498440832
1	-0.000176606448300632	0.00233816969750138	0.0088450315851723	-0.996800103976299	0.00872675049310832	-0.996770368681885	-0.00168873650008924	-0.000755896465302109
1.1	0.00117417467705073	0.00202549954032876	-0.145065008842418	-0.986097277475858	-0.145713721088236	-0.986062267761037	-0.00109595199899713	-0.000724902508824906
1.2	0.0016118406312511	0.000208759678459943	-0.297354479141971	-0.951530771918435	-0.297347487849317	-0.951586566797822	-0.000921133299789671	-0.00128207348102435
1.3	0.00162484004424415	-0.00204870036885859	-0.441603055412076	-0.893572768984903	-0.441695358332759	-0.89359727373407	-5.62632915283987E-05	-0.00144606537579824
1.4	0.00113047568417978	-0.00422298013551775	-0.574816062864192	-0.813887117909989	-0.574889974995566	-0.813787319954508	0.00103406080229705	-0.00215373296882656
1.5	0.00118928365099979	-0.00503698838131257	-0.69397159538634	-0.714756492309517	-0.693996244439095	-0.714684300507024	0.0026445989555886	-0.0033078603614855
1.6	7.27823275466176E-06	-0.00551038695924889	-0.796631902282907	-0.598790762490808	-0.797062385067019	-0.598288809955084	0.00133941786263653	-0.0049356162997745
1.7	-0.000437543706239388	-0.0044485517900736	-0.879955937267789	-0.467336939116757	-0.880260729039156	-0.466845529028046	-2.43986737106016E-05	-0.00467423555135451
1.8	-0.000615016690519457	-0.00379572265762563	-0.941841867449855	-0.324331594823372	-0.941857347593805	-0.324322090626104	-0.00117872897988925	-0.00439111740570091
1.9	-0.000592765615812781	-0.0029152219441355	-0.980693697303096	-0.174040829854221	-0.980738377242006	-0.174093665000308	-0.00203683959714723	-0.00353354484315811
2	0.000401917047588469	-0.00276691433709205	-0.996072423017473	-0.0200652207208518	-0.996166648405889	-0.0194135648813115	-0.00143752766281629	-0.00284088452582674
2.1	-0.000239594192420775	-0.00387054316404419	-0.986590024349831	0.136816780544771	-0.98669095464782	0.136331344556852	-0.00209043621327202	-0.0038543705636439
2.2	-0.00147334801358762	-0.00377047471004749	-0.953066072911234	0.287683701146965	-0.953104618946223	0.28781791273148	-0.00335889533800626	-0.00356907611590329
2.3	-0.00230256568628729	-0.00332633321790509	-0.896617940218965	0.432120802473319	-0.896453448793035	0.432209051983508	-0.00435236380595329	-0.00296917553519154
2.4	-0.00332365146270124	-0.00267116908725019	-0.817997754163068	0.566810316262438	-0.818291261008199	0.566348002668547	-0.00526513212563521	-0.00196013294832245
2.5	-0.00311657208309685	-0.00144748334796364	-0.719546174774524	0.687305625731382	-0.71985071286944	0.686925158298719	-0.00442705630386689	-0.000615429989879134
2.6	-0.00333702500663386	-0.00193599557982485	-0.603881765050761	0.789669413203845	-0.603802627888547	0.789609603737383	-0.00350122854243847	-0.00141995509926792
2.7	-0.00398429034826962	-0.00153822389613986	-0.473812727240064	0.873451747717722	-0.473783150608217	0.873465744588413	-0.00381935258589022	-0.00192844482763407
2.8	-0.00428653485986332	-0.000959439209685396	-0.332431704257147	0.936222766643944	-0.332312998667551	0.936306894201528	-0.00410162337726134	-0.00190313203206212
2.9	-0.00365562739343404	-0.000290489463669988	-0.182584730001173	0.976167346673104	-0.182580019321301	0.976222177776158	-0.00395403635009666	-0.00123866119499955
3	-0.00282999638243641	-0.000209023316199634	-0.028401098167395	0.991585696247616	-0.0284650758047301	0.991657455407109	-0.00304126577038614	-0.000875722826345795
3.1	-0.0021555525628368	7.94641869874057E-06	0.124427971563328	0.983839004448858	0.125076355234181	0.983917494618132	-0.00259503810817655	-0.000511097415480924
3.2	-0.00137300169546917	-3.98143587452619E-05	0.276298497333726	0.95231166247735	0.276288712705798	0.952351295185645	-0.00191426709655873	-0.000125008866081375
3.3	-0.000361972294451133	-0.000339292467341215	0.421475154783127	0.897188817687555	0.420854007342482	0.897473068288043	-0.000853618767346013	2.31766005891803E-05
3.4	0.000349645037998435	-0.00077757486992162	0.554789962757401	0.820626721255224	0.554705637105434	0.820742302592807	0.000491709093476956	-0.000143436820779728
3.5	0.0014617646672545	-0.00195207850666226	0.674522193801393	0.724891509217344	0.674536506490642	0.724917621745994	0.00208375245032801	-0.00157757751758795
3.6	0.000774548166895343	-0.00305946801597201	0.778834816504515	0.61191578395437	0.779255020766223	0.611520309456457	0.00163386953299799	-0.00325173022521809
3.7	0.000652214631183724	-0.00350357085192556	0.864574737532238	0.482555651888554	0.864582288677571	0.482682026206603	0.00123129120783794	-0.00389088446882662
3.8	0.000257355088164008	-0.00405743912008023	0.928452708603794	0.342278358038478	0.928481867447774	0.342461266337235	0.000608013722118175	-0.00458306510437356
3.9	0.000168269987275451	-0.00439630934577041	0.970022674761401	0.193719542647172	0.969926874930728	0.194306886105703	-0.000388325406290272	-0.00497504450167359
4	0.000442126705875198	-0.00510482821810261	0.988776045289537	0.0415585527590664	0.988858128250315	0.0416011599415497	-0.000191535081792515	-0.00542821643229876
4.1	-0.000676064352234974	-0.00667835532380142	0.982686294937674	-0.113125290786388	0.982624596889776	-0.113061059248803	-0.00163888861114299	-0.00719262189491661
4.2	-0.00245735539149185	-0.00696079901996354	0.952189231784787	-0.264625979777766	0.9523851182285	-0.264058969999756	-0.00375234757183028	-0.00749367200390367
4.3	-0.00380385416583763	-0.00717132970761159	0.899569107621141	-0.408268494412768	0.89957006595833	-0.408250019423668	-0.00578269465938224	-0.00743334797984269
4.4	-0.0055254822629222	-0.00686633865518122	0.825345908943872	-0.542736316758077	0.825266292557459	-0.542720054601908	-0.00808338095753061	-0.00652638035356774
4.5	-0.00617479595536465	-0.00631529374992337	0.73035339313565	-0.664677629081974	0.730231085194248	-0.664531343067687	-0.00902823106653438	-0.00476561208995532
4.6	-0.00768471673806191	-0.00669968490067334	0.617793176142985	-0.768782698079179	0.617779865351389	-0.768554178998553	-0.00998162647617902	-0.00451297747156404
4.7	-0.00967460418489684	-0.00637889117192437	0.491145325664827	-0.85484194169019	0.491263002438933	-0.85459892839569	-0.0118963572275746	-0.00369231620248179
4.8	-0.0114766558867814	-0.00509809409643697	0.352363626116453	-0.920307161007803	0.352656800777812	-0.920120836366966	-0.0133501734891225	-0.00201320140093614
4.9	-0.0123749705675792	-0.00370040253507524	0.20499733080615	-0.9631263232959	0.20525605806738	-0.963076772424366	-0.0139766385484432	0.000381860741791433
5	-0.0126431265243822	-0.00242512564272733	0.0536673294665274	-0.98176008968092	0.0538251269461617	-0.981633688182282	-0.0132356915740254	0.00274091171417975
5.1	-0.0128126485192	-0.00137964382261186	-0.0979432777352796	-0.978311112230336	-0.0976239778410451	-0.978249728264137	-0.0124630203998686	0.00487067157113156
5.2	-0.0125093829003332	3.86032222250938E-05	-0.248411812585861	-0.951451833487607	-0.247987317255874	-0.951574299365973	-0.0110863793632957	0.00755226368447074
5.3	-0.0119263297237922	0.000899556393118589	-0.392763977091346	-0.901270502262768	-0.392477687085812	-0.901613607168443	-0.00864576950171803	0.0100938782482596
5.4	-0.0110941560618671	0.00210885824963212	-0.527324177221928	-0.829151346055343	-0.527189754850576	-0.829439209065579	-0.00516095679957048	0.0122090397313009
5.5	-0.0100217906509212	0.00169833058893351	-0.648519208483369	-0.737994749577139	-0.648469876045829	-0.738306494420532	-0.000661488872803143	0.0115500899688074
5.6	-0.0112832876395177	0.00246565712995503	-0.755565371004917	-0.628905631978231	-0.755578872770032	-0.629074963622351	0.000548277053745298	0.0102976664377542
5.7	-0.0114550375265595	0.00418585724626295	-0.843910294536911	-0.503905688169058	-0.843886797006188	-0.504079743770268	0.00213786640265006	0.0105508073612904
5.8	-0.0111096669911884	0.00600943170291995	-0.911340870525158	-0.366952624311636	-0.91138551193711	-0.367242908373961	0.00413823890061131	0.0106041526519026
5.9	-0.0104710704092928	0.00770523127270607	-0.957003180383685	-0.221951682755749	-0.957122791718408	-0.22199937811346	0.00628013099011589	0.0108314488509747
6	-0.00852001549026292	0.00868067159756553	-0.980843073725114	-0.0711199361165345	-0.980839967371746	-0.0711882622342033	0.0102496320751979	0.00984213448704514
6.1	-0.00896680485751587	0.00858825271045614	-0.979518730835522	0.0824360573293253	-0.979521875181527	0.0823332928995583	0.011525948623439	0.00619302969967676
6.2	-0.00911048770563895	0.0104826905318022	-0.95448340030073	0.233004571468045	-0.954531054774382	0.232823902141914	0.0116567082446565	0.00386751865619408
6.3	-0.00835994845546813	0.0121673319064195	-0.906975272693493	0.377777532551476	-0.90699929032732	0.377649578796283	0.0116629607478308	0.00153609281381182
6.4	-0.00692789772892979	0.013506690081248	-0.837883582626598	0.513892600967021	-0.837874523440569	0.51368019230966	0.011193059097874	-0.000818235653773588
6.5	-0.00510928607365337	0.0138084225448499	-0.747409935094815	0.638176774060919	-0.747509726609334	0.638005262664732	0.0106799344499053	-0.00342599622004256
6.6	-0.00342849449443211	0.0138525678122997	-0.639218610413747	0.745254826863608	-0.63936589875375	0.745109497231221	0.00931279166160226	-0.00566510948153845
6.7	-0.00172090116384553	0.0133999013816388	-0.516494520380051	0.835135866523222	-0.516614551283821	0.834979313048295	0.0077263413441769	-0.00735994790818283
6.8	-0.000166270806133308	0.0127228583693976	-0.380961490923968	0.905239060521559	-0.381171166880768	0.905163827170498	0.00587817774633361	-0.00864693721774999
6.9	0.00112828157857273	0.0116740208026672	-0.235773575491439	0.953411192314298	-0.236022851788794	0.953406713317883	0.00418100072939386	-0.0094466769075827
7	0.00215551436347433	0.0103328831354946	-0.0853749165151473	0.977412502050123	-0.0856313826855186	0.977381767417223	0.00225715215168942	-0.010579304726064
7.1	0.00251904923680596	0.00937288069571197	0.0659938691114944	0.979399036361194	0.0657885387304933	0.979386052671253	-0.000327031971247363	-0.0105779598499577
7.2	0.00315515920002975	0.00843263692607898	0.217052194426085	0.957874540556728	0.216798087296824	0.957917084276942	-0.0022105479767679	-0.00975631587367991
7.3	0.00323954241523352	0.00723731246133201	0.362969048560308	0.91278404059094	0.362729672315404	0.912873066985192	-0.00385905496450044	-0.0086353483363209
7.4	0.00326643191530841	0.00636659995147474	0.499726468895184	0.845301068923268	0.499508544220397	0.845460863609076	-0.0052290064339387	-0.00707835446051975
7.5	0.00318080492045398	0.00514548362873809	0.623966823600081	0.758791294548247	0.623806405007222	0.758961151161356	-0.0056990543981848	-0.00562109209311278
7.6	0.00250505149888863	0.00433665915429591	0.735225866320364	0.653549702632542	0.735010166852264	0.65370846910814	-0.00647560451114533	-0.00452237963987726
7.7	0.00197649688742824	0.00409812951791016	0.827911154303828	0.531523428053497	0.827759294384609	0.531716633691917	-0.00695888019985322	-0.00256391272624771
7.8	0.0017768831735118	0.00407659210391286	0.900456726769977	0.396828700248901	0.900334652201889	0.397048703147855	-0.00658533125779791	-0.000458810619521949
7.9	0.00148439900014646	0.00437074929626289	0.95129148554526	0.253121907031849	0.951249365125288	0.253346398770241	-0.0054040377770482	0.00206099167910042
8	0.00271146192983386	0.00405964769649082	0.980611598461983	0.102521478075984	0.980679718953192	0.102813750173558	-0.00207903423732873	0.0035754634247815
8.1	0.00134684179855254	0.00305071582569064	0.984578664302159	-0.051729871779536	0.984700791971571	-0.0514580618238767	-0.00062318507263204	0.00231848486702919
8.2	0.000267732273986541	0.00375559208712211	0.964631580619971	-0.203697111791551	0.964695283338585	-0.203400977625862	-0.000223927503933086	0.0020787476722711
8.3	-0.000512749893623954	0.00489322721169761	0.921794121376566	-0.350857444316689	0.921929742064564	-0.350600555221413	0.000224249356602179	0.0019307196884532
8.4	-0.000734115966841431	0.00653806812512879	0.856940609117859	-0.490197824712442	0.857150989563546	-0.489996331574106	0.000383409807354517	0.00219988737876746
8.5	0.000774886954545354	0.00835701972764502	0.769874834191135	-0.618330873771862	0.769989949650454	-0.618204172252326	0.00254819550206497	0.00308600983657601
8.6	0.0018645032322192	0.00796211700427439	0.664308014114162	-0.729550514267233	0.664504194923442	-0.729363821577514	0.00431523583601295	0.00072112289772414
8.7	0.00233885249636508	0.00857360603135411	0.543512078277335	-0.823903557686408	0.543793242277704	-0.823792272150841	0.00424050599310671	-0.0010458249690874
8.8	0.0037853011994903	0.00901851121538403	0.409261144104546	-0.898842657872131	0.409467068025946	-0.89878676779654	0.00356852480961492	-0.00234827180644767
8.9	0.00555777922602433	0.00899839646596282	0.264209994995658	-0.951952411814451	0.264451283113136	-0.951810331101615	0.00279618726413877	-0.00273598116949808
9	0.00833055013431846	0.00787407792980776	0.113195739283329	-0.980314854786511	0.113557873614109	-0.980282790287017	0.003287459989713	-0.00253901187136881
9.1	0.0102147995446375	0.00541405294074048	-0.0393331303494393	-0.986813781570092	-0.0389800376094354	-0.986825838378524	0.00390046393611187	-0.00329756220551773
9.2	0.0115985445425641	0.00242692587486065	-0.192509071416382	-0.969339972895708	-0.192151922474839	-0.969408367334092	0.00477137252458246	-0.00378396169502374
9.3	0.0118346440041963	-0.000648778507052494	-0.341091563781736	-0.92782086105171	-0.340733064147138	-0.927883078294603	0.00588044151652112	-0.00443586124095945
9.4	0.0115498128566768	-0.00341831952893916	-0.480785796162946	-0.86336356791652	-0.480460760120361	-0.863509712165521	0.00725499882021277	-0.00508999649527478
9.5	0.0105514241081522	-0.00702092690406336	-0.608346737671629	-0.779432064805654	-0.608138854408678	-0.779568255387165	0.00895056470544886	-0.00796134663099988
9.6	0.00703531694080708	-0.00904753034647886	-0.723451120722552	-0.675917412275359	-0.723175788627485	-0.67610120874508	0.00652457176877961	-0.0104699626733906
9.7	0.00443727211028534	-0.00932986038518383	-0.820034760108482	-0.555018003496032	-0.819785555479313	-0.55528708629324	0.00457123939976074	-0.0107244966901008
9.8	0.00202808140280178	-0.00954383737118244	-0.896405890133237	-0.420847429295004	-0.896194112742418	-0.421122507750401	0.00292365523649157	-0.0103536518353113
9.9	-0.000408808829892066	-0.00868517968017461	-0.951143868980753	-0.276995887605392	-0.951028756292739	-0.277326332419375	0.00201434768525597	-0.00880553207173599
10	-0.00142133888372844	-0.00876509645050627	-0.984393650811347	-0.125535514363243	-0.984310800758603	-0.12591648878735	0.0038534440861593	-0.00838943390543257
10.1	-0.00516540122221307	-0.00857887243148196	-0.991499307478476	0.0302731366890354	-0.991477543553065	0.0297917877594073	0.00283054722323691	-0.0101631236928297
10.2	-0.00786252717730459	-0.00640928233743547	-0.97455060229365	0.184069481829714	-0.974534031789997	0.183616463943762	0.00138820079818567	-0.010050343433071
10.3	-0.00977187532459068	-0.0037442976087159	-0.934266199206937	0.333485934628667	-0.934400891466525	0.332941209584249	0.000256011247553318	-0.00976486825564403
10.4	-0.0108158260990741	-0.00114521293453444	-0.871412900969373	0.475319235985563	-0.871678959982636	0.474778658976514	-0.000500054432669961	-0.00919208123650259
10.5	-0.0107044175410425	0.00130343161885235	-0.785657027401921	0.606065215908442	-0.785941833958815	0.605675400636182	0.000569745771794206	-0.00902300348211222
10.6	-0.0111012057004004	0.00259361646112214	-0.681262152776158	0.71969193806023	-0.681691085671198	0.719345939320073	0.000782863424001159	-0.0110308257394928
10.7	-0.0116583479225609	0.00515018841173586	-0.561395618895912	0.816743373284311	-0.561809831925016	0.816453421346874	-0.000135814657401526	-0.0125178723509107
10.8	-0.0111416306745293	0.00792739387945689	-0.427375727491052	0.89426503778654	-0.427889712321328	0.894034892921173	-0.00148087104991355	-0.0135119142493698
10.9	-0.00971393719217011	0.0108736613477656	-0.282363741093573	0.949803001974074	-0.282854851841039	0.949752678936716	-0.00289440963420653	-0.0139669341295606
11	-0.00717396272805268	0.0126816775990866	-0.131252085827656	0.980545300186411	-0.131801103113308	0.980542377775491	-0.0039238038039691	-0.0145624493243206
11.1	-0.0044522850309382	0.0144904679608072	0.0219649045524847	0.989431779415292	0.0213324470900289	0.98951638711208	-0.00551460450325351	-0.0148251269038271
11.2	-0.000868933086947917	0.015154945711851	0.175782052839894	0.974161109668403	0.175260424018119	0.974366691842072	-0.00667731218385872	-0.0146974533792809
11.3	0.00282279997237199	0.0150136835867141	0.325222805382254	0.934616609812009	0.324791782129163	0.93488205036236	-0.00752616047281095	-0.0140951374462353
11.4	0.00649655466801732	0.0138720470601975	0.466186275308118	0.872011296436436	0.465720817580232	0.872274171171823	-0.00776363819014303	-0.012993834614568
11.5	0.00989618080220946	0.0111768378247247	0.595146063560125	0.78980571773825	0.594787414432007	0.790226922413928	-0.00712514224549971	-0.0136773355864536
11.6	0.0110762844390469	0.00841774104357965	0.711660256846874	0.687697689633169	0.711393850683117	0.688182203182491	-0.00934771103686955	-0.0141334550653612
11.7	0.0127013687104623	0.00628152765516113	0.809898017854321	0.568077763926415	0.809659744897866	0.568503451154186	-0.0110448234910602	-0.0129368016001992
11.8	0.0137019562224632	0.00324761361039345	0.88790710916296	0.434868010833903	0.887725049680411	0.435424249135397	-0.0124749081318507	-0.0113502171834598
11.9	0.0146631499232963	0.000548005563550109	0.944387404673986	0.292120220518941	0.944351884523271	0.292667474658836	-0.0128941873358253	-0.00847826209809664
12	0.0145300530347648	-0.00365519253707646	0.979544616573067	0.141521687340836	0.979535357736546	0.142004611304095	-0.0110644706220429	-0.00711907497373757
12.1	0.0113831652159485	-0.00769721071343091	0.988629025400238	-0.0136339202761344	0.98860792833029	-0.013157938588776	-0.011666396932449	-0.00811215136410467
12.2	0.00757027387750456	-0.00941307116462303	0.97365955188798	-0.167086515071592	0.973770352079902	-0.166647857654661	-0.0130398171511117	-0.00714143441900701
12.3	0.00400487434451975	-0.00975397998037374	0.935411267125559	-0.316103193002451	0.935600841734409	-0.315744834904287	-0.013978379220152	-0.00561628995441922
12.4	0.000503664849870898	-0.00903617562598744	0.875085176236814	-0.457957176964091	0.875222005578918	-0.457581510321771	-0.0146833937248181	-0.00331751336094667
12.5	-0.00101767083194003	-0.00760909333434667	0.791352264908062	-0.589018740369488	0.79181674104211	-0.588629517720791	-0.012941268821591	-0.00088978171724471
