# GHZ S RI R 50
0.2	-0.000275737216916015	6.30150694069649E-05	0.948901316434794	-0.30789066785443	0.948675106255319	-0.308032539456442	-6.15439206200728E-05	0.000160235663159029
0.3	-0.000383447050492758	0.00034539777107524	0.888948482969184	-0.451534340871119	0.888811076800043	-0.451587537429457	-0.000124189097454703	-1.79742532354312E-05
0.4	-0.000182677574155954	0.000482532736793654	0.807464253048656	-0.583777314638619	0.807504346722386	-0.583916897005644	3.07175627036794E-05	-9.61033618842469E-05
0.5	-0.000276059122724594	0.0006692151079795	0.70672168691569	-0.702047061881727	0.706611108192042	-0.702142890270131	0.000144394146397119	-0.000207212557253185
0.6	-0.000189275613090945	0.000777091618353987	0.588778512237766	-0.803059002564188	0.588589012031782	-0.803061889444996	0.000194080575494043	-0.000458472067046892
0.7	-0.000180797363915447	0.00111084328496981	0.456711026972163	-0.884348851772019	0.456637023658189	-0.884383211039612	0.000196502431130772	-0.000815245752965918
0.8	4.74080373060556E-05	0.00111383199091757	0.313728624216092	-0.944348575797032	0.313610148482397	-0.94426188526207	-1.53265408342215E-05	-0.00114211264370806
0.9	7.11222504575999E-05	0.00133364156878701	0.163208332578153	-0.981343772565735	0.163059414426542	-0.981300928752682	-0.000515206558243696	-0.00150913050602412
1	-4.13150363155771E-05	0.00138201754776912	0.00867914524973547	-0.994388023709624	0.00856115487410279	-0.994358343258457	-0.001342257095778	-0.00154195888577152
1.1	-5.82829525442747E-05	0.00185406554494799	-0.145070617746625	-0.983414301897133	-0.145717588950619	-0.98337912761906	-0.00213847187904999	-0.000876320840162653
1.2	0.000212655538687134	0.00175687567582466	-0.296670129083363	-0.948629471554534	-0.296663170485543	-0.948685101508397	-0.00222940141478926	0.000197628399827192
1.3	0.000906760943072251	0.00119923535221768	-0.440194721450875	-0.890804593723207	-0.440286735856246	-0.890829025471648	-0.000836237311875857	0.00170838575634063
1.4	0.00159228863572451	-0.000543475216541948	-0.572884691445851	-0.811488612571295	-0.572958394987448	-0.811389136834845	0.00129847792119918	0.00152750556964425
1.5	0.00189592704004355	-0.00174127387723624	-0.691701593983427	-0.712393988851991	-0.691726160688669	-0.712322034073996	0.00303680448538246	0.000167703419777758
1.6	0.00173645940483044	-0.00293085703793034	-0.793338052221499	-0.596807540263481	-0.793767081217881	-0.59630768423061	0.00280173312931273	-0.00190840012194833
1.7	0.00136032389056449	-0.00333071903545397	-0.876138695428476	-0.466278201968842	-0.87644272584223	-0.465788961286257	0.00171951891193084	-0.00299182871929012
1.8	0.000793286307236823	-0.00367030464023455	-0.937828564768822	-0.324136383574693	-0.937843995628145	-0.324126933692184	0.000362369225954004	-0.0037257509379342
1.9	0.000141018766281335	-0.00364202352859796	-0.976564266617465	-0.174571032764744	-0.976608702331349	-0.174623712987542	-0.00104657816769085	-0.00385827781197551
2	-0.0003542869576753	-0.0032647234715696	-0.991556524176736	-0.0216975957132834	-0.991651452637234	-0.0210490345896018	-0.00203448828106106	-0.00310801764451243
2.1	-0.00055621667561917	-0.00338971277434364	-0.982768568708969	0.133735670812712	-0.982867840977862	0.133252029787141	-0.00235174258252777	-0.00303791784769339
2.2	-0.00145571168626388	-0.00352359841420125	-0.950106580994786	0.283870446433994	-0.950145351528301	0.284004019248445	-0.00319505199841348	-0.00291577243203944
2.3	-0.00232319430288673	-0.0032750381552993	-0.894468795751166	0.427699554135676	-0.894305211931762	0.427787965811617	-0.00409846982013117	-0.00255446361848569
2.4	-0.00352208431415743	-0.00284772410843528	-0.816762735470949	0.56172712977022	-0.817053474872979	0.561265607906732	-0.00508597167103649	-0.00195032655447748
2.5	-0.00435044269621767	-0.00134484156228996	-0.719990709788104	0.68175029211519	-0.720292518473548	0.681369845500178	-0.00540442724073255	-0.000639226864771248
2.6	-0.00420121606194876	-0.000280269922273339	-0.605591345788443	0.784805101943911	-0.60551217406662	0.784745805792728	-0.00446077092664737	7.655127897989E-05
2.7	-0.00381059095479717	0.00045157163854435	-0.476392836460327	0.869000152344583	-0.476363401516547	0.869014242111924	-0.00392931258389734	7.15566023959882E-05
2.8	-0.00343905840258699	0.000833760761734078	-0.336019227076888	0.932293080328957	-0.335901218129519	0.932377557020734	-0.00358416366809779	9.01029125105098E-05
2.9	-0.00252434847720192	0.00120348073656571	-0.187262529904681	0.973178439485446	-0.187258113262381	0.973233180293331	-0.00312994082165607	0.000575845144566325
3	-0.00146139699069692	0.0012339116602268	-0.0334183309454568	0.990257887986995	-0.0334825977585625	0.990329235627021	-0.00196412761947888	0.00102547238618932
3.1	-0.0003599610416848	0.000918404670377674	0.119572729821756	0.983192834079342	0.120219921221712	0.983274321679656	-0.00095821916835135	0.00105118733562177
3.2	0.000354492132870851	0.000352994631697151	0.271200674286905	0.952622850391126	0.271190701584078	0.952662389104626	-0.000207730870174086	0.000886907570362597
3.3	0.00120887137369537	-0.000398394479132229	0.41648097554719	0.898713039188727	0.415858812204877	0.898993837854273	0.000786747562127249	0.000532611106162979
3.4	0.0014738818431973	-0.00122574259477721	0.550457588148553	0.823301817578129	0.550372686794175	0.823416941299608	0.00169878830354388	-0.000115709763718883
3.5	0.00223176391428774	-0.00198384686452554	0.670959644814613	0.72779922593818	0.670973832178676	0.727825396936506	0.00280143935560491	-0.00112579497819184
3.6	0.00201878164809235	-0.00337051046592296	0.775296729364458	0.615663937164795	0.775718785289851	0.615270826650886	0.00285578377763726	-0.00291761121728574
3.7	0.00163056258859544	-0.00433884887236923	0.861927137962893	0.48728302651123	0.861933997489633	0.487409441143939	0.00232876836712569	-0.00405334622721241
3.8	0.000823935045930477	-0.00516189173085874	0.926952132370177	0.347511664574287	0.926980299502048	0.347694807211757	0.00141381011629059	-0.00508954819210922
3.9	0.000126206894784243	-0.00570859702221405	0.96953350882885	0.199008173053591	0.969434518849604	0.199595335107399	-0.000137518887735688	-0.00588022632279649
4	-0.000481049914025091	-0.00560877621681396	0.988896947949256	0.0473823293381739	0.988978810919656	0.0474254344284678	-0.00103756343203051	-0.00573372083209427
4.1	-0.000765838736986732	-0.00653277413425297	0.9847113881321	-0.107033733706773	0.984649200058322	-0.10696980867363	-0.00188721568494058	-0.006709910620226
4.2	-0.00215210430757158	-0.00716793472144464	0.955695473426323	-0.259281170850817	0.955888252611792	-0.258711837179724	-0.00362137127891281	-0.00720856447362445
4.3	-0.00347092539515279	-0.00775691733808943	0.904131736239199	-0.403810779894619	0.904132585637491	-0.403792255892652	-0.00556757655856421	-0.00744798617289134
4.4	-0.00550747704142862	-0.00791211139848763	0.830799733768872	-0.539059978135004	0.830719812999222	-0.539044163309767	-0.008079721234962	-0.00703436728081275
4.5	-0.00726898690909055	-0.00702627984365275	0.737336804986894	-0.662236947666168	0.737213097158232	-0.662090945637007	-0.0102129962217903	-0.00515500037449537
4.6	-0.00831883215867786	-0.00616965570604907	0.624974521713335	-0.768643396767749	0.624959834400807	-0.768413937269314	-0.010999892681244	-0.00361808257617389
4.7	-0.00941659019630449	-0.00573843283075849	0.497978768143237	-0.856206705933999	0.498095699589869	-0.855961935754717	-0.0121588131470661	-0.00247881780073875
4.8	-0.0106158664117127	-0.00483726635058997	0.358856870758647	-0.923043357875134	0.359150534796302	-0.922854598131157	-0.0130347557381666	-0.000952362737144247
4.9	-0.0113507723408262	-0.00406768106989041	0.211074611073876	-0.96746146507384	0.211334531157573	-0.967410312501905	-0.0134215151642685	0.00100395014750399
5	-0.011806356487692	-0.00307627515817898	0.0581170436549481	-0.987985472415957	0.0582753502259627	-0.987857582033607	-0.012786717230932	0.00325840119824871
5.1	-0.0120758152402564	-0.0026153222016398	-0.0952442435309277	-0.984746051415974	-0.0949231592532531	-0.984683204143696	-0.0118548632333151	0.00502966628844921
5.2	-0.0126063484542118	-0.00153913924835644	-0.246939904611388	-0.958294553514694	-0.246512319054246	-0.95841643664344	-0.0109329788077911	0.00734507242152562
5.3	-0.0129224480602013	-0.00041274792591955	-0.392826467807572	-0.908449104144227	-0.392537273303212	-0.908793695988996	-0.00912510379414534	0.00989768940358426
5.4	-0.0129081105154393	0.00151491740093603	-0.529328964337184	-0.836203747495533	-0.529192967557776	-0.83649338269545	-0.00646445887556293	0.0123398657042909
5.5	-0.0115341051926991	0.0029484533288373	-0.651953234155604	-0.743614737708119	-0.651903217238466	-0.743928484685397	-0.00208666231949164	0.0134179414444033
5.6	-0.0113425387499251	0.00324784611092502	-0.759483659917375	-0.634058990432916	-0.759496997760478	-0.634229428716669	0.000538808408381939	0.012048701521561
5.7	-0.0116739694042908	0.00435569749567073	-0.849051174678037	-0.508390236666968	-0.849027301377532	-0.508565452098667	0.00222796260239559	0.011754929911451
5.8	-0.0117463749175851	0.00610014760462152	-0.917539213087693	-0.370137910805239	-0.917583980638754	-0.370430274586562	0.00402297204106542	0.0115495584819815
5.9	-0.0117781888450718	0.00807567272474495	-0.963569231288736	-0.22339417769873	-0.963689664732684	-0.223442190230045	0.00553015155298913	0.0116311614988666
6	-0.00999417007942068	0.0112142337756886	-0.987042333738686	-0.0717863786292097	-0.987039192598368	-0.0718551372988641	0.00877041384673169	0.0124276398724113
6.1	-0.00756085307326939	0.011605864902789	-0.986540987281862	0.082972499883397	-0.98654414841214	0.082868998729994	0.0124007886283349	0.00963565936604084
6.2	-0.00619003531596291	0.0119289151199907	-0.961299012793696	0.23539708002283	-0.961347146107464	0.23521512291263	0.0139878118998896	0.00617388630030875
6.3	-0.00526864590610596	0.0118660228191589	-0.912938456583902	0.38164110290055	-0.912962810992083	0.381512269744761	0.0143455110822308	0.00240073748307618
6.4	-0.00470001714394011	0.0119777405218831	-0.842854129444815	0.518559206398306	-0.842845306815444	0.518345342000542	0.0133122360795112	-0.00109324071976882
6.5	-0.00400177800944701	0.0122154341560265	-0.752207476873451	0.643983036257482	-0.75230824868989	0.643810362105905	0.0119057934345581	-0.00384497073802468
6.6	-0.00302211475337637	0.0124718900624965	-0.642199215112383	0.752671279394317	-0.642348018944068	0.752525214128513	0.0100236428176783	-0.00602838715205927
6.7	-0.00174725118570072	0.0125799115953112	-0.517593820056312	0.842857309622209	-0.517715222931755	0.84269999909003	0.0080415821241797	-0.00742129485291922
6.8	-0.000173327500547903	0.0123169892474212	-0.3805345021537	0.912965270079408	-0.380745922863358	0.912890227722006	0.00606609199438087	-0.00849010783319495
6.9	0.00114668440367866	0.0114793586642731	-0.233991575955619	0.961298507055909	-0.23424270359503	0.961294914723755	0.00416810905281685	-0.00913814921147174
7	0.00253144892911541	0.0103089398403921	-0.0810005471912856	0.985390800605526	-0.0812591497511638	0.985361149493448	0.00235217514358552	-0.00995846806236034
7.1	0.00290572217427397	0.0089587505106035	0.072223011077734	0.985433367701332	0.0720162568680309	0.985421514025279	-0.000245328499534975	-0.0101279152309034
7.2	0.00334650162439836	0.00797385096801305	0.224241052390183	0.962415065811311	0.223985648780723	0.962459424500752	-0.00230618938158854	-0.00922585122913204
7.3	0.00336244633326455	0.00677325142252729	0.371101165436503	0.915814745302752	0.370860954041221	0.915905867811703	-0.00399490012128565	-0.00798680631502726
7.4	0.00324622528241023	0.00581365202912849	0.508883424916391	0.846391017546015	0.508665450295173	0.846553349447217	-0.005427193427601	-0.00642079257492912
7.5	0.00320479853753967	0.00473235486740606	0.632812606481594	0.756747519061256	0.632652933981092	0.756919401819546	-0.00582892049625405	-0.00464545600822741
7.6	0.00262810200591199	0.0032265769038689	0.742741341407096	0.650219865078299	0.742526102888719	0.650380821623975	-0.00631510395169558	-0.00394283257833698
7.7	0.00118230576860414	0.0026373983653119	0.834808573401834	0.526884119785048	0.834657702880562	0.52707915080939	-0.0072882213695407	-0.00243043135214133
7.8	5.78679785530229E-05	0.00288223888104634	0.906379258358216	0.390597012020325	0.906258632142199	0.390818668478968	-0.00753517115888251	-0.000353771745119202
7.9	-0.00125619067495753	0.0039383912559517	0.955369861977453	0.24533888546073	0.955329612956077	0.2455641863055	-0.00726599145108687	0.00258034787411907
8	-0.00014146058448789	0.00635958483653362	0.982388917313398	0.0949718630760338	0.982459386324331	0.0952638949201501	-0.0047584497811031	0.00599412039524498
8.1	0.001236855226671	0.00605855251638114	0.985591913404868	-0.059578095421389	0.985716363442433	-0.059306857222493	-0.00110684986948334	0.00583628343915921
8.2	0.00166130444431399	0.00577333270058284	0.963797024021439	-0.212010618475142	0.963863279993968	-0.211714750367023	0.000582481933108269	0.00501788166501187
8.3	0.00163165105580392	0.00566829230016797	0.918831981692154	-0.358752874572611	0.918969804256167	-0.358497134524233	0.00181288856982955	0.00398053715361588
8.4	0.00125026488392986	0.00565994335939928	0.852333251382784	-0.496654409760183	0.852545073532684	-0.496454760358688	0.00205282022365723	0.00276887424024668
8.5	0.00108364781877604	0.0074755921098113	0.765088617122661	-0.623978005918188	0.765204659327154	-0.623852192162643	0.00252496593905885	0.00343116349559119
8.6	0.00291305884087264	0.00760457341335952	0.657712787190484	-0.734684132704255	0.65791041649931	-0.734499218786727	0.0046925451721834	0.00192067642257418
8.7	0.0035514485097329	0.00745381481489206	0.535745928929236	-0.827177974841583	0.536027587534357	-0.827069223575247	0.00497329492953596	-5.38577132740617E-05
8.8	0.00462072209009253	0.00720403892069811	0.401190796267443	-0.90021028773872	0.401396730139414	-0.900156166066362	0.00445456470868175	-0.00171299080711494
8.9	0.00542196362558467	0.00652321439400499	0.256430508301151	-0.952014929586391	0.25667238346322	-0.951874974318616	0.00343104185278211	-0.00280694763675502
9	0.00648088724613729	0.00593047288855487	0.104455147900461	-0.979268807368769	0.104816811198616	-0.979239951507224	0.00267102472572034	-0.00257589910183519
9.1	0.00759689642876716	0.0048464875541314	-0.0475998789230245	-0.982975641492617	-0.047248142308158	-0.98299066340474	0.00268443566336703	-0.00240441430174822
9.2	0.00901807377066398	0.00367638647002951	-0.199514401148311	-0.963953174491254	-0.199159216634313	-0.964024160095343	0.00355027992541316	-0.00164031942446634
9.3	0.0106190802084305	0.00176618357735497	-0.347016778178656	-0.921268583859594	-0.346660259752382	-0.921333379554319	0.00564652611881676	-0.00158918638304388
9.4	0.0113390586939277	-0.00117495813308094	-0.485938166885266	-0.85543152969847	-0.485615822282291	-0.855579769782898	0.00743582741537823	-0.00269415426316794
9.5	0.0118040537554055	-0.00420727954323697	-0.611142478847642	-0.76916706436275	-0.610937109131411	-0.769304168459972	0.00971760573010619	-0.00469141943752703
9.6	0.00935947034299162	-0.00845229452626547	-0.723229242785031	-0.665947726635714	-0.722957172790468	-0.666132212796235	0.00828945009066043	-0.00855972008989953
9.7	0.00591225509574795	-0.00989627007948768	-0.817883231162395	-0.545416621488457	-0.817637662094531	-0.54568545499102	0.00588643223542701	-0.00963241399466557
9.8	0.0026914420147111	-0.010623573333513	-0.892216854145669	-0.411608218858859	-0.892008555611186	-0.411882561152317	0.00383179207707245	-0.00979315508031425
9.9	-0.00110869723108624	-0.00990061738000745	-0.944327153908624	-0.268504087242688	-0.944215161243835	-0.26883228312009	0.00181780641986064	-0.00878113869817621
10	-0.00264177400750652	-0.00760181674498914	-0.975316832452533	-0.120084547162399	-0.975236426670283	-0.120462155853375	0.00262468892542705	-0.00642598839636947
10.1	-0.00443315711023987	-0.00765654754607778	-0.982376434383061	0.0337148212431048	-0.982356672524513	0.0332377644996519	0.00320354840689626	-0.0079675049684123
10.2	-0.00712970366013225	-0.00641319529113745	-0.964698383141023	0.185637900715521	-0.964683508669003	0.185189115441621	0.00200706033889325	-0.00848691449260388
10.3	-0.00961242310507474	-0.0041516602681774	-0.924104618383791	0.332565856733805	-0.924239369325356	0.332026902696269	0.000654451264377844	-0.00863840761018071
10.4	-0.0117413987629562	-0.00136463198130842	-0.862064393465922	0.471447507705109	-0.862328342889458	0.470912698760146	-0.000907296793297717	-0.00825663862206894
10.5	-0.0123972864302569	0.00334719724262542	-0.77881914854363	0.601048787017937	-0.779101601960464	0.600662361392865	-0.000855862877652969	-0.00644725795629457
10.6	-0.0104622058646436	0.00633637530752354	-0.674722162537417	0.714145722481805	-0.675147733131987	0.713803105238636	0.00103562845187732	-0.0068304861307571
10.7	-0.00849318367007683	0.0081692685120486	-0.555869477708109	0.809580944381497	-0.556280060958626	0.809293842786009	0.00220499286652543	-0.00873836364010442
10.8	-0.00692935682716753	0.00890119189064795	-0.423734853231006	0.885863849412702	-0.424244014763031	0.885635654153677	0.00172667364236714	-0.0113534994752904
10.9	-0.00589824516061086	0.0102475222426899	-0.281002192023627	0.941381828770069	-0.281489054219975	0.941331392866717	-0.000139772054356408	-0.0130052161290072
11	-0.00378778446697947	0.0113196483799305	-0.130276710095676	0.972398127908847	-0.130821173902227	0.972395166340983	-0.00159744962536056	-0.0139632063152919
11.1	-0.0017606530638903	0.0120996647935943	0.02086889238911	0.980062582977715	0.0202423604543629	0.980145820487106	-0.00360429750304406	-0.0148116863541684
11.2	0.000834059824246902	0.012315400334549	0.172265397048656	0.965379933743851	0.171748256124566	0.965582589584439	-0.00535254934092577	-0.0149322131149393
11.3	0.0034707192892789	0.011964885699513	0.320009871090457	0.927066527787599	0.319582044839267	0.927328532429935	-0.00683063966692215	-0.0146202627597969
11.4	0.00578066141251138	0.0111569329774337	0.460202740619773	0.865486415328355	0.459740734434554	0.865745974484424	-0.00822145418181554	-0.013419158997958
11.5	0.00939791849148654	0.00994500339597931	0.58695899596015	0.783340891385323	0.586602878338161	0.783756838197089	-0.00750909399967805	-0.0125179562615241
11.6	0.0108447778263212	0.00613524279597683	0.701628605240872	0.684227866826851	0.701362598810988	0.684706463256801	-0.00915860694984264	-0.0137042631090118
11.7	0.0111838727390029	0.00368830161277606	0.799722724453199	0.566991764389235	0.799484476388977	0.567412405470965	-0.0115492465540523	-0.0129180418326212
11.8	0.0107837497742866	0.00109927395501391	0.877773611772919	0.435644428232287	0.877590265235152	0.43619478951363	-0.0138903984114642	-0.0113968613984051
11.9	0.00935455400341139	-0.000101920482403464	0.933733656651415	0.294711504973245	0.933695361377734	0.295253346589484	-0.0163788311294179	-0.00798252231127477
12	0.00996278803137159	0.000134666790489734	0.969287426549274	0.148058356337586	0.96927438160381	0.148536708664807	-0.0147307003215089	-0.00307435746351026
12.1	0.0103456946391576	-0.00267343098403176	0.981063148122656	-0.00520663062768437	0.981038208596754	-0.00473452439995914	-0.0127151824333494	-0.0026980951433579
12.2	0.00894609481296874	-0.00498369422228899	0.96794573527675	-0.157338215727899	0.968051881838298	-0.156901821786526	-0.0121294355180401	-0.00198670571521754
12.3	0.00718721625172322	-0.00675443348518149	0.931855495717211	-0.304993532224825	0.932040333923407	-0.304635885400324	-0.0114816823758294	-0.00154204830359691
12.4	0.00412089828507284	-0.00827201841283589	0.874576206826928	-0.445546344498317	0.874708083797452	-0.445171547495154	-0.0117603201256571	-0.00124848782078156
12.5	0.00150312007440905	-0.00722198241676635	0.795083572454093	-0.577944196839641	0.795541960447692	-0.577551170395799	-0.0113932891264202	0.000812832363861788
12.6	5.4564206318115E-05	-0.00756203448806003	0.69443244916301	-0.693746352923256	0.694778808532204	-0.693437068678668	-0.00977982037587553	0.000361191699158893
