# GHZ S RI R 50
0.2	-0.000209263311328694	-0.000261268757816573	0.949981038257157	-0.307588325288013	0.949754704645193	-0.307730470447221	1.47319965962823E-05	-0.000174484963354791
0.3	-0.000532961055891875	-7.40496178104971E-06	0.890344833183633	-0.451380942125611	0.890207306052702	-0.451434307398167	-0.000260829225868027	-0.000394439637355173
0.4	-0.000579888929436532	0.000248417785657558	0.809169622226883	-0.583978608393508	0.809209893371948	-0.584118367248682	-0.00035725819179267	-0.000366786298517572
0.5	-0.000606716292226274	0.000804062315077916	0.708396825329244	-0.7028675283861	0.70828610806312	-0.702963593167296	-0.000179131903355389	-0.000111431173861342
0.6	-0.000353539605497358	0.000720378299962348	0.590269786407019	-0.80407569704893	0.59007996409161	-0.804078703347551	4.81350260367535E-05	-0.000566657479462685
0.7	-0.000518484296208083	0.00103686111857342	0.458180398515642	-0.885739023665886	0.45810627625896	-0.885773498505996	-0.000123563762633428	-0.000966916874784589
0.8	-0.000386592749634028	0.00112373403412983	0.314962031722835	-0.94620151579176	0.314843249219439	-0.946114708013998	-0.000448924957477381	-0.0012358377865142
0.9	-0.000527519746445439	0.00147514424476929	0.163947063707727	-0.983555574820377	0.163797785008016	-0.983512686601834	-0.00115448938236054	-0.00148953149228969
1	-0.000376976702294157	0.00221710779358169	0.00898508879572377	-0.996513686910974	0.00886683727795171	-0.99648397704208	-0.00178030479279724	-0.000791978750200989
1.1	0.000691485590468951	0.00205246430820387	-0.144934479289274	-0.985860283944149	-0.145583029900023	-0.985825344725005	-0.00148376438859212	-0.000693050144691362
1.2	0.00107432365939629	0.000740550881301864	-0.297179420396049	-0.951275877110258	-0.297172426082512	-0.951331654801215	-0.00142184953257606	-0.000798209853907656
1.3	0.00135131314798832	-0.00104832106316974	-0.441356854095835	-0.893340752165582	-0.441449124750648	-0.893365260031235	-0.000381456193666482	-0.000501512149971514
1.4	0.00125570478532549	-0.00315002807212175	-0.574512985818527	-0.813714770704386	-0.574586889365016	-0.813615015344823	0.00103426717150773	-0.00107736268554252
1.5	0.00147229520528467	-0.00424973776986511	-0.693667146889855	-0.714633759561048	-0.693691798134314	-0.714561592795309	0.00276168561453276	-0.00242649905219406
1.6	0.000354548479721388	-0.00501679861425636	-0.796237109546119	-0.598678795474597	-0.796667501325266	-0.598177099585432	0.00153738670802668	-0.00418840743394239
1.7	-0.000132495538551817	-0.00428444701954629	-0.879495114864322	-0.467351590709667	-0.879799897205906	-0.466860448050065	0.000248192225118986	-0.0042034131040392
1.8	-0.000452042143695555	-0.00384827217868533	-0.941385366000079	-0.324469281159678	-0.941400842776383	-0.324459784998567	-0.000950253394497321	-0.00415832844850662
1.9	-0.000602545961010705	-0.00308369111947502	-0.98026651135413	-0.17427494388127	-0.98031115806084	-0.174327772585323	-0.00191608262620229	-0.00348826620044248
2	0.000148032395183235	-0.00295359027158185	-0.995630137835845	-0.0203956419294743	-0.995724543926689	-0.0197443030672573	-0.00161058965835678	-0.00290324958657987
2.1	-0.00056006492151045	-0.00384365050815816	-0.986233045725501	0.136272222053478	-0.986333693617131	0.135786945145841	-0.00238410847380091	-0.00364879437728304
2.2	-0.00172938079267242	-0.00369697441010649	-0.95290252296854	0.287045547079854	-0.952941131794164	0.287179690859864	-0.00353997642444009	-0.00327967158170066
2.3	-0.00256105312565406	-0.0032413693553271	-0.896626120670369	0.431462826378331	-0.89646172811142	0.431551149756378	-0.00446818204589098	-0.00269091340604456
2.4	-0.00360847091367961	-0.0025397309887034	-0.818154108836438	0.566151612827765	-0.818447250049938	0.565689227873846	-0.00534775943668364	-0.00172532547154382
2.5	-0.00347437368472381	-0.00122722493038509	-0.719908957164489	0.68663061499187	-0.72021315040446	0.686249999445444	-0.0046410402217456	-0.000457431415371524
2.6	-0.00365270356120658	-0.0014246421066951	-0.604469373060455	0.789165204733727	-0.604390192854391	0.789105459428234	-0.00385234233410138	-0.000991969142343456
2.7	-0.00404918405989636	-0.000864236073328768	-0.47448245068157	0.873124950702156	-0.474452883578792	0.873138970185498	-0.00402010442969179	-0.00125637170429224
2.8	-0.00407503975426834	-0.000280626392474548	-0.33317211662529	0.936045481083729	-0.333053465496704	0.936129705931283	-0.0040561173268625	-0.00113105749789587
2.9	-0.00322582396252893	0.000230640016382088	-0.183407173654142	0.976180173592336	-0.183402506693861	0.976235017565193	-0.00369122593244783	-0.000544186437268815
3	-0.00235697256191313	0.000101776712334411	-0.0292267844719845	0.991919563616644	-0.0292908441644319	0.991991296012378	-0.00272421298474958	-0.0003175846188798
3.1	-0.00170199270594597	0.000148211125840869	0.123822591693006	0.984378818689515	0.124471222961253	0.984457782203152	-0.00222364346408363	-4.20740523886445E-05
3.2	-0.000968881191581452	8.69276516120821E-07	0.275867915346786	0.952937257043409	0.275858102479253	0.952976903168884	-0.00152285484875887	0.000248308189920748
3.3	-5.77041005931236E-06	-0.000403388806088204	0.421208895309092	0.897889182853646	0.420587267089778	0.898173245150669	-0.0004597836759438	0.00026599459290039
3.4	0.000615968344074792	-0.000952665350331746	0.554724728073357	0.821377125256929	0.55464029726467	0.821492734490121	0.000805572299555067	-6.18082472639053E-05
3.5	0.00158805993039095	-0.00214438240949486	0.67469593434833	0.725552461904329	0.674710247222317	0.725578594985914	0.00218628107705318	-0.00151409343719476
3.6	0.000877348608631715	-0.00325215917509538	0.779046539874334	0.612449378678833	0.779467069929992	0.612053828595153	0.00172980158120185	-0.00310488933352023
3.7	0.000667902015679166	-0.00375165126121809	0.864851368729288	0.483070279317301	0.864858883483456	0.483196718876793	0.00131349374818065	-0.00378486561287875
3.8	0.00015821905435851	-0.00429494942275329	0.92883392390513	0.342745025556375	0.928863041484262	0.342928038824032	0.000637651498610421	-0.00450609281524409
3.9	-2.05114477957665E-05	-0.00457764710040756	0.970491944165391	0.194080763146498	0.970395937155339	0.194668396445608	-0.00042047403431902	-0.00494026782721933
4	0.00017474301353989	-0.0051493256428317	0.989222674920455	0.04184736277149	0.989304784283032	0.0418900120655709	-0.000413909825700277	-0.0053659077925374
4.1	-0.000776954003110288	-0.00658079342063389	0.983255836281963	-0.112807969103571	0.983194080507997	-0.11274372690784	-0.00181696577217309	-0.00691585507921432
4.2	-0.00241029609763572	-0.0069898654241214	0.952916039051918	-0.264453303097137	0.953111848020312	-0.263885846529476	-0.00378900259693125	-0.00726459445818471
4.3	-0.00381212198686401	-0.00737966209663147	0.900358413402589	-0.408304161960582	0.900359366955047	-0.408285672970604	-0.00584579459022761	-0.00734244414137636
4.4	-0.00577236917724908	-0.00710707871127755	0.826109565575964	-0.54296077470323	0.826029883997745	-0.542944518714579	-0.00832995746069579	-0.00648528355782536
4.5	-0.00665606956893038	-0.00626857818086008	0.731133618530473	-0.665050892660982	0.731011171102352	-0.664904514802683	-0.00954427862061603	-0.00455056316193871
4.6	-0.00792840780460351	-0.00615571984727287	0.618487871366488	-0.769465894296576	0.618474521197425	-0.769237152523955	-0.0104141969644548	-0.00377565032169604
4.7	-0.00934315917134918	-0.0057758091219624	0.49158841595093	-0.855692317684909	0.491706216801739	-0.855449072937536	-0.0118240636068801	-0.00278816487546674
4.8	-0.0107332622397594	-0.00482951766528491	0.352587671039988	-0.921202567303183	0.352881139282754	-0.921016102409742	-0.0128771357551354	-0.00132914069825421
4.9	-0.0115399451589603	-0.00388841459671229	0.205069722078818	-0.964050383782167	0.205328696893027	-0.964000818613513	-0.0133686853000445	0.000705371253243848
5	-0.0119759172122326	-0.00294569026273745	0.0535211924795534	-0.982813337906158	0.0536791836123774	-0.982686834875871	-0.0127539633294599	0.00281737661801769
5.1	-0.0123590104080259	-0.00211260119716361	-0.0984455202172953	-0.979276228320071	-0.0981258670077751	-0.979214912346061	-0.012060443196377	0.0048474367941257
5.2	-0.0123669403200639	-0.000808672810199219	-0.249114517071708	-0.952239079565837	-0.248689676197525	-0.952361870073507	-0.0107973377628762	0.00739525892167392
5.3	-0.0121034334478657	7.29328728617538E-05	-0.393620087895048	-0.901896870074834	-0.393333717645298	-0.902240450410443	-0.00854176848800474	0.00981414401060223
5.4	-0.0115827281643655	0.00138245667588064	-0.528355683604827	-0.829607979911146	-0.528221315985796	-0.829896203512163	-0.00538291591919362	0.0118177021092924
5.5	-0.0107721598678009	0.00127452681730561	-0.649718894140819	-0.738105172669932	-0.649669780585908	-0.738417236713977	-0.00137744685008805	0.0114035898551682
5.6	-0.0120455248551982	0.0022474317025969	-0.756664000643301	-0.628699677004598	-0.756677660495755	-0.62886911958228	-0.000208503852609968	0.0105405988665487
5.7	-0.0123847881254182	0.00413963578698264	-0.844934883114528	-0.503505862399331	-0.844911523213127	-0.503680058277602	0.00133580850142918	0.010995804477267
5.8	-0.012205265682717	0.00638017839058353	-0.912307379212598	-0.36631589967412	-0.912352331690321	-0.366606335187824	0.00326752303840105	0.0113797279965993
5.9	-0.0114683721387817	0.00874077188093043	-0.957815593950385	-0.221005850318867	-0.957935329227831	-0.221053439258412	0.00551851466496521	0.0120613718798968
6	-0.0088615701077776	0.0104894659183338	-0.981267733998875	-0.0699901745933588	-0.981264706932088	-0.0700585281711712	0.00984623025726673	0.0116508835064958
6.1	-0.00786938902195271	0.0104565731376185	-0.979692220297462	0.0835392769968214	-0.979695478855874	0.0834364882094501	0.0122684165975372	0.00826813619515321
6.2	-0.00701896959410284	0.011299553906621	-0.95442051895941	0.234133425085035	-0.954468387851308	0.233952771616594	0.0133564711578152	0.00514208897176468
6.3	-0.00626791549661853	0.0117393790557523	-0.906619516538588	0.378870214115738	-0.906643685599999	0.378742276392289	0.0134657910108076	0.001751205404157
6.4	-0.00547760800455248	0.0123442678502852	-0.83723993916526	0.514807687162504	-0.837231121914296	0.514595283394263	0.0125202099882963	-0.00127581670056921
6.5	-0.00438056647628301	0.0125252535858521	-0.746698944237514	0.63882103225373	-0.746798889390663	0.638649638837375	0.0114104743582093	-0.00402825751980022
6.6	-0.00318101285751288	0.0127230708634298	-0.638444099288144	0.745837969223187	-0.638591521582393	0.745692793852461	0.00968218911106706	-0.00617937975359284
6.7	-0.00177629789248622	0.0124822295356376	-0.51557693439548	0.835561112483815	-0.515697110574007	0.835404701028749	0.00783221274393613	-0.00779561383610105
6.8	-0.00040814874582973	0.0119979445572053	-0.379978041545654	0.905444751509628	-0.380187752061998	0.9053697434047	0.00573912159355571	-0.0089937586502516
6.9	0.000744300312703909	0.0111246197300168	-0.234829720509865	0.953429817036239	-0.235078948061007	0.953425572673398	0.00379392493911431	-0.0096468013267644
7	0.00170879931316692	0.00998965500157881	-0.0843867734207996	0.97739353238242	-0.084643242933761	0.977363057914859	0.00170163667650532	-0.0105051302870102
7.1	0.00205780963158707	0.00916290353901065	0.067114171766864	0.979100882751208	0.066908872833644	0.97908813998264	-0.000898556051162083	-0.0102777614034942
7.2	0.00269923080733053	0.00838289379989864	0.218100688285011	0.957265577257781	0.217846724999874	0.957308404644563	-0.00276475777908106	-0.00924512902756634
7.3	0.0028972979532622	0.00732733980526577	0.363865482823895	0.91192638643515	0.363626324278561	0.912015650820549	-0.00428543444508967	-0.00793258028842206
7.4	0.0030953146486892	0.00644701552974421	0.500456341536338	0.844249955716346	0.500238724511769	0.8444099217544	-0.00543314469135924	-0.00634568770180943
7.5	0.00311163615082609	0.00505270730898351	0.624452455714272	0.757437977396726	0.624292370915821	0.757607908220507	-0.00579665338707675	-0.00499600881079729
7.6	0.00235107895339733	0.00393170951496907	0.735246043945336	0.65213308612716	0.735030720586712	0.652291938237282	-0.00657309571139371	-0.00403143117703264
7.7	0.0014561191248418	0.00366759742448083	0.827614678048435	0.530236685839788	0.827463145122488	0.530429848380933	-0.00720961273627381	-0.00217829337350415
7.8	0.000987221422637084	0.00382036910671791	0.899968719973858	0.395627667988716	0.899846962610489	0.395847574689359	-0.00695771231470734	-5.12450204920529E-05
7.9	0.000610289517704965	0.00434774991224564	0.950552271090187	0.251922870199708	0.950510415329492	0.252147170164066	-0.00581051007664574	0.00247888972669249
8	0.00172540593737417	0.00459406037254571	0.979431225181532	0.101490070619948	0.979499524857556	0.101781900525867	-0.00295746563339612	0.00416381399523264
8.1	0.000899269901559967	0.0039100705944253	0.983224708799161	-0.0524058042957177	0.983346879054903	-0.0521344497277893	-0.00127750858739255	0.00342520650547751
8.2	0.000337213981718977	0.00460234891693129	0.963115259943442	-0.204083300098927	0.963179079555435	-0.203787632251828	-0.000469127618103391	0.00339819066321985
8.3	-1.82784531551826E-05	0.00547416193820656	0.920128832601661	-0.35085804750869	0.920264393752931	-0.350601645253123	0.000421665322910677	0.00317821958980596
8.4	-4.6558164742275E-05	0.00664716680969839	0.855245643450582	-0.48966955937495	0.855455732658039	-0.489468501682397	0.000902859737257187	0.00307361282245648
8.5	0.00125405448319482	0.00810907033563803	0.768518734639781	-0.617283253309488	0.768633654529666	-0.617156775400438	0.00285954955630792	0.00350138574797165
8.6	0.00226740950588562	0.00763402521993832	0.663290216785889	-0.728321589886893	0.663486066525057	-0.728135183911748	0.00438873460915182	0.00123069310334513
8.7	0.00268421938697754	0.00805101747633643	0.542787589290826	-0.822459837369882	0.543068274912935	-0.822348678503636	0.00436574231513648	-0.000450458405407258
8.8	0.00397065997688962	0.00825940445982849	0.408944785502903	-0.897219595206138	0.409150352333848	-0.897163715942971	0.00381660109805055	-0.00182198305599238
8.9	0.00534817937699979	0.00800065326468381	0.264440375527562	-0.950335795989465	0.264681204137642	-0.950193770632512	0.00302503716079767	-0.00248238577990894
9	0.00741747749300636	0.0070144154617448	0.113789424185178	-0.979052865147614	0.114151099583798	-0.979020569623539	0.00305070907347799	-0.00242182509459002
9.1	0.00890008285739255	0.00524892287840596	-0.0385975370559753	-0.98575850235306	-0.0382448233023029	-0.985770298179417	0.00333664283882375	-0.00271887930219258
9.2	0.0104895066137386	0.00303865799066454	-0.191634458489732	-0.968507475561687	-0.191277618064212	-0.968575550322526	0.00438474038713218	-0.002722414356257
9.3	0.0113131464780287	0.000276215431474111	-0.340148014125784	-0.927214897334106	-0.339789796310135	-0.927276812985775	0.00588377719143221	-0.00330141811295875
9.4	0.0114287224678138	-0.00263281802146837	-0.479877142918527	-0.862950121427883	-0.479552283557199	-0.863095951906316	0.00734126000327339	-0.00424362747132914
9.5	0.0106537596649615	-0.00623893988044173	-0.607461639381365	-0.778986763323996	-0.607253886194501	-0.779122741285891	0.00879021328596543	-0.00696041617058569
9.6	0.00741065188982773	-0.00854564914858776	-0.72232234732751	-0.675594885449297	-0.722047206473948	-0.675778338940105	0.006594327914707	-0.00928962661650987
9.7	0.00480844134484991	-0.00909305451886902	-0.818810266648519	-0.554952906960521	-0.818561154410603	-0.555221544983741	0.00484441468313358	-0.00961906909156281
9.8	0.00233668181546227	-0.00948070591572506	-0.895168322067888	-0.421006448069961	-0.894956583574956	-0.421281090831224	0.00334511410295762	-0.00942006703126504
9.9	-0.00025615690793425	-0.00875343535949019	-0.949853024142892	-0.277321791109377	-0.949737820049299	-0.277651774641375	0.00243053515827652	-0.00821620546580694
10	-0.00140664822141192	-0.00865590472175545	-0.982932507867052	-0.12626206468736	-0.982849423458694	-0.126642442339377	0.00387537294739482	-0.00784669143016611
10.1	-0.00489868081255538	-0.00850662272720829	-0.990250759721398	0.029035842231531	-0.990228442316661	0.0285551434698864	0.00292952018064576	-0.00941231282098902
10.2	-0.00762575298584201	-0.00663249476903219	-0.973634502292586	0.182466196298582	-0.973617309834976	0.182013748947032	0.00159313581852854	-0.00944226178815933
10.3	-0.00988675990179097	-0.00415983549613162	-0.933792573390846	0.331590919797972	-0.933926226009049	0.331046568770056	0.000303628057598715	-0.00937351540545295
10.4	-0.0115113956511112	-0.00137332152636729	-0.871507251107582	0.473232447978382	-0.871772042216998	0.472691866907163	-0.00088349397564485	-0.0088245155681746
10.5	-0.0117948967112339	0.00197620876890846	-0.786546624223803	0.604090950336531	-0.786830459266937	0.603700727442605	-0.000342101411422388	-0.00808472220415013
10.6	-0.0115309219506669	0.00432186426705359	-0.682581869300676	0.718257211068621	-0.683010064923484	0.717910417616309	0.000199439500951506	-0.00908199707897796
10.7	-0.0108143839146958	0.00706460912418325	-0.562871542905283	0.81570041254975	-0.563285217478616	0.815409712202859	0.000326393666004336	-0.0102378533687975
10.8	-0.00933616237262895	0.00915532309782783	-0.429015684861697	0.893519516583981	-0.429529269405229	0.893288429680581	-0.000149601847267674	-0.0117096459640686
10.9	-0.00760689847981158	0.0111739122380091	-0.284236947196673	0.949461569626158	-0.284728064205278	0.949410297959769	-0.00126882848657947	-0.012918832413965
11	-0.00516602415831069	0.0122239438327469	-0.133062676288098	0.980821741228738	-0.13361197378806	0.980817841696788	-0.00240109928822812	-0.014104698579088
11.1	-0.00273993033601371	0.0133849312387962	0.0203652885846571	0.990005993955969	0.0197323490790952	0.990089617575226	-0.00417848411186425	-0.01481609893671
11.2	0.000382083923238631	0.0135834739005309	0.174317880445196	0.975052471497324	0.173795594256175	0.975257339177129	-0.00562874748770547	-0.0150535116047708
11.3	0.00351442267047637	0.0131298665879862	0.323989493027221	0.935861079192594	0.323557712243053	0.936126040814135	-0.00684825995878015	-0.0147722633902401
11.4	0.00652912585275413	0.0118483481298667	0.465384139858877	0.873545630332122	0.464917842834047	0.873808090746149	-0.00764430426727847	-0.013929836827836
11.5	0.00933766477235301	0.00933040587132035	0.594767557094545	0.791267258613638	0.594408063887239	0.79168843480873	-0.00772903689642879	-0.0144202295505404
11.6	0.0100201783708252	0.00664483637376825	0.711481043338395	0.689207365020629	0.711213796987883	0.689692003316664	-0.0103194800899187	-0.0145826736665378
11.7	0.0109069696350384	0.00479852905933534	0.810074427328823	0.569623023593067	0.809835405080294	0.570048874498112	-0.0124601795938709	-0.0131125629709095
11.8	0.0111983611342996	0.00250264699355679	0.888474116830313	0.436278645080338	0.888291276899691	0.436835331590675	-0.0143517702986259	-0.0110063688888123
11.9	0.011087201924449	0.00117498014431338	0.945152005029994	0.293213821195994	0.945115993722247	0.293761629201628	-0.0156861398457107	-0.0073040960475975
12	0.0120083118611753	-0.00124739140295452	0.98023816391748	0.142470898464859	0.980228487377509	0.142954215728928	-0.0132397100395361	-0.00446652379925219
12.1	0.0105692921898769	-0.0039558663565101	0.9895171755357	-0.0126830804652796	0.989495596196774	-0.0122066981179379	-0.0126065830150854	-0.00411302540419434
12.2	0.00890007313853927	-0.00594610079978111	0.974752494097595	-0.166219313287928	0.974862937049464	-0.165780126097888	-0.0120594586706457	-0.00322006494222954
12.3	0.00679031222256172	-0.00757264662512673	0.936751948665014	-0.315383027560801	0.936941319462545	-0.315024078767925	-0.0116365813379635	-0.00277368329432345
12.4	0.00378856703024568	-0.00852667435516867	0.876667505015277	-0.45744017554617	0.876804042073945	-0.457063901735393	-0.0118067128271255	-0.00201196654098666
12.5	0.0017316606151436	-0.00839278657636531	0.79332865083301	-0.588916477442746	0.793793346728618	-0.588526059123377	-0.0107505548839175	-0.000871878023330142
