# GHZ S RI R 50
0.2	-0.000186756349786924	1.56851886646965E-05	0.949050807619442	-0.307878509275956	0.948824574253682	-0.308020413650495	-2.44380302767404E-05	0.000171185077952462
0.3	-0.00030632898410277	0.00026005151294272	0.889114697296124	-0.451549455717807	0.888977273057034	-0.451602669065197	-0.000112639834541428	2.31889908704883E-05
0.4	-0.000122710295553735	0.000368704416743469	0.807634157062005	-0.583823321191964	0.807674266080908	-0.583962924119804	4.55917138475159E-05	-1.72030691989187E-05
0.5	-0.000246135368996615	0.000548935004946696	0.706905393430953	-0.702118045316329	0.706794802292863	-0.702213899839122	0.000143108405806777	-0.000124529834473179
0.6	-0.000130845436374917	0.000656537863409633	0.588953028586278	-0.803179536048977	0.588763490438504	-0.803182436735814	0.000162295101244244	-0.000312351658149082
0.7	-0.000123349033197624	0.000941522700463007	0.456869528573695	-0.88450164296465	0.456795512188219	-0.884536014691924	0.000171863819201526	-0.000586257649398
0.8	7.58731529392125E-05	0.000915334502553724	0.313864925928944	-0.944532470307721	0.313746418066483	-0.944445769326759	1.90852729197816E-05	-0.000811151313838174
0.9	7.28874136467469E-05	0.00114004818012019	0.163327080885148	-0.981544542814421	0.16317812652304	-0.981501702235908	-0.000295866556232689	-0.00108599470497179
1	-1.18555907996614E-05	0.00119807118414424	0.00879928450907836	-0.994644350196731	0.00868126005835527	-0.994614676046001	-0.00078831952710763	-0.00131406185701395
1.1	7.31424139039132E-05	0.00162851188714948	-0.145016273321569	-0.983721222856758	-0.145663440484304	-0.983686102249557	-0.00155481779553085	-0.00107565663298525
1.2	0.000429785540411506	0.00127293295534575	-0.296676070122956	-0.9489585978727	-0.296669104143449	-0.949014244850497	-0.001818476911494	-0.000477308207295628
1.3	0.000991332698082587	0.000409261944177438	-0.440261556601722	-0.891150478410104	-0.44035360017842	-0.891174927147368	-0.000947486541724779	0.000697881430981502
1.4	0.00150311287244356	-0.00138318483765434	-0.573018395153033	-0.811866394120261	-0.573092138208269	-0.811766887812198	0.000681274850936329	0.000728035543925643
1.5	0.00180070956039953	-0.00252052847619387	-0.691994647295681	-0.712776761385899	-0.692019229948938	-0.712704773299239	0.0021259533444659	-0.000158340310121632
1.6	0.00166237726688988	-0.00367429015278988	-0.793718001426423	-0.59708453251924	-0.794147230064653	-0.596584436697833	0.00205530117662833	-0.0014719241763328
1.7	0.00122975798068078	-0.00403285860605552	-0.87658044317206	-0.466489475347929	-0.87688461309644	-0.465999987041119	0.00144828552639654	-0.00222857932158639
1.8	0.000631368121586804	-0.00425577885627146	-0.938350591021024	-0.324269900039901	-0.938366029817498	-0.324260444325184	0.000526727660142682	-0.00291145289831765
1.9	6.07543458904795E-05	-0.00410828364140631	-0.977188888413286	-0.174565931337911	-0.977233357730193	-0.174618638988723	-0.000484980974851465	-0.00327299253700363
2	-0.000335040108509371	-0.00379135596032084	-0.99215242093473	-0.0214370997523344	-0.992247227034705	-0.0207881265844985	-0.00161595385054604	-0.00302104031905047
2.1	-0.000521580265835945	-0.00396279678493361	-0.983257489770702	0.134090307004163	-0.983356954513422	0.133606435011634	-0.00218277478115659	-0.00273279888691961
2.2	-0.00148609607727306	-0.00417164785480628	-0.950525617607816	0.284345865658244	-0.950564363953661	0.284479524016107	-0.00285472100739376	-0.00250611856272457
2.3	-0.00246647906126256	-0.00389185215696174	-0.894763733073617	0.428296243625138	-0.894600026221602	0.428384634158942	-0.00353901860033518	-0.00222680288110522
2.4	-0.00369117594198583	-0.00332749152364659	-0.816852168154762	0.562411135521392	-0.817143281649414	0.561949549324921	-0.0042635335359704	-0.00193961472796738
2.5	-0.00441040321298374	-0.00183395546044157	-0.719872444162671	0.682314584335436	-0.720174533214454	0.681934171274784	-0.00476610966100476	-0.00146010673515657
2.6	-0.00428008960845417	-0.000800843603909608	-0.605453795530104	0.785350492659569	-0.605374622476916	0.7852911403937	-0.00472743092829437	-0.000880612098502742
2.7	-0.00390442197294283	-8.66132118214427E-05	-0.476115017351344	0.869536296811692	-0.476085565285621	0.869550376465806	-0.00471620047890802	-0.000494128017275383
2.8	-0.0035157627341097	0.000283614460438384	-0.335600656209492	0.932738643804424	-0.335482567809923	0.932823079238866	-0.00450222149096331	1.00546019712066E-06
2.9	-0.00257003724181988	0.00059342320087487	-0.186775047285998	0.973444862482354	-0.186770600676784	0.973499610287797	-0.00395961435092138	0.000793763372786402
3	-0.00153819693353299	0.00053420939020508	-0.0330375986782609	0.990481053280789	-0.0331018511923827	0.990552441222232	-0.00278111680374372	0.00151173798249864
3.1	-0.000490186880347102	0.000173310401966398	0.120106392361726	0.983407013213909	0.120753806243055	0.983488194335162	-0.00150910172455178	0.00184667837843049
3.2	0.000147283783222898	-0.000382042496097052	0.271774231802834	0.952676742270901	0.271764278425446	0.952716294726136	-0.000468890688953692	0.00173350941628349
3.3	0.000978255056422427	-0.00103535962471231	0.417015164706276	0.898647594577262	0.416393042778079	0.898928761795454	0.000731699913758733	0.00135530985192439
3.4	0.00135065832609881	-0.00178200355922675	0.550930799508238	0.82322261682738	0.550845932094645	0.82333780096454	0.00178663221457479	0.000551085651018119
3.5	0.00217663473032398	-0.00259015996659847	0.671622483334805	0.727696875647645	0.671636690777519	0.727723048555134	0.00262352262133775	-0.000520069395166
3.6	0.00206644423441341	-0.00398391258581953	0.775920103319271	0.615252617067949	0.776341976480443	0.6148591116932	0.00283875458416552	-0.00189608281322207
3.7	0.00172471888528624	-0.00503785260370211	0.862425615837065	0.486759247307173	0.862432566118575	0.486885679571075	0.00271319503496369	-0.00303593559564703
3.8	0.000935265537816383	-0.00590405581378382	0.927375949172242	0.346895595060536	0.927404255683478	0.347078750458573	0.00212009907850712	-0.00430020416663106
3.9	0.000320585314246975	-0.00648849223462974	0.969922735566481	0.19823173645727	0.969824220701042	0.198819115985989	0.000792087067598585	-0.00560282743473939
4	-0.0002877030622691	-0.00662100037809844	0.988969067946717	0.0462821445762123	0.989050980519304	0.0463251593642857	-0.000656786337208318	-0.00622178156047135
4.1	-0.000729308094507448	-0.00759054532923988	0.984390267054416	-0.107971828880066	0.984328155087679	-0.107907857176115	-0.00226215848504553	-0.00688085715811095
4.2	-0.00228866950296824	-0.00821219420425428	0.955205511147676	-0.260097826639642	0.955398766813612	-0.259528820315233	-0.00420116831749482	-0.00697346927359684
4.3	-0.00374161679059484	-0.00861230256454922	0.903461938691888	-0.404527866389294	0.903462805175227	-0.404509349154439	-0.00613498351151874	-0.00681856092016748
4.4	-0.00569322733226361	-0.00847436977981579	0.829872256000339	-0.539645796820579	0.829792388196566	-0.539629908932601	-0.00827942207960848	-0.00619709370893264
4.5	-0.00715550807248238	-0.00757029771503141	0.736231608306137	-0.662322414674003	0.736108114145908	-0.662176425247705	-0.0102825270029737	-0.00485833495870311
4.6	-0.00809251964384522	-0.00676413859029629	0.624125713253412	-0.768532767629306	0.624111171532947	-0.768303443318655	-0.0117072268193221	-0.00327287324052987
4.7	-0.00908573138090794	-0.00643980559990633	0.497146634074473	-0.856001339152709	0.497263647418712	-0.855756788963865	-0.0131101819834575	-0.00171914443359867
4.8	-0.0102447931346797	-0.00563549530573074	0.358031686445036	-0.922646016959741	0.358325271151164	-0.922457570164027	-0.0139915015844728	0.00026923413433079
4.9	-0.0109410116036246	-0.00495069762308183	0.210382819980778	-0.966761528296354	0.210642549060522	-0.966710556918168	-0.0141424831245649	0.00261269439413121
5	-0.0113969144268589	-0.00412340883155116	0.0578553899531351	-0.987295335837639	0.0580136123828704	-0.987167571766138	-0.013311001183521	0.00513230344699447
5.1	-0.0117116018281849	-0.00379890318621791	-0.0955814680780228	-0.984142532250682	-0.0952605432104985	-0.984079848868777	-0.0117702815039634	0.00731308026405242
5.2	-0.0123530132040934	-0.00283030642124294	-0.247164819617353	-0.957533079436574	-0.246737578648628	-0.957655054864544	-0.00999877538823321	0.00942434925728765
5.3	-0.0127490887589923	-0.00172344704359201	-0.392818704058417	-0.907644068402309	-0.392529835122124	-0.907988493187582	-0.00762379699938165	0.0112523674513135
5.4	-0.0126893211339108	0.00016786611432369	-0.529097429717491	-0.83556071836505	-0.528961568024845	-0.835850178688208	-0.00501075411711504	0.0126284460789195
5.5	-0.0114678031538418	0.00143591217500724	-0.651946984008742	-0.743094949152052	-0.651897094303786	-0.743408587907466	-0.00193136829008484	0.0132832897052633
5.6	-0.0112413669302824	0.00180587652488496	-0.759282912072704	-0.633233235017702	-0.75929632777967	-0.633403548760893	0.000591189950365516	0.0129032034974653
5.7	-0.0116275521281587	0.00281208822986761	-0.848563292214308	-0.507635902647455	-0.848539508647966	-0.507810984862776	0.00281335834370855	0.012688123637149
5.8	-0.0117952279970873	0.00458121740850764	-0.916895310649982	-0.369550022113141	-0.916940131236195	-0.369842130537292	0.00500084418920707	0.0120979747693634
5.9	-0.0117388184687089	0.00660497783361112	-0.962931083017027	-0.222909169951824	-0.963051443384701	-0.222957106801186	0.00666312372597041	0.0112200690917255
6	-0.0100728227492662	0.00941737821458517	-0.986072345143418	-0.0711445670435921	-0.98606924675002	-0.0712132569170824	0.00834246254526233	0.0107443672716758
6.1	-0.00795487269728089	0.00999349443810722	-0.985271787060447	0.0830491002585195	-0.985274963223156	0.0829457313698601	0.0102492129333549	0.00917147044669561
6.2	-0.00669296174080502	0.010558355657467	-0.960177571304571	0.235103527042849	-0.960225644801686	0.234921782226785	0.0115915223307208	0.00717988554910235
6.3	-0.0056847936047926	0.0107808454791299	-0.91198583941674	0.381160850263193	-0.912010157740255	0.381032153849387	0.0125521276142237	0.0045788628133624
6.4	-0.00486050113307276	0.010945773973699	-0.84190789035226	0.517983765154698	-0.841899078800508	0.517770140102411	0.0126181998449819	0.0014144998257063
6.5	-0.0040526529366823	0.01096351031793	-0.751342277229766	0.64284296603481	-0.75144285373906	0.642670504937256	0.0119361686337165	-0.00169015148482662
6.6	-0.00315444982010363	0.011061090445032	-0.64193719356994	0.751521005878058	-0.642085759373877	0.751375012600715	0.0105790982880599	-0.00435542198701059
6.7	-0.00205318749664062	0.0111412008774988	-0.517486868698369	0.841820920239059	-0.5176080844987	0.841663703680894	0.00862522336762185	-0.00644384770432579
6.8	-0.000558853237476239	0.0110308106283925	-0.380534886561162	0.911877674081126	-0.380746060922255	0.911802618348715	0.00628460023636415	-0.00787530570474485
6.9	0.000858776412005678	0.0103110488343678	-0.23427404930315	0.960011242035326	-0.234524874309768	0.960007507050098	0.00394277099380946	-0.00856751813558844
7	0.00234297123827027	0.00919883731119669	-0.0819345274846271	0.984411891431929	-0.0821928645519921	0.984382002834061	0.00174094460610671	-0.00898736758257505
7.1	0.00291406736085129	0.00783260708044813	0.0714308646462476	0.984823864250468	0.0712242586933874	0.984811862565357	-0.000652874295719669	-0.00875213075534068
7.2	0.00346039017792754	0.00674953356018706	0.223346411759954	0.961834531132339	0.223091173545544	0.96187866418308	-0.0025404862126608	-0.00771450644920545
7.3	0.00353670293055268	0.00545243186666361	0.369979229455539	0.915415089050484	0.36973912847629	0.915505922268563	-0.00408272338969925	-0.00633938158725279
7.4	0.0034755015540952	0.00440756377944863	0.507584131284371	0.846462532526817	0.507366101817731	0.846624510568574	-0.0053441640767305	-0.00467535364679572
7.5	0.00336712460056973	0.00321312305658246	0.632068573758275	0.757195647964978	0.631908773329743	0.75736736853617	-0.00580104562535107	-0.00269034252051556
7.6	0.00282939627981474	0.00176117082162966	0.741961148008626	0.65039687317739	0.741745906555403	0.650557611924594	-0.00568375448264373	-0.00136982662465003
7.7	0.00150632423829127	0.00109644121664125	0.833913539821162	0.527289445675313	0.833762589816996	0.527484244512089	-0.00560100674208194	3.29395926836202E-05
7.8	0.000496834045897781	0.00127152763204689	0.905587869667385	0.39129582144776	0.905467084009254	0.39151726008152	-0.00498728350288371	0.00131308494294418
7.9	-0.000497915529447495	0.00224006919233661	0.954941804924636	0.24616823287152	0.954901356603635	0.24639344901178	-0.00437478528055179	0.00258805725203016
8	0.00056663904940071	0.00393764448374324	0.981843360968252	0.0955187552581056	0.981913618364847	0.0958106846158079	-0.00328282017584925	0.00409949769296489
8.1	0.00157197907666166	0.00348467757878727	0.985036721214058	-0.0584483572804131	0.985160792236755	-0.0581771521304595	-0.0018336862945833	0.00447264265084825
8.2	0.00161885188368047	0.00307891124056591	0.963764792115695	-0.210715391152077	0.963830650106726	-0.210419531441611	-0.00101107162988446	0.00465828218076404
8.3	0.00113139225756547	0.0031501002126269	0.919209523724054	-0.357645954845106	0.919347036235182	-0.357390064734687	-0.000120887951816395	0.00473786779981057
8.4	0.000618164943316755	0.00367204101035422	0.852727381480682	-0.495861116120137	0.852939012113561	-0.495661288842264	0.000624881237813586	0.00449893262078914
8.5	0.000726468847640136	0.0055637238336419	0.765524936412252	-0.622798520124815	0.765640779116101	-0.622672618430332	0.00135018160881024	0.00475250376882144
8.6	0.00260913895241643	0.00583890426559183	0.658783478811219	-0.733839162765471	0.658980869794354	-0.733653960148421	0.00282686617260238	0.00425095689372899
8.7	0.00338809868108273	0.00553944211425323	0.536821850763484	-0.826746197855086	0.537103447401513	-0.82663709686456	0.00377769847803519	0.00342750143011855
8.8	0.00428583254062277	0.00513458433679975	0.402174062716127	-0.899949331099053	0.402379975263534	-0.899894990678917	0.00444480255456657	0.00240058821087469
8.9	0.00488854547187411	0.00458531255968777	0.257493149044061	-0.951669797399178	0.257734851857269	-0.95152957646167	0.00500293737752997	0.00129777061416655
9	0.00601079492960731	0.00405780850353448	0.106041277140417	-0.979450097279463	0.106403022775441	-0.979420659082241	0.0054766497140517	0.000337489707810484
9.1	0.00723562908838469	0.00291006194639751	-0.0465489837380884	-0.983615323413011	-0.046197020436134	-0.983629968079717	0.00599444793369448	-0.000777898316334899
9.2	0.00855463677903931	0.001495214771357	-0.198598318584309	-0.964550420579426	-0.198242916619412	-0.964621067612565	0.00661738709867842	-0.00169180988843443
9.3	0.00984591655817106	-0.000356833351437264	-0.346022494021379	-0.922000700863551	-0.345665776180257	-0.922065088142006	0.00741791924823963	-0.00275112672135936
9.4	0.0107065974809128	-0.00295016239079885	-0.484899724251975	-0.856697357325778	-0.484576956763148	-0.856845185246195	0.00776317236343345	-0.00420547881972597
9.5	0.0112219022350561	-0.00597893434113199	-0.611015481027917	-0.770804440485575	-0.610809703667549	-0.7709414788297	0.00785407868317005	-0.00534267889401813
9.6	0.00922183078848153	-0.0101447569750903	-0.723265081482435	-0.667152088635441	-0.722992616818034	-0.667336494587867	0.00671475643574549	-0.00689567275766185
9.7	0.00584850624621232	-0.0119160386924535	-0.81803151771039	-0.546752171499096	-0.817785451604118	-0.547020984434714	0.00543107828858026	-0.0073918776513
9.8	0.00249396724659244	-0.0126691457713368	-0.892763749077488	-0.413062393791043	-0.892554911676256	-0.413336813340068	0.00429093765270597	-0.00760776804653649
9.9	-0.00110964992838145	-0.0117793775592009	-0.945548813116327	-0.269726860434818	-0.945436366780466	-0.270055464640338	0.003117722979933	-0.00749282427427615
10	-0.00268665985971941	-0.00985532011695746	-0.976441364072218	-0.120478408138625	-0.976360765607961	-0.120856443416773	0.00263748682852013	-0.00658017388079805
10.1	-0.004522202146704	-0.00968794057620661	-0.983478839000912	0.033108355038798	-0.983458742950091	0.0326307866940767	0.00236312116647287	-0.00672532877313238
10.2	-0.00718712655279027	-0.00846903640323197	-0.966166659724363	0.185385502085543	-0.966151524148469	0.18493608802524	0.00187610932897754	-0.00658125227962753
10.3	-0.00966386481575693	-0.00610216000871561	-0.925566110379372	0.332930762600513	-0.925700983648582	0.332390965429975	0.00144916681454604	-0.00680515311355197
10.4	-0.011517202353553	-0.00321921940737266	-0.862941846668	0.472311806388993	-0.863206297648861	0.471776443174806	0.000842673931557667	-0.00740188288756815
10.5	-0.0119450994938082	0.000974387166018385	-0.779269742251681	0.601277595644841	-0.779552301357384	0.6008909477234	0.000396054952642103	-0.00772999629716834
10.6	-0.0104330882115059	0.00364182446927379	-0.675652521398414	0.714569782887094	-0.676078368111422	0.714226668515112	0.000218509930710142	-0.00865145356685563
10.7	-0.00895378817758019	0.00561795720909659	-0.556637039027312	0.810339666754101	-0.557048006046539	0.810052170265456	-0.000270066853446383	-0.00971144483368112
10.8	-0.00746995426437358	0.00678936144126906	-0.424219219569591	0.886709151330652	-0.42472886811629	0.886480692840856	-0.00134035606092733	-0.0108461112718075
10.9	-0.00617429952081497	0.00833890170506587	-0.28142340154326	0.941982408494864	-0.281910596775582	0.941931821964636	-0.00304199628509558	-0.0114158396136619
11	-0.00389516359742984	0.00936093902419961	-0.131167693054399	0.973545758923204	-0.131712851576856	0.973542388057381	-0.00436156297428883	-0.0115011738002525
11.1	-0.00169144728435818	0.0100101822682568	0.020815541619739	0.981588921823995	0.0201880278006861	0.981672233960218	-0.00565215455654153	-0.0114655887629193
11.2	0.000867917424117219	0.0100585869306867	0.172565469290249	0.966649672736717	0.172047656331114	0.966852635960427	-0.00658440856017612	-0.0112127386783713
11.3	0.00346742949144382	0.0097179245145099	0.320386483312785	0.928218490782389	0.319958123141652	0.928480810490722	-0.00721406457537696	-0.0108229886838867
11.4	0.00594968512213718	0.00888686164879634	0.460638451948572	0.866917285119259	0.460175677908095	0.867177097661814	-0.00788441322543276	-0.0101460627048935
11.5	0.00940078998436197	0.00747537896807807	0.588500326364039	0.784763120328156	0.588143620139217	0.785180082010286	-0.00793300048755902	-0.00941783823988016
11.6	0.0110005337357446	0.00377453114472525	0.703173635354484	0.684739621237399	0.702907579572417	0.68521912566904	-0.00872007982634729	-0.00936823082759472
11.7	0.0113588434619179	0.00124352171613748	0.801174456873897	0.567341735663531	0.8009361095913	0.56776310640711	-0.00958612856694289	-0.00876283397561082
11.8	0.0110471143088115	-0.00120465643361039	0.879418804935236	0.435860520562566	0.879235466790472	0.436411864017685	-0.0105627470880549	-0.00820314101530664
11.9	0.0103352720425364	-0.00233369693495803	0.935888836898319	0.294409341518754	0.935850983180097	0.294952306667886	-0.0118991134515857	-0.00703525014007958
12	0.0110100322383855	-0.00301502558081906	0.970847697148649	0.146587772436697	0.970835458719379	0.147066791364555	-0.0122615423732332	-0.00521473235214357
12.1	0.011297413335425	-0.00624105140816817	0.982108317754329	-0.00651060470398993	0.982083976287911	-0.00603795920102266	-0.0124665200627077	-0.00466765722454924
12.2	0.00940400828991397	-0.00914889639523122	0.968843614586494	-0.158953429889506	0.968950530487241	-0.15851668321812	-0.0132688238985943	-0.00362234042425944
12.3	0.00672132014890948	-0.0109669600590529	0.932251323821734	-0.306996389729481	0.932436999803744	-0.306638714061745	-0.0139010075643299	-0.0023362960931427
12.4	0.00306714829265319	-0.0117781853538087	0.873985901048611	-0.447665645439194	0.874118660017395	-0.447290971660638	-0.014585529014424	-0.000823181071671974
12.5	0.000499269283806721	-0.0102430211605755	0.793945836739736	-0.578865835845008	0.79440461383456	-0.578473620322318	-0.0146930272099598	0.00158722888104987
12.6	-0.000815317064951847	-0.0100337291094211	0.693789412300474	-0.694615745883742	0.694136164954175	-0.694306788761708	-0.013672371461046	0.00308239813186583
