# GHZ S RI R 50
0.2	-0.000272209595873701	-0.000102934665122824	0.949263760945754	-0.307835240645588	0.949037499876871	-0.307977196162961	-3.76775936858801E-05	-2.83411862025492E-05
0.3	-0.000490758126509004	0.000164866890725194	0.889386259465649	-0.451548512647022	0.889248808524293	-0.451601755954883	-0.000205624913900429	-0.000248091699035386
0.4	-0.000392524023627296	0.000347406401485181	0.807954001977329	-0.583909229079234	0.807994139949031	-0.584048870632021	-0.000161308947915865	-0.00030698806117575
0.5	-0.0005220663652594	0.000621871680201987	0.707183545165065	-0.702328859102893	0.707072920096684	-0.702424752064179	-8.90755912680946E-05	-0.000334463729138803
0.6	-0.000467630296199166	0.000753546942015822	0.589184673060067	-0.803414290680895	0.588995072951757	-0.803417201457928	-4.85973663625139E-05	-0.000587006666713169
0.7	-0.00051384221310602	0.00118175390873961	0.457076664001655	-0.884806413228192	0.457002621931555	-0.884840800881252	-0.00010378869183858	-0.000901398287425622
0.8	-0.000261434932810263	0.00131691534951199	0.314000252776958	-0.94491020104385	0.313881696327584	-0.94482346624185	-0.00032624687629226	-0.00114789917362151
0.9	-9.72035307110917E-05	0.00167501671061884	0.163344796790646	-0.981956455744749	0.163195783305569	-0.98191359005356	-0.000769241669602343	-0.0014116637937297
1	0.000248382250983765	0.00171482419442942	0.00874714130577058	-0.994997924157248	0.00862907658471257	-0.994968232922827	-0.00126031110296379	-0.00137372555692172
1.1	0.000676346348065606	0.00153596755757905	-0.145104574531553	-0.984122191175126	-0.145752007253231	-0.984087037310703	-0.00158554576901594	-0.00120732048440893
1.2	0.00106231826405846	0.00037363405522359	-0.296885014508279	-0.949353297668636	-0.296878050041076	-0.949408969793284	-0.00146648252791234	-0.00111169665773604
1.3	0.00127458232908424	-0.00139021010866617	-0.440569316225498	-0.891481566287309	-0.440661403108269	-0.891506013705309	-0.000403646270586414	-0.000788353329444055
1.4	0.00108719933269446	-0.00343698370091894	-0.573370233707397	-0.812109912654192	-0.573443991877379	-0.812010355190256	0.000992221528677306	-0.00137378917648998
1.5	0.000805332830224922	-0.0041231703873921	-0.692389738532584	-0.713018132331715	-0.692414323944942	-0.712946108884113	0.00225921779289805	-0.00239433206031302
1.6	0.000393902268541657	-0.00422768785266475	-0.794250858699079	-0.597206857576413	-0.794680191093379	-0.596706414113211	0.00172373085369932	-0.00366381402771815
1.7	0.000329431708991994	-0.00380634957693149	-0.877122655869964	-0.466454203572379	-0.877426826446287	-0.46596439988771	0.000742519188853873	-0.00403845498729526
1.8	0.000158265286246583	-0.00367270870019819	-0.938860530846923	-0.324119686351218	-0.938875973454259	-0.324110221685943	-0.000404102542960719	-0.00427359729735692
1.9	7.09453809365537E-06	-0.00344845692644706	-0.977677978037258	-0.174340845581287	-0.977722483493831	-0.174393562888637	-0.00143469190763127	-0.00407281462347605
2	-0.000240404203670882	-0.00345014785889493	-0.992659095012387	-0.0210413897797671	-0.992753682821052	-0.0203920520750153	-0.00207848108914028	-0.00353049060158287
2.1	-0.000696033523761366	-0.00346538953290117	-0.983582401022646	0.134619855306452	-0.983682139637239	0.134135839656086	-0.00254464207781965	-0.00345478798277577
2.2	-0.00143816010497606	-0.00343000402230703	-0.950733060788996	0.28490325089536	-0.950771757204621	0.285036976088388	-0.00332217827367546	-0.0032350545900849
2.3	-0.0020766469571376	-0.00318170562271022	-0.894873891008293	0.428898651758032	-0.894710080657175	0.428986992501342	-0.00412629117125657	-0.00283164535495991
2.4	-0.0029436761348151	-0.00291427898543153	-0.816832979572447	0.56309130435892	-0.817124467463864	0.56262971363244	-0.00488918913728439	-0.00220953721971952
2.5	-0.00355131869594284	-0.00222076162465947	-0.719580464756066	0.682983616968361	-0.719882892719938	0.682603317736227	-0.00486911290722145	-0.00138915816303974
2.6	-0.00414605458215506	-0.00169362364554838	-0.605064872284017	0.785863570200678	-0.604985722935315	0.785804158222397	-0.00432411540124712	-0.00117716713222185
2.7	-0.00432212415624208	-0.000887627139208422	-0.47563188907287	0.869986387335878	-0.475602423090579	0.870000450283671	-0.00417111404279813	-0.00127280468215917
2.8	-0.00419826286198105	-0.0002892071294051	-0.334992123789035	0.933086470829657	-0.334873962153609	0.933170834343117	-0.00402487267379557	-0.00122442458028087
2.9	-0.00335734779049205	0.000181890298673367	-0.186045689625077	0.973601879989902	-0.186041201762256	0.973656625367659	-0.00366234162333684	-0.000770147660556143
3	-0.00251772870116515	0.000288795691386544	-0.0323869792842855	0.990382917725637	-0.0324511774450071	0.990454338983949	-0.0027366793849074	-0.000382344472758279
3.1	-0.00146528645265776	0.000287802144721532	0.120717552053456	0.983273055164565	0.121364978489479	0.9833538244118	-0.00191039148557182	-0.000195357330561558
3.2	-0.000735865280209883	-0.000109581096959617	0.272380029267851	0.952383129689914	0.272370103526109	0.952422684169133	-0.00128346874121071	-0.000192299385605921
3.3	0.000139011066894703	-0.000660998499550058	0.417527757077929	0.898187275123614	0.416905948815887	0.898468798735363	-0.000358512644336713	-0.000296604126531517
3.4	0.000523603076976498	-0.00136907260509115	0.55125645706164	0.822659132751022	0.55117168216328	0.822774333533543	0.000660790966246992	-0.000731894421186822
3.5	0.00105642011367204	-0.00211015887401111	0.671856513761435	0.727212362896393	0.671870731603613	0.727238523406584	0.00167298865156501	-0.00172504933668983
3.6	0.00089440258505466	-0.00289377374722302	0.776124150019812	0.614627508209966	0.776545680810464	0.614233830954206	0.00175429640652877	-0.00307556200311081
3.7	0.000914667168410952	-0.00360882880058717	0.862433188701279	0.486076800662544	0.862440213026242	0.48620318674588	0.00149774534596552	-0.00398920498756441
3.8	0.000498954503767107	-0.00436820835452573	0.927209777262296	0.346259854622471	0.927238172332588	0.346442924670275	0.000855247269290058	-0.00488942199748694
3.9	0.000259347235548488	-0.00507105135952846	0.969676668669722	0.197697174260774	0.969578469959401	0.198284394453103	-0.000291443875221643	-0.00564968930300429
4	-0.000405765140565603	-0.00566057745519104	0.988676673860704	0.0456683527112809	0.98875858593913	0.0457113039679171	-0.00103283779017518	-0.00598389369473246
4.1	-0.00120589841936005	-0.0063457800004248	0.983835166299677	-0.108486512084712	0.983773122381772	-0.108422536515862	-0.0021606964143288	-0.00686442073597701
4.2	-0.00253946605351602	-0.00666775766676879	0.954576502413227	-0.260439418847716	0.954769941545111	-0.259870806370947	-0.00382850131263539	-0.0072065939804464
4.3	-0.00366221199306112	-0.0070330195936181	0.902795951822362	-0.404757823480613	0.902796826873576	-0.404739316279326	-0.00563769904406161	-0.00730483023114902
4.4	-0.00521159504210535	-0.00710422682420279	0.82912600978906	-0.53981132994694	0.829046193937793	-0.539795406629812	-0.00777161616190463	-0.00677420023244308
4.5	-0.00656241156549298	-0.00701301063915073	0.735276246706121	-0.662225958167118	0.735152932784189	-0.662080012214849	-0.00942368971422818	-0.00547119300431557
4.6	-0.00831538719072393	-0.00658471648743066	0.623340913574878	-0.7681158232516	0.623326464106256	-0.767886683416701	-0.0106228663019289	-0.00440419560223291
4.7	-0.00990875888490892	-0.00602884941073459	0.496494428341495	-0.855463244502807	0.496611420531721	-0.855218924906659	-0.0121419382925325	-0.00334500953308174
4.8	-0.0114226652663971	-0.00478990756211564	0.357474826878154	-0.921979113169161	0.357768220298072	-0.921790905546981	-0.0133116298368196	-0.00170253708051763
4.9	-0.0121707108051933	-0.00360191703471403	0.209944853659584	-0.965893656353699	0.210204348209165	-0.965842797355463	-0.0137904089560773	0.000484541461126002
5	-0.01256747957028	-0.00232063169727849	0.0578201265575143	-0.986286203387029	0.0579781844085958	-0.986158565909565	-0.013178953788521	0.00285773407461504
5.1	-0.0123775115531121	-0.00134582686737139	-0.0954310679887129	-0.983306514022005	-0.0951104222847754	-0.983243861954182	-0.0120432006353853	0.00492792118515046
5.2	-0.0120778979819068	-0.000325506025277525	-0.246876109732365	-0.956709254494577	-0.246449235478245	-0.956831090812748	-0.0106688765408243	0.00721931522742467
5.3	-0.0117430527114865	0.000210754008426005	-0.39231564075254	-0.906867291024588	-0.392026985063976	-0.907211353220463	-0.0084720564483888	0.00945082405124059
5.4	-0.0115451025988728	0.00113686535443677	-0.52833176033211	-0.834957127052552	-0.528195930156227	-0.835246273716837	-0.00560274828312584	0.0112959949057463
5.5	-0.0113707725591283	0.00182747150721909	-0.651184067912941	-0.742860260810134	-0.651134079682604	-0.743173662809413	-0.00197540855318777	0.0117374281543424
5.6	-0.0114807375052739	0.00313860888955575	-0.758556308082875	-0.633008409685345	-0.75856966388501	-0.633178606443451	0.000396738131123721	0.0110198178574803
5.7	-0.0113287001565991	0.0044213519090977	-0.84772579088867	-0.507570806388033	-0.847701959250894	-0.507745746381736	0.00232870645374829	0.0108363728086958
5.8	-0.0109862530451715	0.00594866885704883	-0.91604930932308	-0.369737429147318	-0.916093952793559	-0.370029348550296	0.00434189458820231	0.0105806238624659
5.9	-0.0105952978415382	0.00716970069568223	-0.962258295216029	-0.223338392954822	-0.962378560009145	-0.22338637199239	0.00624895885679939	0.0103147207432921
6	-0.0099291845921448	0.0086717705055604	-0.985558964682326	-0.0714792318854042	-0.985555842133927	-0.071547886581407	0.00893208351273304	0.00983827147585179
6.1	-0.00942256322981106	0.00988108277454626	-0.984671438257443	0.0825340662472234	-0.984674564065222	0.0824307630354724	0.0111774598077218	0.00747871914881032
6.2	-0.00863050311445441	0.0114804194642943	-0.959751433176274	0.234425862697089	-0.959799376401529	0.234244196637937	0.0122509726179534	0.00482816269316668
6.3	-0.00753377024726701	0.0126084233851682	-0.911746156305257	0.380444609705879	-0.911770388427564	0.380315964165875	0.0125888032738157	0.00190332553981036
6.4	-0.00616039844997428	0.0133555124632683	-0.841758848716219	0.517329894136822	-0.841749937887129	0.517116374940433	0.0120343690858259	-0.0010615706423189
6.5	-0.00477699103812592	0.0135085037009001	-0.751141430918741	0.641984234105841	-0.751241844059107	0.641811843993521	0.0110781288161246	-0.0038223677251367
6.6	-0.00319968314273287	0.0135293997299891	-0.642146313221361	0.750565117714719	-0.642294674952108	0.750419094579928	0.00958239315045116	-0.00611502416365306
6.7	-0.00171719032174622	0.0130665932862222	-0.517905769193905	0.841018234973673	-0.518026804312985	0.840860997014672	0.00773521427246572	-0.00782517212532484
6.8	-0.000306000973091498	0.012491221133739	-0.381054153115118	0.911180526050528	-0.381265175873466	0.91110534422669	0.00571465198205367	-0.00900446984383201
6.9	0.00083959838150499	0.0115519250804153	-0.234902886933795	0.959294797849109	-0.235153570128704	0.959290866767014	0.00386817247336592	-0.00969363452062257
7	0.00196136541479051	0.0105967276352714	-0.0830136563567658	0.983821941763217	-0.0832718290393371	0.983791774202227	0.00200589879155864	-0.0104501841112426
7.1	0.00264098068308329	0.00949475397720464	0.0703322791141238	0.984698863907224	0.0701257290856043	0.984686637321989	-0.000298236266078414	-0.0105570556894025
7.2	0.00327441673990235	0.00841689922580629	0.222294420314299	0.961908601002001	0.222039178397594	0.961952457427392	-0.00219370542340831	-0.00984316532286628
7.3	0.00335225686092515	0.00714147527898885	0.368915429592589	0.915693665573731	0.368675262391224	0.915784220655443	-0.00385027328244721	-0.00877818557111704
7.4	0.00328616457938646	0.00613231910562909	0.506489837749738	0.847068114864556	0.506271612735588	0.847229809675168	-0.00530267545064343	-0.00735201572798227
7.5	0.00296424034534779	0.00510872731781636	0.631379372331518	0.758251734602652	0.631219302167483	0.75842332406554	-0.00600546509437036	-0.00565362305128842
7.6	0.00266799956291224	0.00433878081990402	0.741599361761869	0.651325258761956	0.74138389357216	0.651485848563802	-0.00640254400259883	-0.00446635224624262
7.7	0.00214719409019342	0.00381173473246343	0.83367273804717	0.528268458650215	0.833521550348676	0.528463174316078	-0.00684584677090048	-0.00282967627821696
7.8	0.00182894187855527	0.00356250790512324	0.905573468662612	0.392367080918695	0.905452410577124	0.392588490858714	-0.00657915881121362	-0.000951731351172039
7.9	0.00119896929088647	0.00345619636681744	0.955315295394473	0.247238262275683	0.955274605939165	0.24746358333494	-0.0057499941866812	0.00124831579357466
8	0.00107612763076317	0.00373659446144668	0.982412192914873	0.0961231811822094	0.982482333069379	0.0964153343229591	-0.0037230599506078	0.00322103619429793
8.1	0.000414363861933349	0.00403407034542694	0.985474620381635	-0.0578441614397472	0.985598568966621	-0.0575727668885224	-0.00155369751564327	0.0033283676223897
8.2	0.0001726012837325	0.00478417441755393	0.964368650420022	-0.210132276416165	0.96443432995447	-0.209836230500031	-0.000316864308177511	0.00311582805833197
8.3	-3.59350401568035E-06	0.00569236511612277	0.91996987871095	-0.357229014408104	0.920107296601002	-0.356972887069522	0.000729439870850925	0.00272474438477886
8.4	0.000287345786589324	0.00658921549925363	0.853480559265513	-0.495729232980236	0.853692215568997	-0.495529181543993	0.00139504749233653	0.00224556778740135
8.5	0.000768428809793624	0.00757453945732905	0.766091371349969	-0.622556213114705	0.766207178094881	-0.622430210847541	0.00253608901565665	0.00228380620466767
8.6	0.00170268979888854	0.00811826860574612	0.659699078487839	-0.733690233965233	0.65989642307318	-0.73350478100032	0.004111624536867	0.000838012535401667
8.7	0.0026416983476895	0.00871646603797375	0.537759660002302	-0.826932819244739	0.538041371441559	-0.826823448741593	0.00447699050238539	-0.000914264240662555
8.8	0.00429803432987238	0.00888529774578206	0.40296927809123	-0.900364476490794	0.403175306902127	-0.900309981006354	0.00400708184787148	-0.00246617324150781
8.9	0.0060908491514604	0.00838902448526141	0.258128394916801	-0.952096505203154	0.258370168027139	-0.95195607907239	0.00326925078476734	-0.00330965110007336
9	0.00818197511954441	0.00694263706835188	0.106907078611752	-0.980047405650236	0.107269052719031	-0.980017654466385	0.00308811618336465	-0.00343953828491142
9.1	0.0097606299773272	0.00482870505572416	-0.0460383028588238	-0.984602924015245	-0.0456859873064876	-0.98461738398067	0.00340360989622033	-0.00382846944015586
9.2	0.0109731566481338	0.00212177061110348	-0.19838280621315	-0.965510602106734	-0.198027051497384	-0.965581167422334	0.00412211613851082	-0.00403344795988183
9.3	0.0112661508313604	-0.000685895737059078	-0.34593868413796	-0.922921486757679	-0.345581638406615	-0.922985782842402	0.00530006479067284	-0.00442743201992974
9.4	0.0108447010091425	-0.00362183873469883	-0.484843796965382	-0.857742900885172	-0.484520655482223	-0.857890676465055	0.00655824296912733	-0.00526270602887097
9.5	0.00941007631415509	-0.00599739456790264	-0.611521518351006	-0.772086933384178	-0.611315409135274	-0.772224071849042	0.00781612831903365	-0.00692721067130753
9.6	0.00738161939333636	-0.00788887843302559	-0.724090580045443	-0.667980018857455	-0.723817782715482	-0.668164630291767	0.00687251107322748	-0.00930858842684821
9.7	0.00514503646582592	-0.00886901888671838	-0.818917649199704	-0.547382499264157	-0.818671302622363	-0.547651601361673	0.00527280705967925	-0.0102720332277756
9.8	0.00280288078397758	-0.00961998718241809	-0.893783494543986	-0.41355286420668	-0.893574412296594	-0.41382759588066	0.00368461892796587	-0.0104464068277291
9.9	6.333817208189E-05	-0.00959595737946011	-0.946851172271128	-0.269971743022121	-0.94673861580993	-0.270300802145009	0.00247183184864587	-0.00971511006705439
10	-0.00246567078313312	-0.00916717191085559	-0.977658331222478	-0.119996563917208	-0.977577879683146	-0.120375092006406	0.00277765691476198	-0.00881281256958515
10.1	-0.00534046832026756	-0.00800262356028087	-0.984280974585689	0.0336135361888458	-0.984261093804573	0.033135560742269	0.00259088191243144	-0.00959888544771649
10.2	-0.00754897522985848	-0.00620879750120295	-0.966921967426072	0.185958565937715	-0.966907010913358	0.185508757240038	0.00161924877391403	-0.00984069080254139
10.3	-0.00942377281141032	-0.00392930931740244	-0.926234658841489	0.333705457015102	-0.926369930225851	0.333165239694719	0.000509619463161337	-0.00991250595563796
10.4	-0.010695518065275	-0.00176901681933789	-0.863290841977449	0.473360424842642	-0.863555919975759	0.472824823349652	-0.000477805001423744	-0.00974155804168653
10.5	-0.0116601848231445	0.000843512254639766	-0.779149637070045	0.601995025316852	-0.779432546562656	0.601608426726921	-0.000445317272834666	-0.0093939435336307
10.6	-0.0118702454597801	0.00320934636733665	-0.675765775080333	0.715220431183668	-0.676191987398329	0.714877282651466	-5.8866564948448E-05	-0.0102839261165449
10.7	-0.0117489541037042	0.00608161894772488	-0.556618650262017	0.811163149701563	-0.557030037394985	0.810875659006545	-0.000233589283606999	-0.0114678293955369
10.8	-0.0106262680166442	0.00857285014498894	-0.423916054551315	0.887556251332943	-0.424426179921964	0.887327977001155	-0.000975204373592079	-0.0126787317186814
10.9	-0.00904385393190775	0.0111339077505805	-0.28089167377982	0.942542332363772	-0.281379093834182	0.94249205796199	-0.00225121216330827	-0.0135160831747853
11	-0.00652041389812923	0.0128887294293889	-0.130945727736688	0.974075752151032	-0.131491162251326	0.974072540926868	-0.003261498344657	-0.0141749695699656
11.1	-0.00357732396492648	0.0143318581242646	0.0214332912945438	0.982310481373362	0.0208053591685415	0.982394240781116	-0.00460095829171688	-0.0147791397815569
11.2	-0.000117987132901859	0.0146161717271846	0.173425711547206	0.967081444517933	0.172907754083251	0.967284933401974	-0.0058366279452809	-0.015031178180767
11.3	0.00330167350191687	0.0141409727044147	0.321246564497493	0.928358551419521	0.320818229136267	0.928621316187733	-0.00687502377088153	-0.0148470085760268
11.4	0.00636775365228995	0.0126471306545854	0.461331583523051	0.867005962526273	0.460868770239193	0.867266150791547	-0.00771393135280697	-0.0141464859208148
11.5	0.00904860106446431	0.0108455682784799	0.589627541701354	0.784897901459564	0.58927089929756	0.785315494978264	-0.00780220322406759	-0.0138753223600623
11.6	0.0110028750422537	0.00827851985832364	0.704253734535171	0.684204694107044	0.703988125520107	0.684684702412743	-0.00920810145696743	-0.0141854867428914
11.7	0.0125912478055454	0.00576564789667909	0.801922919533709	0.566611651743547	0.801684967787635	0.567033353240756	-0.010929850771648	-0.0134221582350051
11.8	0.0133530488335276	0.00254918230307496	0.879966263386739	0.435120031844867	0.879783404314382	0.435671635459876	-0.0126125350429353	-0.0120842134823116
11.9	0.0133602717423217	-0.000426349418017115	0.93648113181174	0.293617535692344	0.936443781839881	0.294160717992796	-0.0139165662682471	-0.00950906213460078
12	0.0121080719273023	-0.00343263731237569	0.971116492951051	0.145243427698171	0.97110492178461	0.145722495432455	-0.0132549491122749	-0.00700090270976257
12.1	0.0101770533977841	-0.00584292544287401	0.98186722478883	-0.00756005075492124	0.981843394911983	-0.00708749187418867	-0.0126755979289347	-0.00640449441199218
12.2	0.0075835952302116	-0.00752727656394697	0.968554458256629	-0.159856044654666	0.968661776041358	-0.159419461998295	-0.012898497255966	-0.00542969309655972
12.3	0.00494125340785496	-0.00827166774148217	0.931868045773259	-0.307943975805823	0.932054080627791	-0.307586517731043	-0.0129685603080926	-0.00430872523542284
12.4	0.00205242342399274	-0.0085579541733515	0.873213680534944	-0.448741151703264	0.873346912436301	-0.448366730088861	-0.0131092156375533	-0.0030044815983391
12.5	-0.000345072109293	-0.00787160991474325	0.792676416410976	-0.579303515741673	0.793135274669202	-0.578912121054415	-0.012330738978848	-0.0012451612688368
