# GHZ S RI R 50
0.2	-0.000345244685632365	4.16604793140634E-05	0.948878520735281	-0.307865981902894	0.948652319538687	-0.308007853067261	-0.000108419025802837	0.000113457883199698
0.3	-0.000471161030044927	0.00036305412587103	0.888926410330893	-0.451506790617849	0.888789009370022	-0.451559987469364	-0.000183255019806915	-5.55827105474902E-05
0.4	-0.000220870313952049	0.000538780617278578	0.807402548185535	-0.58373639015056	0.807442638462456	-0.583875962276865	1.21527440495912E-05	-0.000124083822267735
0.5	-0.00030775699515563	0.000586106779971209	0.70667422444042	-0.701850040346086	0.706563675093132	-0.701945863947027	0.000126337140815333	-0.000378819868956356
0.6	-0.000415841156337938	0.000793705494344101	0.58890216844138	-0.802893424298395	0.588712680298171	-0.802896348623077	7.15392745887096E-06	-0.000558242640448731
0.7	-0.000378427245929771	0.00130240360626379	0.456854644144703	-0.88423936980014	0.456780649288018	-0.884273741218987	3.51638305742088E-05	-0.000797631962103022
0.8	-4.09134350896608E-05	0.00146191793606121	0.313892708961773	-0.944235449842565	0.313774223154593	-0.944148786950826	-0.000105776048097714	-0.00102548502542354
0.9	0.000324719787798072	0.00187357993644291	0.163479147365366	-0.981185508667256	0.16333023327834	-0.981142713545265	-0.000356256942376186	-0.00123961647030597
1	0.000970182588134587	0.00142354217143896	0.00919318273229889	-0.99445901761931	0.00907516805081568	-0.994429395827298	-0.000559587501480348	-0.00168344330066422
1.1	0.00075155427334749	0.00107791104517709	-0.144768565945361	-0.983700792546547	-0.145415705000635	-0.983665831489431	-0.00152573936364307	-0.00166596084769536
1.2	0.000865377925240323	0.000248381759234516	-0.296424995789014	-0.948914672539897	-0.296418017958835	-0.948970311392794	-0.00167341000971989	-0.00122949118445802
1.3	0.000766439993086705	-0.00109874651835568	-0.439948784761918	-0.891174140399428	-0.440040810326187	-0.891198613189463	-0.000904366252270773	-0.000486826177793836
1.4	0.000490297964053964	-0.00263624112866167	-0.572701744082421	-0.812081591241712	-0.572775524974635	-0.811982114020204	0.000422515434231195	-0.000575212103126412
1.5	-1.53392540721804E-05	-0.00303813123353607	-0.692022786123186	-0.713056388786538	-0.692047386886878	-0.712984389059805	0.00148106622345442	-0.00133254048896745
1.6	0.000257425014353525	-0.00256733077196829	-0.793669123352863	-0.597090663255049	-0.794098353977721	-0.596590600054404	0.00162190867626185	-0.00206380957165696
1.7	0.000830546887257641	-0.00257289969949045	-0.876423019044696	-0.466591115429063	-0.876727241721957	-0.466101722216502	0.0012530607284696	-0.00287527909526398
1.8	0.000941045191652867	-0.0029114282137381	-0.938255797198246	-0.324477525802894	-0.938271237824122	-0.324468073813332	0.000364846896511196	-0.00357847269944137
1.9	0.000975331240327961	-0.00334809907639149	-0.977267923930063	-0.174723205500042	-0.977312390484339	-0.174775925045472	-0.000494362874260901	-0.0040232958028091
2	-0.000167164912078281	-0.00403782932865125	-0.992001840247001	-0.0213298017441457	-0.992096563700133	-0.0206809186027936	-0.00202378786740552	-0.00414997149846417
2.1	-0.00086829856674817	-0.0031952941819339	-0.982997853710299	0.133778814420315	-0.983097155063175	0.13329506096193	-0.00272369521250829	-0.00322693731798216
2.2	-0.00119086110591008	-0.00309500849491247	-0.950523662157012	0.283958355153918	-0.950562454032805	0.28409198381749	-0.00309250721577817	-0.00295017670262438
2.3	-0.00157908429616254	-0.00299981441139194	-0.894882662724224	0.428006150660171	-0.894718986733073	0.428094591246772	-0.00366174682489017	-0.00269514148968397
2.4	-0.00213737028813483	-0.00312117518935623	-0.816869886536281	0.562196485336607	-0.817160881625436	0.561734894163046	-0.00412624198617768	-0.00243836743453453
2.5	-0.00330569165854768	-0.00344752456063536	-0.719958193482126	0.68166341826176	-0.72025996114802	0.681282991242316	-0.00465003665653967	-0.0025984951256591
2.6	-0.0049968499589441	-0.00232951842937966	-0.606088815086738	0.784969295374057	-0.606009591129084	0.784909996683985	-0.00516440476551334	-0.00179775095164763
2.7	-0.00530905158049799	-0.000725334866764925	-0.476701186203133	0.869463426334109	-0.47667173546821	0.86947752536037	-0.0051309225485373	-0.00111591541277675
2.8	-0.00487809355322698	0.000485737992286859	-0.336110848492965	0.932740879561192	-0.335992780103752	0.93282538695513	-0.00467529147926943	-0.000471140006114188
2.9	-0.00359184056177196	0.00115878004408027	-0.187405385689208	0.973386795681452	-0.187400973617149	0.97344154970602	-0.00386314473106799	0.00016656589964816
3	-0.00254034333703388	0.0014188443693731	-0.0340459111941455	0.990970934763078	-0.034110269057361	0.991042296108082	-0.00272613605319709	0.000690174069615388
3.1	-0.000869267599254304	0.00141378085207345	0.119749250525637	0.984260533591961	0.120397152223969	0.984342079866972	-0.00128945963813227	0.000868150831056449
3.2	0.0001655625087669	0.000631034605325572	0.271623800415627	0.953382587894047	0.27161382712339	0.953422162400277	-0.000378633071906503	0.000474715284697807
3.3	0.00114680663880382	-0.000307067491327418	0.416902393935529	0.899381805839916	0.416279766846141	0.899662890288144	0.000640994410363956	-1.10059579876283E-05
3.4	0.00144221815474331	-0.00152839502876211	0.550953343383358	0.824250895301636	0.550868337356043	0.824366132872635	0.00157045720076502	-0.000949172830967004
3.5	0.00122582875936979	-0.00231013850960662	0.672538537960979	0.728688725997937	0.672552764786479	0.728714934583943	0.00184816734758373	-0.00198478665271251
3.6	0.00135302177409594	-0.00259668895699852	0.776757198326465	0.615481469069245	0.77717927608456	0.61508750136128	0.00221432704261228	-0.00285155560376912
3.7	0.00164035089845328	-0.00353988835553078	0.863117485538668	0.486948339200572	0.863124463093891	0.48707485902328	0.00220944683837987	-0.0039972022770602
3.8	0.00131670938373661	-0.00456822004454444	0.92819516809911	0.347024555378493	0.928223528586731	0.347207856316606	0.00164543960796917	-0.00515819055810714
3.9	0.00114123412760612	-0.00579400462707443	0.970999850418385	0.19798939114488	0.970901504213872	0.198577413112493	0.000555435618795885	-0.00641994103074432
4	-0.000543745564418561	-0.00697577561394117	0.989431511011373	0.0453173624805407	0.989513500881354	0.0453603138562379	-0.00117973929941371	-0.00732167560373282
4.1	-0.00176421915089781	-0.00671424206228883	0.984472318595051	-0.108338163615827	0.984410221953233	-0.108274161783261	-0.00270155422431235	-0.00727426739400641
4.2	-0.00284322490273971	-0.00674184070719631	0.955507933647797	-0.260465279808247	0.955701423232292	-0.259896103980667	-0.00411455511138058	-0.00733842479799709
4.3	-0.00374835046814089	-0.0069732488782482	0.903692968520958	-0.405143316439592	0.903693844149253	-0.405124790963717	-0.0057148509110361	-0.00731024404085153
4.4	-0.00482648210412322	-0.00714937374127627	0.829607763062985	-0.540368546515163	0.829527893397087	-0.540352595341164	-0.00738687812163995	-0.00687802116757026
4.5	-0.0064152966987491	-0.00801085202171543	0.735839471488105	-0.662140311679105	0.735716047572394	-0.661994367360517	-0.00926243979256547	-0.0065030493614432
4.6	-0.00899780108237318	-0.00714896948815099	0.624475775621167	-0.768653398951999	0.624461183950131	-0.768424004706518	-0.011264228406105	-0.00501186445401824
4.7	-0.0106333196320042	-0.0061460897787109	0.497287764601848	-0.85646634893214	0.497404861396868	-0.856221695068971	-0.0128115589482577	-0.00352890053957092
4.8	-0.0120772271119893	-0.00456170194470874	0.35792145798302	-0.923057774118667	0.358215192658419	-0.922869336490334	-0.0139060690940894	-0.00156238681677747
4.9	-0.0126291458439178	-0.00315377224398298	0.210386246270677	-0.966848562091221	0.210645998644307	-0.966797590264948	-0.0141990841151107	0.000822620130351231
5	-0.0130739704478075	-0.00163056027640407	0.0584288242798885	-0.988066526693826	0.0585871071246843	-0.987938574462695	-0.0136461157503531	0.00341962639669583
5.1	-0.0122690573506426	-0.000225939343818146	-0.0960338282312244	-0.985236548839375	-0.095712513913375	-0.985173905463704	-0.0119192222160669	0.00590267125890321
5.2	-0.0113221650497313	0.000494861248796122	-0.247892285960904	-0.95816770174998	-0.247464768284947	-0.958290011176055	-0.00993445139066997	0.00789979104938449
5.3	-0.0106773341944935	0.000344706646232213	-0.393495701363418	-0.908103992666108	-0.393206783356583	-0.908448786198887	-0.00745189147377109	0.00947540123756962
5.4	-0.0108522718176211	0.000246767728241909	-0.529845708268031	-0.83628039550534	-0.529709780396206	-0.836570184902647	-0.00494272965682538	0.0103419953182727
5.5	-0.0125031542077771	0.00124751541795763	-0.653858448112458	-0.743529780305154	-0.653808843172132	-0.743843980761428	-0.00307597466879598	0.0110931336280931
5.6	-0.0118988082485417	0.00404236411746769	-0.760775296106133	-0.63242038157168	-0.760788992503451	-0.632590781639005	7.13732080112443E-06	0.0118082628728089
5.7	-0.0109290003970262	0.00517640250299991	-0.849547947697247	-0.506709128935475	-0.84952438561771	-0.506884307812269	0.00273303827737946	0.0114681560217007
5.8	-0.0100841701311457	0.00627955120576421	-0.917763191748628	-0.36858593469863	-0.917808392629701	-0.368878119203218	0.0052271521953382	0.0108011205723187
5.9	-0.00935035797915077	0.00642300789360457	-0.963936686882906	-0.221516646139253	-0.964057205129823	-0.22156442238594	0.00748054429829761	0.00949106816657728
6	-0.0105714919297972	0.00677780231492796	-0.985935586490351	-0.0688427810577418	-0.985932647838691	-0.0689114571130499	0.00832088636947259	0.00788621118757421
6.1	-0.0108647484415766	0.00971653192954987	-0.984412466886023	0.0842947468106403	-0.984415777997284	0.0841914606921071	0.00981002138031607	0.00721783282507242
6.2	-0.00961606471964704	0.0120857932708942	-0.959469127785532	0.236118732105738	-0.959517391904652	0.235937125564717	0.0113413248013782	0.00528376488019793
6.3	-0.00788088224705187	0.013645003714199	-0.911086453237389	0.382239586911336	-0.911110936195058	0.382110977440366	0.0122792213056446	0.00274887564289013
6.4	-0.00573258808765744	0.0142581224253759	-0.840283337247101	0.518931026432408	-0.840274891976345	0.518717578428894	0.012442102747877	-0.000353790610001715
6.5	-0.00412050130934904	0.0139827711321698	-0.749639200655555	0.642241774502964	-0.749739719187821	0.642069673490904	0.0116902863392396	-0.00349997909290685
6.6	-0.00224094951896787	0.0136131172002021	-0.641313814388103	0.751174613643666	-0.64146231649285	0.751028756546556	0.0104807273538856	-0.0061733799143013
6.7	-0.000997615203281386	0.0125350202094392	-0.516627322012408	0.841709122280425	-0.516748578048993	0.841552075156906	0.00837701035657248	-0.00846361555449131
6.8	-0.000126156852247952	0.0117808759448129	-0.37946094965167	0.911401400997792	-0.379672002983147	0.91132658267552	0.00583053922639541	-0.00978169874263013
6.9	0.000500825505560799	0.0109866342403364	-0.233625986960828	0.95881590652202	-0.233876479482068	0.95881226434625	0.00350775925960319	-0.0103241188858594
7	0.00131717727800758	0.0107137941004392	-0.0823913462766478	0.984018522492066	-0.0826495759765813	0.983988516954321	0.00137326720087951	-0.0104344848648571
7.1	0.00247451542579437	0.00990955273320983	0.0719716235621853	0.98477423355885	0.0717650131478055	0.984762345582722	-0.000474362393316945	-0.0102547623254993
7.2	0.00330279017700473	0.00879108124264376	0.223884946036276	0.96123134514167	0.223629857729986	0.961275628240899	-0.00217169510987268	-0.00957688213860932
7.3	0.00350412101478645	0.00748348246337771	0.37010464758051	0.914706666853446	0.369864729997569	0.914797536809418	-0.00369497696236911	-0.00855189163594454
7.4	0.00349438724017774	0.0063400264504913	0.507490372030668	0.846351323648473	0.507272370471681	0.846513273007427	-0.00511032802031079	-0.00727822104225707
7.5	0.00274520351142833	0.00548693550572917	0.633365591441044	0.756970391432132	0.633205882861121	0.757142411313434	-0.00624551133226589	-0.00541532000578454
7.6	0.00300196072673633	0.00535922597301019	0.742560068933571	0.648796074400846	0.742345219851652	0.648957063336072	-0.00608741681333017	-0.00362483468905311
7.7	0.00325044483804471	0.00461478766875803	0.833750766738268	0.525853612739009	0.833600177615115	0.526048405263323	-0.00580511234995342	-0.00217507169858579
7.8	0.00351270279379808	0.00371473816714947	0.905257705769414	0.390117038603443	0.9051372279589	0.390338420699514	-0.00498421737858959	-0.000910252800729232
7.9	0.00318360415805254	0.00231549465545063	0.954813773128062	0.244701246300298	0.954773662026267	0.2449264074433	-0.00397241375859455	-5.73273009957448E-05
8	0.00078782665358353	0.000950067775377074	0.980209525346067	0.0931889020940269	0.98028029027028	0.093480129568465	-0.0039049026093306	0.000426174538623174
8.1	-0.00108554782228108	0.00303481362465727	0.982610098700994	-0.0590855803221689	0.98273408421999	-0.0588151286181748	-0.00302219545931562	0.00227071718552861
8.2	-0.00117989575174878	0.00476407287241138	0.961740829815262	-0.210694089254303	0.961806678909974	-0.210398851354438	-0.00161440590842074	0.00299148403485124
8.3	-0.000941143210445391	0.00638474585913999	0.917288874164236	-0.357439403164084	0.917426257422927	-0.357184067114232	-0.00016342747801742	0.00327525651511066
8.4	0.000411555366455166	0.00748140991345692	0.850246706017623	-0.495317029104868	0.850457975224238	-0.495117858284762	0.00153502998525034	0.00299264325814309
8.5	0.000650158779732789	0.00700999076767604	0.7634278101357	-0.620173576285011	0.763543176498526	-0.62004800980457	0.00246203667818014	0.00161185261987484
8.6	0.000628043257376485	0.00879109165055807	0.658452593983812	-0.7315978477595	0.658649371938902	-0.731412749468396	0.00310621897001519	0.00134193120485503
8.7	0.00229329970656435	0.0102123755759209	0.536647841230611	-0.824910911888831	0.536928876608108	-0.824801747922491	0.00415868996931	0.000365056600622544
8.8	0.00483594865369025	0.0106800913461609	0.402134132564332	-0.897939085813021	0.402339615114026	-0.897884683750968	0.00452038369539319	-0.000910332642535264
8.9	0.00779415161499621	0.0100129085643751	0.258271165408986	-0.949117989181117	0.25851211253624	-0.948977742164191	0.00488827102421976	-0.00190434681797678
9	0.0104827463204123	0.00742868640057558	0.108316966003796	-0.978349803881122	0.108678328785298	-0.97831951680151	0.00527371682538459	-0.0031427068183129
9.1	0.0122805502766397	0.00446716695211202	-0.0454657858606365	-0.983193274708928	-0.0451139757355765	-0.983207532749337	0.00577620475708605	-0.00433177073805536
9.2	0.0130233232032185	0.000391775593661266	-0.197402410268431	-0.963746496107351	-0.19704730709132	-0.963816705146673	0.00604615220069308	-0.00584776537582054
9.3	0.0119168604755768	-0.00312181474094704	-0.344219468366394	-0.9214543564901	-0.343863067437902	-0.921518127014813	0.00586710859844591	-0.00691477708759817
9.4	0.0100366097486671	-0.00613696242178618	-0.482804821406011	-0.85741421425108	-0.482481860860516	-0.857561267436333	0.00573171660674197	-0.00782059964088565
9.5	0.00630725349905529	-0.00685908191954897	-0.610843391425627	-0.77183869370604	-0.61063735856333	-0.77197566759953	0.00477781751920784	-0.00786748742137029
9.6	0.00573026591991565	-0.0062804044515427	-0.722536684163378	-0.667025275114893	-0.722264316567163	-0.667209453820279	0.00528538834008	-0.00786259306524385
9.7	0.00488906496366474	-0.0072070619331107	-0.816895825493398	-0.547167682987986	-0.816649671109579	-0.547436056920688	0.00502774088999355	-0.00880816647737972
9.8	0.0034723342945428	-0.00824419424899336	-0.892003730922942	-0.413982467834117	-0.891794636107847	-0.414256557734007	0.00431208734563181	-0.00926047845472125
9.9	0.00160751607003742	-0.00938050074043166	-0.945658141565331	-0.270271893194682	-0.945545501023683	-0.270600525889402	0.00395355934268983	-0.00962725738373682
10	-0.00287701965695154	-0.0101707161633657	-0.97519897336263	-0.119874584791493	-0.975118653712636	-0.120252154612007	0.00236065583382344	-0.00991053907642605
10.1	-0.00582062749012405	-0.00697840586259266	-0.981872383857943	0.0318964499101844	-0.981851759922331	0.0314197041351505	0.00212857147815503	-0.00871375541975852
10.2	-0.00685186546505025	-0.00493900671304613	-0.965438586664302	0.183819126311937	-0.965422826643252	0.18337019531191	0.00230347094822918	-0.00873007197246441
10.3	-0.00778110472338313	-0.00301680962815784	-0.925180853978001	0.33160406026284	-0.925315002457611	0.331064555237088	0.00209909671753462	-0.00914148026207104
10.4	-0.00810599768962655	-0.00196880043223652	-0.861948398497904	0.470982443532729	-0.862212068546182	0.470447716753566	0.00202704409285254	-0.0100189248395547
10.5	-0.00986162613818035	-0.00147368465623159	-0.778870400722473	0.597738213789604	-0.779151243270914	0.597351805031929	0.00131279163181186	-0.0116670820256306
10.6	-0.0118560966710793	0.000930375737890686	-0.677484734953194	0.711865349048181	-0.677909162887423	0.711521099917141	2.03609565539358E-05	-0.0125492545307166
10.7	-0.0127233976096586	0.00452822837175346	-0.558785906122263	0.808621877589127	-0.559195987355201	0.808333292140238	-0.00113529371523844	-0.0129758423829392
10.8	-0.0118203153459538	0.00805513481125519	-0.426449762512211	0.885384873594876	-0.426958690306589	0.885155129264747	-0.00199132074390879	-0.0132327916152605
10.9	-0.00996642661357995	0.0111776613838508	-0.284411527480035	0.940559259407295	-0.284898302587219	0.940507078164009	-0.0029878451944247	-0.0136168893013399
11	-0.00747684600946236	0.0133861733026099	-0.135543021975831	0.974454434632107	-0.136088990150677	0.974448719527703	-0.00400589141132317	-0.0139208147878815
11.1	-0.0039079386225178	0.015164328051697	0.018423643966213	0.983705982985668	0.0177946029790563	0.983787913329665	-0.00478147384050708	-0.0142489195030482
11.2	-8.18004282732547E-05	0.0153368456702276	0.170751469890058	0.968599980817146	0.170232372595093	0.968802152559687	-0.00568926556267984	-0.0146300302420806
11.3	0.00361008792324316	0.0146517239963895	0.318621829015563	0.930499747923744	0.318192134865532	0.930761437533661	-0.00644713575803971	-0.0146817169264086
11.4	0.00673044261025623	0.012442135100283	0.459305466222567	0.870506463955086	0.458840735671984	0.870765600991838	-0.00725149231246774	-0.0147181564348976
11.5	0.00790853750172364	0.0110206152924062	0.59006587282679	0.788187026641375	0.589707488135461	0.788605260425871	-0.00894972291356054	-0.014055712839417
11.6	0.0109210576089807	0.00988434491484745	0.704374322642565	0.686351203566617	0.704107574067327	0.686831591633857	-0.00932618456338292	-0.0129381549256578
11.7	0.0136167871931163	0.00709714258573548	0.802172462986107	0.569146674709781	0.801933280032159	0.569568625161341	-0.0100141313668401	-0.0124449985110841
11.8	0.0152277781225834	0.00322641912967249	0.881084266389454	0.437815522747865	0.880899918853829	0.438368003051098	-0.0109255108247762	-0.0116983613978767
11.9	0.0159388472998043	-0.00159368750579668	0.938782066732988	0.295401675742957	0.938744051669465	0.295946329996425	-0.0115709038326228	-0.0108363191309762
12	0.0118626837230034	-0.00637559522509287	0.972203114596261	0.145696946715435	0.97219138957775	0.146176568072045	-0.0136112991719136	-0.0100245282580589
12.1	0.00886525323162469	-0.00702496940399645	0.983091066820276	-0.00596302651343883	0.983066434417087	-0.00548992359035704	-0.0139828914882826	-0.00770780477455791
12.2	0.00627415737701648	-0.00799097259670127	0.970639157263559	-0.158685007318055	0.970746014211928	-0.158247431286314	-0.014171979636604	-0.00603206726449295
12.3	0.00373299956440585	-0.00804546454241567	0.934066652505307	-0.307632306054806	0.934252705481495	-0.307273936401097	-0.0141208169108919	-0.00425282750677651
12.4	0.00167198014600684	-0.0080491062989673	0.87452954486316	-0.448821498039752	0.874662738450788	-0.448446544157428	-0.0134358283124509	-0.00267628623000688
12.5	-0.00126536364405613	-0.00847831963444982	0.794599565786595	-0.57783583067817	0.79505782020598	-0.577443078127368	-0.0131553573283493	-0.00201857774698419
12.6	-0.00414795070965874	-0.00620365485178432	0.696156708714786	-0.694864798592757	0.696503642731076	-0.694554730086085	-0.0126561598639424	-0.000497939156584769
