# GHZ S RI R 50
0.2	-0.000184361689632067	-0.000177144040537555	0.949746705105416	-0.307724455743599	0.94952038380903	-0.307866529418903	5.23384687744497E-05	-0.000104701492248736
0.3	-0.000465635830243403	9.07972370128803E-05	0.88999489300059	-0.45150849374155	0.88985738638341	-0.451561807937239	-0.000177540323657562	-0.000327255011453493
0.4	-0.000443633425594023	0.000322327736320156	0.808689371226187	-0.584020648350888	0.808729583511814	-0.58416036882864	-0.000210111439445458	-0.000340074311407701
0.5	-0.000527372691787205	0.000768119148089225	0.707911220990868	-0.702725300008811	0.707800529878832	-0.702821295216681	-9.24317585110183E-05	-0.000197058386157686
0.6	-0.000330063034785809	0.000805333543402246	0.589792656211732	-0.803901451255197	0.589602913510229	-0.803904402707225	9.32619216660884E-05	-0.000546912454838342
0.7	-0.000425119026309674	0.00116869701188476	0.457662804604135	-0.885434094860905	0.457588709105395	-0.885468528358633	-1.0858337873659E-05	-0.000932191565959682
0.8	-0.000220992910434105	0.00128860396199724	0.314482068865347	-0.945727709486924	0.31436338458042	-0.945640917617934	-0.00028551692218743	-0.00119983877572846
0.9	-0.000176607934657874	0.00165223871250294	0.163605509053855	-0.98293025849207	0.163456341172649	-0.982887364172589	-0.000857516566328986	-0.00146225923199104
1	0.000122460849756258	0.00203653575588902	0.00878097156149255	-0.995910159082416	0.00866279779771663	-0.995880443684263	-0.00140921143690163	-0.00107166532940333
1.1	0.000966949700095195	0.00178096870109367	-0.145112256590115	-0.985125672254886	-0.145760341070517	-0.985090573591292	-0.00131714115771816	-0.000966998630041934
1.2	0.00131995788770019	0.000348132963059465	-0.297153061234455	-0.950449829838713	-0.297146084883725	-0.950505564514801	-0.00121812484937131	-0.00113407935894916
1.3	0.0013588516956259	-0.00156079592348006	-0.441120485659496	-0.89252970697965	-0.441212682905703	-0.892554180745614	-0.000311251224555637	-0.000951105603010195
1.4	0.000983978096903167	-0.00355341893811497	-0.574128256638115	-0.813002884446543	-0.574202090931852	-0.812903202409913	0.000912493889985913	-0.00149009871514897
1.5	0.00088925750805379	-0.00426298591716055	-0.69323708935597	-0.713891960235799	-0.693261704939715	-0.713819848600609	0.00237864093440459	-0.00255223234286391
1.6	0.000167797485778238	-0.00452752728583608	-0.795499961962496	-0.59797416386331	-0.795929855725922	-0.597472926025285	0.00152773015726003	-0.00400981426638311
1.7	6.23420793526854E-06	-0.00384167673329339	-0.878588949699603	-0.466861988639863	-0.878893413350592	-0.466371351699653	0.000425754352000334	-0.00413267296844389
1.8	-0.000110520519267684	-0.00351951594717349	-0.940401070793567	-0.324186946202456	-0.940416532199372	-0.324177460623162	-0.000686214184863278	-0.00417446554537148
1.9	-0.000128417578705521	-0.00305148713591473	-0.979245615770005	-0.174137174901179	-0.979290214042884	-0.17418995091456	-0.00159699041492525	-0.00371546235593054
2	0.000218250133891533	-0.00309647342894724	-0.994412115988591	-0.0204575460557767	-0.994506463552242	-0.0198070110834433	-0.00163643311786416	-0.00319857132577609
2.1	-0.000386700925675358	-0.00365617876892135	-0.985100543419476	0.135816163342885	-0.985200926946875	0.135331433676767	-0.0022416426198113	-0.00367839791911856
2.2	-0.00137208578461197	-0.00359871815454562	-0.951897587498877	0.286399665711253	-0.951936196053571	0.286533641939392	-0.00327160332616095	-0.00344348968140297
2.3	-0.00210805555224174	-0.00327392340762129	-0.895717168353446	0.430623687022189	-0.895553003356505	0.430711965210359	-0.00418586426940171	-0.00295887756045947
2.4	-0.0030487098746598	-0.0028421008134444	-0.817348030676889	0.565063140600136	-0.817640591296162	0.564601222971285	-0.00503404913520108	-0.00215394298602933
2.5	-0.00329025192847372	-0.00197021239421103	-0.719462588177251	0.685212758806752	-0.719766108759717	0.684832421703634	-0.0046340281013122	-0.00112454049645798
2.6	-0.00384208494357156	-0.00192995090819321	-0.604388208201973	0.787819565561283	-0.604309071709278	0.787759947464691	-0.00400711859134662	-0.00139603441210411
2.7	-0.00433359036351338	-0.00122143804893107	-0.474622556302832	0.871766065499185	-0.474593033625649	0.871780092040833	-0.00414973415226842	-0.00160792916170879
2.8	-0.00443243547121768	-0.000503469133614538	-0.333597283110674	0.934680530475855	-0.333478841277219	0.934764760883542	-0.00422152101203108	-0.00146031009105244
2.9	-0.00364591268351961	0.000172676196425548	-0.184199321257485	0.97487416485151	-0.184194715949657	0.974928950812688	-0.00391538113469174	-0.000811564405036849
3	-0.00274510433879181	0.00033776300854052	-0.0303125662628581	0.990969119520421	-0.0303766471712496	0.991040713683873	-0.00292969770378324	-0.000380068252522037
3.1	-0.00177012654782706	0.000483767271228208	0.12267941418419	0.983541699482215	0.123327327209319	0.98362125876617	-0.0021971083472052	-8.30450563072855E-05
3.2	-0.000913183235214912	0.000225569715943036	0.274442912160622	0.952303290028964	0.274433061578814	0.952342884186947	-0.00145464213362611	7.57272125242327E-05
3.3	9.70672246895085E-05	-0.000253941609574308	0.419587131588913	0.897628096388189	0.418965694457941	0.897911042945456	-0.000404703589373442	4.84077779519082E-05
3.4	0.00069280660202223	-0.000901772600481591	0.553092097406783	0.821590658808773	0.553007557608069	0.821706056668542	0.000823125619347652	-0.000317391533375774
3.5	0.00149720487308599	-0.00192932491012169	0.673295885675007	0.726002038391629	0.673310154414514	0.726028174243601	0.00212125099239637	-0.001600938297908
3.6	0.00110191010562514	-0.00288141483553763	0.777576530814636	0.613165926966765	0.777997345875744	0.612771285994574	0.00196249382840775	-0.00313559759470607
3.7	0.00109586806749078	-0.00353402576481781	0.863577785980236	0.484196782873903	0.863585091667594	0.484323162802272	0.00166352453492498	-0.00398776477981704
3.8	0.000706793459444894	-0.00429077287408269	0.927895894512516	0.344134356820895	0.927924699387443	0.344317344206763	0.00103463419978014	-0.00487617212459866
3.9	0.000529322010344197	-0.00494474877222717	0.969909544544663	0.195538988808796	0.9698126483817	0.19612630302267	-5.55088012249196E-05	-0.00556570576492389
4	0.000193015190453505	-0.00575822082958159	0.988718287873798	0.0433773736768068	0.988800294042592	0.0434201325870155	-0.000445808178917507	-0.00610204467166092
4.1	-0.000963518864682542	-0.00686977627050512	0.983167330274017	-0.111002875833715	0.983105477074067	-0.110938763971221	-0.00190610609960654	-0.00742169995290809
4.2	-0.00264756843400409	-0.00709619020560282	0.953254476496314	-0.262695580865579	0.953449233173098	-0.262127853608472	-0.0039222543243948	-0.00768391769351086
4.3	-0.0039517340654802	-0.00726288848241114	0.901021593968398	-0.406644181182521	0.901022514048707	-0.406625691997213	-0.00591779321204864	-0.00758941838287654
4.4	-0.00555304180442534	-0.00702920056677473	0.827035297084734	-0.54136678754009	0.826955593456589	-0.541350681578571	-0.00811144043336644	-0.00675063730737629
4.5	-0.00650351178777167	-0.00672343856694428	0.732598670765122	-0.663438445306241	0.732475900834379	-0.663292337541877	-0.00935302055162668	-0.0052123867953429
4.6	-0.00819226889490342	-0.00666397574069287	0.620426745768047	-0.768409071195138	0.620412886753166	-0.768180268227294	-0.0104570829763232	-0.00451915938391094
4.7	-0.00999682348066791	-0.00614624931719792	0.493695562281084	-0.855114271635458	0.49381290726804	-0.854870639236287	-0.0121731687032745	-0.00352088656807109
4.8	-0.0116324523466996	-0.00479868383106342	0.354799894779921	-0.921091154003944	0.355093169239866	-0.92090393274521	-0.0134600673771174	-0.00179472165358387
4.9	-0.0123919736097016	-0.00343689236485082	0.207371723671863	-0.964424086983722	0.207630811056032	-0.964373908156286	-0.013957278212339	0.000546264387935071
5	-0.0126717657509007	-0.00212684952978615	0.055712156531036	-0.98396412863437	0.0558700781007103	-0.983837121485796	-0.0132365463547397	0.00292713617655226
5.1	-0.0125689383148492	-0.00107706907394725	-0.0967650305385312	-0.980779621592139	-0.0964450596349146	-0.98071763100752	-0.0122154791335513	0.00504507614210897
5.2	-0.0121669381435657	0.000104412115641396	-0.247728001006443	-0.954020842421162	-0.247302343990845	-0.954143030581948	-0.0107775586926743	0.00749747584568608
5.3	-0.0116449241001847	0.00071610288210733	-0.392606373299294	-0.903995127141333	-0.392318943981955	-0.904338722723077	-0.00842170050487693	0.00982506038938654
5.4	-0.0111255565520033	0.00165726066944512	-0.527878728035384	-0.831997821751667	-0.527743625962519	-0.832286330624449	-0.00523665180045647	0.0117202993216967
5.5	-0.0106549160540186	0.00173796845986648	-0.64996936632236	-0.740368966392227	-0.649919744615006	-0.740681556900534	-0.00127836662139929	0.0115622791615545
5.6	-0.011317725098333	0.00289223282329302	-0.757150084009026	-0.630808909784311	-0.757163541870931	-0.630978667131703	0.000540597620877877	0.0106541014585526
5.7	-0.0112362915032109	0.00435918811659476	-0.845855841709392	-0.505575067127144	-0.845832206584503	-0.505749559671559	0.00236943533881108	0.0106476397665675
5.8	-0.0108404549474685	0.00592905288318861	-0.913697928910234	-0.368183216770944	-0.913742613381902	-0.368474294556305	0.00440817751895299	0.0104562363565107
5.9	-0.010331069372492	0.00719849020640262	-0.959618802303442	-0.222476097827602	-0.959738742156938	-0.222523912894475	0.00642412861377286	0.0102876557422337
6	-0.00930884393069517	0.00821072138626863	-0.983101595623038	-0.071085997413032	-0.98309849582027	-0.0711544804924144	0.00951992449256815	0.00936422311218467
6.1	-0.00962206134943974	0.00896945700286016	-0.98192397885079	0.0825888410760131	-0.981927125691357	0.082485824555884	0.0109914997850209	0.00652034111072929
6.2	-0.00937359340391233	0.0110350026266326	-0.956973716057352	0.233751574573042	-0.957021521281368	0.233570434326828	0.0115239692326386	0.00430398649828006
6.3	-0.00829328591617826	0.0127210213717659	-0.909250160126536	0.379123412435501	-0.909274289622304	0.378995126759271	0.0118300937995651	0.0019183227701486
6.4	-0.00660951830406574	0.0138227903834022	-0.83971275456861	0.51562658914938	-0.839703785413688	0.515413642804227	0.0115654219867702	-0.00069330024841467
6.5	-0.0048287356416047	0.0139268720696698	-0.749174634676937	0.640016769648291	-0.749274727991177	0.639844841254827	0.0109867146085425	-0.00349257554492632
6.6	-0.00312719722346992	0.0138138680881991	-0.640677287325376	0.747881581091944	-0.640825106467496	0.747735906197268	0.0096057429916854	-0.00589150394282213
6.7	-0.00157079284867645	0.0132189187714325	-0.517181946342124	0.83810063957587	-0.517302485083431	0.837943745579339	0.00784195895587258	-0.00770526087048187
6.8	-0.000182420223595458	0.012542254748314	-0.38095832359066	0.90823795038611	-0.381168678724155	0.908162754338037	0.00582421796217594	-0.00896755036281527
6.9	0.000952905557395411	0.0115636729059996	-0.235288690043903	0.956343633601191	-0.235538664677738	0.956339440281464	0.00398969318495386	-0.00968908885221046
7	0.00196371084813021	0.0104957552287647	-0.0842143447270256	0.980658613983858	-0.0844716748760117	0.980628157247013	0.00205471310402141	-0.0105689864846397
7.1	0.00252206535793707	0.00954100785395861	0.0682316531799591	0.982132453648107	0.0680256937462296	0.98211986047777	-0.000355044881325055	-0.0105630363505335
7.2	0.00319112896970543	0.0085639651880755	0.219769875278512	0.959936679256035	0.219515187495793	0.959979903945314	-0.0022128314191507	-0.00977135623671967
7.3	0.00330396841584507	0.00735650668819168	0.366034123064751	0.914267496292708	0.365794343360292	0.914357310748195	-0.00383567110270744	-0.00865977339832723
7.4	0.00332334023907844	0.00643657223322797	0.503200430535805	0.846242349628834	0.502982342379292	0.846403121215055	-0.00521503210598645	-0.00715417112649331
7.5	0.00312860241836615	0.00535588709194544	0.627886261957763	0.758569249843181	0.627726012675628	0.75874002459984	-0.0057928708553498	-0.00554524394686705
7.6	0.00275915488789504	0.00466325851555385	0.73861209963382	0.652350553816715	0.73839652765201	0.652510290004557	-0.00628530929432847	-0.00434233008213809
7.7	0.00242228644713047	0.00422064301935083	0.830935765563528	0.529779113337439	0.830784267381795	0.529973112528451	-0.00659350473104654	-0.00258667292136265
7.8	0.00230380651869149	0.00392410806813709	0.903129377312917	0.394477554204657	0.90300783895632	0.394698292531381	-0.00615967277078656	-0.000726334432879315
7.9	0.00190639447219382	0.00377911094894139	0.953429413440917	0.250041312876662	0.953388042791362	0.25026624603469	-0.00511547289858885	0.00141141808558414
8	0.0022521517714235	0.00334829435652747	0.981555435893823	0.0991123592334591	0.981624630946949	0.0994045634755042	-0.00253384439894944	0.00285147773408198
8.1	0.000895690434834192	0.00299814061304767	0.985021302774441	-0.0548930200403316	0.985144370190551	-0.0546214308711522	-0.00103302843142528	0.0022312524462568
8.2	-1.27202815281318E-06	0.00379381053209762	0.964561550268506	-0.207004728976637	0.964626269128361	-0.206708620165102	-0.000428307922226683	0.00202873571248787
8.3	-0.000675065987657436	0.00499770175702632	0.920979165694126	-0.354196480512224	0.921115733267886	-0.353939949385676	0.000120116808689589	0.00190021807663193
8.4	-0.000670264627474189	0.00652317870113649	0.855248436396808	-0.493202254880431	0.855459525490023	-0.493001491846734	0.000476207978297936	0.00202986559306074
8.5	0.000352997410551489	0.00800597979781481	0.767953814553551	-0.620613772323216	0.768069304809953	-0.620487427289581	0.00215785892330624	0.00259269345090152
8.6	0.00132795650647504	0.00834334840088369	0.662014970778581	-0.731853316726862	0.662211797329449	-0.731667239361238	0.00381999888544923	0.000912794593039696
8.7	0.0022194004543988	0.00916038851763198	0.540556182740108	-0.825700230782221	0.540837700036484	-0.825589944356446	0.00412318084793859	-0.000684210484827723
8.8	0.0040104258406908	0.00957947615028798	0.405935870747168	-0.899862070704767	0.406141895970242	-0.899806925184051	0.00373689900341558	-0.00202856050745595
8.9	0.00608496866830155	0.00933274693534861	0.260938552768328	-0.952191512309555	0.261180146018048	-0.952050309799153	0.003202918538143	-0.00262210901472251
9	0.0087716947126365	0.00786156072456305	0.109867068594716	-0.980366335054141	0.110229189208258	-0.980335496917061	0.00357038784408392	-0.00272241912890822
9.1	0.0106353294789257	0.0053191883224528	-0.0430108272252875	-0.985865899108484	-0.0426580660514508	-0.985879273472366	0.00414856984408916	-0.00350960803909725
9.2	0.0118715645313106	0.00213747421293404	-0.195788903202597	-0.967459319434869	-0.195432437980319	-0.967528925420428	0.00488947163496955	-0.00413229442178455
9.3	0.0118819470094743	-0.0010036198954106	-0.343811714399796	-0.925332882664895	-0.343453935976494	-0.925396249266866	0.00581839181291394	-0.00480897514511709
9.4	0.0112731398182497	-0.00389702774171976	-0.483062556537019	-0.860531331618568	-0.482738467995668	-0.860678381261648	0.00694529950640599	-0.00556539599651743
9.5	0.00973060587007838	-0.00676949031509024	-0.610298789073888	-0.775718295676461	-0.61009179559035	-0.775855052457886	0.00819028647013097	-0.00774958880197251
9.6	0.00699365649981158	-0.00841746125800431	-0.724079731232155	-0.67175792499384	-0.72380570504661	-0.671942244106924	0.00654889976779587	-0.00997543729682539
9.7	0.00469622604343733	-0.00897910852882326	-0.819718201535155	-0.550994972404508	-0.819470487547744	-0.551264164978228	0.00484992553477767	-0.0105542062662568
9.8	0.00241146167938221	-0.0094470969737826	-0.895325895567641	-0.416994302009097	-0.895115518779021	-0.41726930176914	0.0032792008778544	-0.0104429404438159
9.9	-6.01342778805017E-05	-0.00907742106355034	-0.949272354850056	-0.273223110175781	-0.949158607222563	-0.273552963854032	0.00229924119658279	-0.00932473756935964
10	-0.00199231429521465	-0.00906338345554527	-0.981196733540208	-0.122355722032905	-0.981115237483249	-0.122735554161631	0.00326366124334363	-0.00878180019727982
10.1	-0.00537797821032502	-0.00814932876027304	-0.987990681569364	0.0322991002175454	-0.987970027837068	0.0318193762578122	0.00261681789665504	-0.00987267490153404
10.2	-0.00767432966309164	-0.00604084913150457	-0.970833403946601	0.185434788975951	-0.970817818160491	0.184983289815797	0.00153871014884579	-0.00984088117407952
10.3	-0.0093414137970174	-0.00355717071013899	-0.930248286506727	0.334119147860828	-0.9303835630501	0.333576648191966	0.000603268390223093	-0.00971730435327723
10.4	-0.0102410576490257	-0.00135176482597792	-0.867129078586769	0.474902224750206	-0.867394993829961	0.474364256284622	-4.09058848821844E-05	-0.00947745735125678
10.5	-0.0106219035209972	0.00074155255653855	-0.782020489632019	0.604368729084969	-0.782304517201127	0.603980704061364	0.000572964547220858	-0.00957948813148241
10.6	-0.0112553356800787	0.00234512517891358	-0.67817315118987	0.717729639755574	-0.678600860381805	0.717385267075679	0.000613729487020062	-0.0112570765153674
10.7	-0.0117938789605927	0.00505507740463298	-0.5586160575615	0.814175311918475	-0.559028972602763	0.813886789125258	-0.000236170723991587	-0.0125957303699638
10.8	-0.0112154483704771	0.00789171259060718	-0.425210729709922	0.891038359664802	-0.425722851199933	0.890809399012914	-0.00147826758004452	-0.0135518415038351
10.9	-0.00980993002224413	0.010859985085402	-0.281216603683526	0.946159876044111	-0.281705824762562	0.946109777363907	-0.00291126992330724	-0.0140400588038001
11	-0.0073128982003032	0.0128313401197975	-0.13081385065419	0.977335567144596	-0.131361070159507	0.977332658966634	-0.00396420850284802	-0.0145131664704588
11.1	-0.0044055572427748	0.0146432379758807	0.0221020871453032	0.985883151267919	0.0214719133624612	0.985967593871512	-0.00538075169240246	-0.0147986784797661
11.2	-0.000785123585603536	0.0152383983179554	0.175005512104735	0.970518435214073	0.174485820572006	0.970723182425179	-0.00651585426115291	-0.0147562913088574
11.3	0.00290837209216294	0.0149950814055399	0.32357534368141	0.931315460258603	0.3231457878835	0.931579714119718	-0.00734077400581313	-0.0142752407293846
11.4	0.00642353773741313	0.0136757223412907	0.464038760097792	0.869361294222935	0.4635747077244	0.869622975120103	-0.00774917825053408	-0.0133587305154008
11.5	0.00944198237221384	0.011459487631548	0.592801704629254	0.787164448981907	0.592444211732882	0.787584051757952	-0.00749548437950479	-0.0135503006958122
11.6	0.0112322267320345	0.00894890578002261	0.708271279299219	0.685590148607669	0.708005512441491	0.686072526034842	-0.00911198450864779	-0.0138210312725236
11.7	0.0131263776415069	0.00654453827022418	0.806124962307171	0.566974665355724	0.805887042203951	0.567398446479671	-0.010592922587686	-0.0129166752380192
11.8	0.0142644194550981	0.00321154699237471	0.88411640571656	0.434629246016784	0.883934175046148	0.435183242393656	-0.0119435323459853	-0.0116192721343325
11.9	0.0150346938872804	-7.14131706691057E-05	0.940650370442804	0.292448914293518	0.94061418988695	0.292994194810005	-0.0125495399483179	-0.00922767225910923
12	0.014021022132034	-0.00426939828845038	0.975381706573769	0.142796498205218	0.975371578476371	0.143277483358109	-0.0115207351228848	-0.0078328559644152
12.1	0.0110828564214771	-0.00774057301578269	0.985170257537774	-0.0111064166156589	0.985148041314566	-0.0106321695413432	-0.0118416874950338	-0.00826591490603488
12.2	0.00740058113731544	-0.00952485588301724	0.970961696273238	-0.164002427982062	0.971070992637869	-0.163564893118736	-0.0130711464860341	-0.00741804978337009
12.3	0.00379178194742667	-0.00988630335025256	0.933346852214827	-0.312568895048811	0.933534858726943	-0.312211141465117	-0.0140586839235316	-0.00595998433547059
12.4	0.000299620394371309	-0.00924667070469617	0.873635071789528	-0.453821554073938	0.873770319525719	-0.453446690995653	-0.0147869127336843	-0.00376580110354678
12.5	-0.00177799501246291	-0.00778980955340349	0.791418252200886	-0.584308019618136	0.791879922469063	-0.583918088063598	-0.0136471890957163	-0.00122480637134675
