# GHZ S RI R 50
0.2	0.00026876770900623	-0.0011046781787451	0.953572787117047	-0.306725514563393	0.953346013557019	-0.306868545194214	0.000500086784533059	-0.00102530605540092
0.3	-0.000643079045251077	-0.000980966257772022	0.894930703119799	-0.451015896197107	0.894792763429797	-0.451069801883663	-0.000359785414920551	-0.00138577218566941
0.4	-0.00151832594279623	-0.000416111036263576	0.814828133314456	-0.584774783766601	0.814868981706614	-0.58491514290714	-0.00128607042818064	-0.00106031823636333
0.5	-0.00131019049519934	0.00167491270521439	0.713981394375424	-0.706070116938101	0.713870146742699	-0.706166964531448	-0.000873671437203377	0.000726562073323693
0.6	0.000107707640972106	0.000765411050959518	0.594731955135882	-0.807900933089358	0.594541047539771	-0.807904210279853	0.000526297073425276	-0.000564899146492065
0.7	-0.000587972944150832	0.000512262741698791	0.462468518734982	-0.890576117241539	0.462393985574176	-0.890610926517077	-0.00017508533347955	-0.00155825879935359
0.8	-0.00098480667457889	0.000413416205894167	0.318420572814255	-0.952502444383458	0.318300835761038	-0.952415174833577	-0.00104417223561743	-0.00203554138984648
0.9	-0.00246065773249605	0.00063663565746033	0.165526273433062	-0.991097430034261	0.16537582853138	-0.991054258117742	-0.00311931756982032	-0.00243404042553521
1	-0.0034291033573556	0.00482881451520436	0.00853966391881941	-1.00311312494183	0.00842064494423433	-1.00308315807847	-0.00492139765532279	0.00174391705409216
1.1	0.00170000665236062	0.00474144340718081	-0.145310760770055	-0.992946935197453	-0.145963932760621	-0.992912176882608	-0.000574327920579538	0.00196667534447408
1.2	0.00256881364948985	0.00144265158575511	-0.299491161561377	-0.959017693222097	-0.299484104642303	-0.959073922669185	3.15735086005902E-05	-9.42428310300671E-05
1.3	0.00302256796292245	-0.00199576829364606	-0.445779190215803	-0.900524262722235	-0.445872258009074	-0.900548904869411	0.00129729200107697	-0.00142296158663062
1.4	0.00242133316830039	-0.00519855636689998	-0.580288821939455	-0.819310106773777	-0.580363162557859	-0.819209449361653	0.00224426785412086	-0.00311168226751935
1.5	0.00436290227377878	-0.00768666697189505	-0.699211888999123	-0.720108365065214	-0.699236721155547	-0.720035629667129	0.0057500766914541	-0.00591543050103957
1.6	-0.000490199233738869	-0.0111419241467882	-0.804794786022729	-0.603936943242297	-0.805229024670993	-0.603429804997131	0.000773553836798486	-0.0104277961578588
1.7	-0.00336703646968007	-0.00788199426024131	-0.889648292395046	-0.469897684702159	-0.889954943371512	-0.469400761430593	-0.00298002668821672	-0.00797809274776843
1.8	-0.00429326503575201	-0.0052431559093811	-0.951776279903729	-0.32451977368815	-0.9517918777909	-0.324510131770164	-0.00485015679951494	-0.00572533215742299
1.9	-0.00437045010140548	-0.00126144067846152	-0.990375315165989	-0.172773623638004	-0.990420568727846	-0.172826820866213	-0.00578922730794713	-0.00178680352892345
2	0.00206497236021692	0.000449654529162503	-1.00757425185476	-0.0170060643210624	-1.00766740692915	-0.0163466159205139	0.000243855586018919	0.000443553120177262
2.1	0.000988234006704284	-0.00554285990448918	-0.996780471001259	0.144537584735195	-0.996885576734229	0.144047345604833	-0.000861882596547176	-0.005447267303827
2.2	-0.0025304223711716	-0.00524515103916154	-0.960711386160745	0.297293073869755	-0.960749380726612	0.297428917235694	-0.00439808122249879	-0.00495209318175893
2.3	-0.00444258201655048	-0.00386738298680496	-0.902290453674527	0.443015993113257	-0.902123684093318	0.443103900057202	-0.00644974879972012	-0.00342269721223462
2.4	-0.00660555833884259	-0.00116303601367286	-0.822073381565601	0.579358392421391	-0.822373697256621	0.578893559782331	-0.0084842054424937	-0.000396850365195996
2.5	-0.00278258834034295	0.00389309090448564	-0.719412983667982	0.702724796380594	-0.719725050290243	0.702343734129342	-0.00404283678435133	0.00471089981601365
2.6	0.000359915493288458	-0.000562581075644029	-0.599104789912553	0.80283471509776	-0.59902576070539	0.802773512323779	0.000219663824311969	-5.67223928954066E-05
2.7	-0.00121748013688624	-0.00264600516325665	-0.467057644547639	0.885128021960453	-0.467027696256078	0.885141775600658	-0.00104661079317653	-0.00303478217024312
2.8	-0.00309461849765636	-0.00312741640488024	-0.323273233421106	0.946789233613261	-0.32315267404097	0.946872491233926	-0.00291501662043662	-0.00406724989945117
2.9	-0.00356150874127542	-0.00216241249018602	-0.170100693647783	0.98500060497111	-0.170095185464218	0.985055722859278	-0.00390979054552806	-0.0030339819831797
3	-0.00288142139651801	-0.00268808427308706	-0.0135133398996569	0.9947720516104	-0.0135764123434893	0.994844976009955	-0.0031371779546556	-0.0032415252677086
3.1	-0.00441543373626798	-0.00206700827740296	0.137294076754894	0.984540626368386	0.137944974364443	0.984611011254535	-0.00488634690755577	-0.00259503244298779
3.2	-0.00395897932321233	-0.000478215355687413	0.289695794755469	0.95107001496785	0.289686513157211	0.95110987960052	-0.00449982524240712	-0.000444175395763983
3.3	-0.00267914807250734	0.00036261001931799	0.434944098345658	0.892661154962074	0.434325978042158	0.892954718063845	-0.0031483747381677	0.000839061310640425
3.4	-0.000880331578237086	0.00139614351703913	0.566538397699383	0.812028775944414	0.566455815801984	0.812145532420923	-0.000711552181596843	0.00212549066583017
3.5	0.00320791647521915	-0.00140575037627556	0.681793777999771	0.715606588205587	0.681808371365151	0.715632483588645	0.00384200288958937	-0.000947119630357358
3.6	4.65601996740361E-05	-0.00462294495625493	0.7864708008522	0.602413968801434	0.786886195036389	0.602013269708276	0.000914046809270185	-0.00472545527209486
3.7	-0.0012582605418419	-0.00388077347136137	0.870329509911667	0.470440928143546	0.870338762556962	0.47056708819757	-0.000657677110409321	-0.00416853897273969
3.8	-0.00204193915766957	-0.00327287708142413	0.930890801416757	0.328931133228363	0.930922362363196	0.329113217105868	-0.00165505687401806	-0.00370775029343365
3.9	-0.00196410120897436	-0.00132405908495012	0.96913253831777	0.181285004829003	0.969044195645016	0.181871548114429	-0.00247605438315016	-0.00183095471049155
4	0.00315535085679412	-0.00113901036474706	0.988320471179218	0.029851763632759	0.988402978348214	0.0298933614806051	0.00252985770690474	-0.00142536724804898
4.1	0.00202882606402918	-0.00709470570594277	0.978747375663726	-0.127415822969235	0.978686770885379	-0.127350825840816	0.00103481218224744	-0.00753562992960361
4.2	-0.00135671777494635	-0.00803089492072352	0.944103546956603	-0.277387569422543	0.944306863132186	-0.276825935020538	-0.00267203062904098	-0.00846793523594244
4.3	-0.0038774130159887	-0.0084218715677263	0.889053733296802	-0.418586823887379	0.889054943461622	-0.41856846153465	-0.00585775979483657	-0.00857023596664475
4.4	-0.00738998399291636	-0.00691134104838312	0.813887060933042	-0.551238677892684	0.813808060306064	-0.551221416403307	-0.00992648590408975	-0.00647091482926955
4.5	-0.00584730508389781	-0.00285220335847706	0.71520950819964	-0.673318310426562	0.715090323652483	-0.673170768074529	-0.00868478474597037	-0.00123948870252442
4.6	-0.00484091353259062	-0.00604027186734508	0.59930356935707	-0.771057895690975	0.599294060697264	-0.770831435469048	-0.00715162032907109	-0.00377691486694356
4.7	-0.00742164013939289	-0.00719767392266054	0.473558484044839	-0.852467662213641	0.473678336608673	-0.852228994947045	-0.00967316689868825	-0.00441040681958528
4.8	-0.00987532771196022	-0.00679072946594129	0.335798944362545	-0.914615916713466	0.336091315860594	-0.914435713705102	-0.0117798329350809	-0.0035933599814338
4.9	-0.0115689481599043	-0.00555973787796179	0.188631277789263	-0.954343549957677	0.188887566258772	-0.954298328302202	-0.0131743720746335	-0.00133711469601995
5	-0.0114536097886408	-0.00503477809522341	0.0388949571389355	-0.965982868211579	0.0390518824613254	-0.965860824719457	-0.0120292296172783	0.000265450869451227
5.1	-0.0143973667361283	-0.00474968663801573	-0.105709472964429	-0.960529172706704	-0.105395074841084	-0.960471929946453	-0.0140098363062872	0.00161903333143032
5.2	-0.015759586563596	-0.00144851915334175	-0.25269211374408	-0.933430478925856	-0.252275761614145	-0.933554660952206	-0.0142544736370934	0.00614976426039318
5.3	-0.0153650375211374	0.00191766084095702	-0.393579658036536	-0.882251980813459	-0.393301262781903	-0.882591545101958	-0.0119832908935535	0.0111054265162135
5.4	-0.0122303195216446	0.00623427217140899	-0.523153279487024	-0.808905491490172	-0.523023652174386	-0.809188698958718	-0.00627496266950587	0.0162207293723774
5.5	-0.00503879221285301	0.00225648491009912	-0.637018385830427	-0.721473184004883	-0.636970777062665	-0.721778695683246	0.00416879515301161	0.0119951810229647
5.6	-0.0112654883959538	-0.00114741268990775	-0.743834751952403	-0.616644532698116	-0.743848352781463	-0.616810933859737	0.000382902455771726	0.00666779096786484
5.7	-0.014084431070554	0.0024946527488413	-0.830182243820443	-0.493212044125261	-0.830159538724866	-0.493383092845701	-0.000698926541789389	0.00883154680751485
5.8	-0.0146858999201564	0.00658098201307923	-0.89485803892704	-0.359190151730218	-0.894902162321312	-0.359475013879066	0.000321696284295571	0.0111752646442163
5.9	-0.0135787155283076	0.0125917782975881	-0.938560088385984	-0.219435490415072	-0.938677359752956	-0.219482494812196	0.00287747855121828	0.0157418043341945
6	-0.003044444779986	0.014929114278616	-0.966087521824659	-0.0731767285880846	-0.966084244933335	-0.0732440327664678	0.0153837121679303	0.0161515183148859
6.1	-0.00290972379614512	0.00739795843384615	-0.964319365707523	0.0807252582800034	-0.964322416489241	0.0806240912176858	0.017141673345442	0.00514587690673058
6.2	-0.00554481627770815	0.0071084475250942	-0.938513916456391	0.227481873905337	-0.938560464730058	0.22730422208819	0.0147541160396492	0.000801524867810186
6.3	-0.00717417768875463	0.00804691859496089	-0.892686599973943	0.368156261962149	-0.892709763244249	0.36803042527071	0.0124776590302341	-0.00208571621502541
6.4	-0.00789555563953673	0.0105211189370923	-0.827369473201671	0.501954778133463	-0.827359542727624	0.501745697911937	0.0100154307590316	-0.00323696398841085
6.5	-0.00608428054831676	0.0119567882584144	-0.737266189214102	0.627241218811833	-0.7373641746073	0.627072117236976	0.00955897493137292	-0.00476611831808712
6.6	-0.00520122301591546	0.0130196767087624	-0.629881917922768	0.728877078524738	-0.630025900259356	0.728733952321794	0.00748571292458719	-0.00590748625208171
6.7	-0.00274820934690365	0.0139581517704233	-0.512372088183063	0.81635623458502	-0.512488885794888	0.816201794378557	0.00678137929993155	-0.00624391009460919
6.8	-7.61668395840906E-05	0.0134836152363656	-0.381396030347324	0.886646684142758	-0.381601500675312	0.886571125450964	0.00612203397540399	-0.00741218989906262
6.9	0.00237165548105051	0.0121379189198278	-0.238633498830366	0.935924268653015	-0.238878609012773	0.935918093823892	0.00551069711174534	-0.00851123425206493
7	0.00371352348767869	0.00855749522133159	-0.0912349816994639	0.956566359880229	-0.0914859131119262	0.956534259669691	0.00393955243736612	-0.0117833106797376
7.1	0.00196722935714561	0.00753247321126809	0.0518286920146603	0.96139856656187	0.0516274886273078	0.961383130080804	-0.000601974362399581	-0.0119397203845735
7.2	0.00213651097375949	0.00731188429267124	0.199827045848216	0.944638175254179	0.199576662628542	0.944676405290637	-0.00293244522208927	-0.0104973613585583
7.3	0.00206127062898106	0.00659290719131456	0.343863690790092	0.903114631997575	0.343626939214032	0.903198748597496	-0.00475998382868288	-0.00896267724179331
7.4	0.00229324735894553	0.00645185334603262	0.477850837290771	0.838133279134286	0.477634281951197	0.838286888667666	-0.0058793900998149	-0.00666113164189213
7.5	0.0038183032258418	0.00416273711059132	0.597445830110095	0.759637292136455	0.597284421187428	0.759800916837086	-0.00475616497469461	-0.00642004802179698
7.6	0.000776801644444435	0.00152374252251081	0.712848751379976	0.662145545389164	0.71263203044598	0.662297865704056	-0.00794869694470098	-0.00716757329318821
7.7	-0.00195037283788046	0.00264283544230698	0.808350216403339	0.543434899363952	0.808195860230699	0.543622957912906	-0.0106251642191031	-0.00389807681677853
7.8	-0.00337757835577221	0.00491340191632183	0.883103583628597	0.412530550990207	0.882977916446654	0.412745768683056	-0.0114912135445202	0.000422781331059504
7.9	-0.00349104581874082	0.00955954470928011	0.937085237394867	0.274222318954154	0.937037989010911	0.274443888417006	-0.00985399774611101	0.0073632237526841
8	0.00576799704429992	0.0115372880033531	0.97606167847218	0.126668035893221	0.976122400453889	0.126961402796383	0.000741034072323567	0.0110307939026129
8.1	0.0064938400277402	0.00379401008851777	0.983952523476391	-0.03079094976971	0.984068682030696	-0.0305170290130411	0.00450849602309013	0.00305471989738775
8.2	0.00342904592621567	0.00229269297645229	0.966992575940956	-0.182409156189036	0.9670497409526	-0.182112271936482	0.00286923855362403	0.000729287018209341
8.3	0.000797375303954654	0.00217614130625698	0.929038460235305	-0.329512023845433	0.9291681007361	-0.329252251591091	0.00148728698810345	-0.000581157094402479
8.4	-0.00282290931911572	0.0047059203226611	0.870677546542131	-0.471498024112478	0.870883784322813	-0.471291079884773	-0.00169639207527182	0.00058998295830427
8.5	0.00173420229520956	0.011592556643995	0.784663161384284	-0.606930508204179	0.784776459512452	-0.606801128398807	0.00346393427155034	0.0065187944250089
8.6	0.00550242303411419	0.00558988246994088	0.679317423346285	-0.717481737668257	0.679510202398202	-0.717290998972303	0.00797649701923967	-0.00127989350323787
8.7	0.00279153569812566	0.00416272963866541	0.562703455922733	-0.81470482292825	0.562983065686956	-0.814587205498436	0.00486363136296578	-0.0050927600819815
8.8	0.00152348268066108	0.00460814136854441	0.430639343297976	-0.894999536017367	0.430845193874848	-0.894938953751993	0.00157538994723824	-0.00644782775118243
8.9	0.000341000672190286	0.00621737691426862	0.28406223993154	-0.953926408732898	0.284302613927415	-0.953778747973655	-0.00211350723491752	-0.00531225324159046
9	0.00333716791676406	0.00883937958879672	0.131431012894722	-0.981274427105677	0.131793678886521	-0.981235657415426	-0.00141567659454713	-0.00138022822863849
9.1	0.00519803287225661	0.00786965250272612	-0.0170760282147907	-0.99369929092962	-0.0167205174136869	-0.993703371561223	-0.000788846749601922	-0.000768890497120872
9.2	0.00831390676325676	0.00775971325420342	-0.173180787832954	-0.982814707003047	-0.172818729391957	-0.982875956057496	0.00172014085604861	0.00153447121655
9.3	0.0118790232569137	0.0055215413277434	-0.326314372002367	-0.944805648244332	-0.325950698756334	-0.944861392980507	0.00607059340240224	0.0017165440177215
9.4	0.014944077936439	0.00325951577483838	-0.469172748981663	-0.880787263245157	-0.468841811055994	-0.880928697826942	0.0106528802830732	0.0015912133673948
9.5	0.0206842679655762	-0.00743573041734328	-0.596250234492668	-0.80251356515574	-0.596036822157598	-0.80264624256629	0.0189740338869843	-0.00828184195410843
9.6	0.00960116201686895	-0.0153454139510237	-0.720974373371848	-0.703195640734394	-0.720690348593161	-0.703376545461665	0.00898729320092038	-0.0165496814150828
9.7	0.00301192728859622	-0.0137712443959099	-0.824191939678864	-0.580665273427306	-0.823933111492331	-0.580934440574686	0.00313090219350497	-0.0148646255041484
9.8	-0.00158342358137037	-0.0119192110945393	-0.905110366577593	-0.444798629752408	-0.904889732960719	-0.445074879464767	-0.00061521089748842	-0.012409530289039
9.9	-0.0052783651103584	-0.00611217237335919	-0.964137509877714	-0.301028668327829	-0.964013681938799	-0.301363256780531	-0.00274578962446674	-0.00605400153780099
10	0.0024387312810745	-0.00471140615822863	-1.00822589266088	-0.146573894750119	-1.00813399208911	-0.146963476098809	0.00778816316480576	-0.00413029195795763
10.1	-0.00329110257689312	-0.0117245289930165	-1.01756303414174	0.0192619187772691	-1.01753497922522	0.0187683510304438	0.00485752826221172	-0.0130489913659417
10.2	-0.00977485904509047	-0.00927755169233546	-1.00098723785889	0.178036450615416	-1.00096530281684	0.177572259186687	-0.000279795643983737	-0.0126824021939917
10.3	-0.0140178582408377	-0.00490637546714108	-0.962287793755879	0.33236388966874	-0.962420265324471	0.331803457514092	-0.00364184503826224	-0.0107804410142115
10.4	-0.0168716088637081	0.00158838534826671	-0.901749051055751	0.48170120852708	-0.902018207294663	0.481142071895747	-0.00613525786175651	-0.00649872030074505
10.5	-0.0120633193597019	0.00937091599096507	-0.8103892634648	0.624034952512247	-0.810682496464934	0.62363288021109	-0.000501663921443522	-0.00126713168299629
10.6	-0.00757859183027508	0.00804294042265858	-0.698982961787015	0.738336647575122	-0.699423009987391	0.737981645439696	0.0044703704190101	-0.00591795683622562
10.7	-0.00671311209739329	0.00756882559749302	-0.576259229151544	0.838166602611814	-0.576684306447495	0.837868974745683	0.00487234829572951	-0.0105284330093375
10.8	-0.00682117262214347	0.00788711433797922	-0.437545247808302	0.919526960370935	-0.438073725325316	0.919291395318023	0.00271536693998562	-0.0140400681993159
10.9	-0.00580306799578232	0.00975570591583355	-0.284119302534272	0.977686398887594	-0.284624226139261	0.977637797161792	0.000950858155434833	-0.0154014496346613
11	-0.00366418111358521	0.00948788485955393	-0.126219260265824	1.00178691225146	-0.126779613354255	1.00178826024211	-0.000646743923847481	-0.0178998676246016
11.1	-0.00374089374425595	0.0110123192150286	0.02659717046828	1.01137372232986	0.0259509821256492	1.0114628647263	-0.00501129943107803	-0.0184915349739665
11.2	-0.00135500770598564	0.0124381113451256	0.18620882253959	0.996341001420779	0.18567603007462	0.996554833253708	-0.00749146532320345	-0.0176314037739253
11.3	0.00151109804055457	0.0134702810548128	0.341397638632408	0.95336288720514	0.340959033391616	0.953638472422017	-0.00952042575975895	-0.0156008739247031
11.4	0.0058101131214698	0.0149885560641909	0.484911049878176	0.884065899460279	0.484439311750901	0.884339046266225	-0.00916074992443323	-0.0116362850112151
11.5	0.0140352565926488	0.00900265073208524	0.611178100001365	0.802075397819105	0.610814706599129	0.802506851149796	-0.00331595077264675	-0.0158936125913808
11.6	0.00960127926164301	0.00256804725197868	0.735292942552036	0.697801217769722	0.735024554563608	0.698299953850794	-0.011429032627196	-0.0198274409975168
11.7	0.00795492575953691	0.0027807023684947	0.835701248063743	0.570723403319431	0.8354629650087	0.57116188155485	-0.0163171897901343	-0.0161165860317366
11.8	0.00687640093941565	0.00267337645999694	0.912422736938363	0.43140697535125	0.912244718909189	0.431977302225604	-0.0196860714234957	-0.0114619799909419
11.9	0.00779695544556688	0.00706800269320404	0.966915316679566	0.286034497832142	0.966885992117851	0.286593118837267	-0.0202859888207424	-0.00177639649221533
12	0.0192877607961564	0.00513846943947774	1.00644071671905	0.130480602197014	1.00643843227026	0.130975882890799	-0.00674871633974245	0.00225221952527653
12.1	0.015516133380465	-0.00572664102763409	1.01007091094324	-0.0343934562552609	1.01005920086738	-0.0339065787792411	-0.00823933625228236	-0.00566105716840167
12.2	0.0110733610852547	-0.00874058475968565	0.988582672665412	-0.191004904779332	0.988704923041919	-0.190560281064207	-0.0100927720543487	-0.00578388221885464
12.3	0.00710617901133634	-0.0105917757256676	0.945623170424017	-0.34180169149724	0.94582383165074	-0.341440882856803	-0.0113141550986663	-0.00568687692638882
12.4	0.0015568662392528	-0.00997676386660756	0.882042750395077	-0.486936630185556	0.882190834271797	-0.486556618353751	-0.0138382892247985	-0.0034003045481621
12.5	0.00264001708256932	-0.00622232930269971	0.787331805389184	-0.623866559637036	0.787816535686098	-0.623484692933523	-0.00952673322720291	0.0011960373868603
12.6	0.000955985275035834	-0.011041351060107	0.675805433692239	-0.731311335820298	0.676169032962759	-0.731011861375962	-0.00782480517388255	-0.00431558480616336
