# GHZ S RI R 50
0.2	9.09290565410405E-05	-0.000661344298992938	0.951750276415327	-0.307230901975051	0.951523712221721	-0.307373471680774	0.000302960217386322	-0.000560571993143599
0.3	-0.000514043818209075	-0.000493943920576906	0.892567218011206	-0.451290103757639	0.892429481499024	-0.451343722414223	-0.000256365467452012	-0.000851580708700131
0.4	-0.000983061669446105	-0.000111523366429734	0.811885806399017	-0.584465366476519	0.811926345262164	-0.58460542547012	-0.000769703097955952	-0.000682646742530547
0.5	-0.000919797240044007	0.00122605515679644	0.711038763772071	-0.704561470450838	0.71092776943891	-0.704657903646148	-0.0004975543521435	0.000356013305224704
0.6	-4.74265746808704E-05	0.000720304772140431	0.59227995591657	-0.806051103981169	0.592089605565597	-0.80605420456976	0.000334832438695181	-0.000507240608954459
0.7	-0.000489236860461718	0.00070757351784124	0.460068722459713	-0.888161359245549	0.459994395323187	-0.888195980396147	-0.000111115257284059	-0.00120819430273603
0.8	-0.000656690528172153	0.000668702381729388	0.316418587985265	-0.94929828758521	0.316299365571746	-0.949211232110398	-0.000716580563909033	-0.00157383610745287
0.9	-0.00153829180829005	0.000914556722339737	0.164453970990063	-0.987223657771049	0.164304142599168	-0.987180594909932	-0.0021155853077269	-0.00191407838776085
1	-0.00214478062784748	0.00344881514832699	0.00843292192747556	-0.999632478339864	0.0083143182954873	-0.999602606756093	-0.00343239258219797	0.000529303924447845
1.1	0.000943488913748034	0.00354571916848738	-0.145394935850708	-0.989089990286397	-0.146045610187034	-0.989054946005416	-0.00114343170996381	0.000794807947787618
1.2	0.00161300875661445	0.00142664604531986	-0.29853672334561	-0.954777520935104	-0.298529716810868	-0.954833510180318	-0.000843946051655654	-0.000172199151212997
1.3	0.00219319690365671	-0.000950677766122725	-0.443706149527488	-0.896504065914654	-0.443798796558732	-0.896528603867796	0.000404986083025253	-0.00046329693740526
1.4	0.00219457651310738	-0.00364319061754519	-0.577463974458454	-0.816014172954363	-0.577538035076143	-0.815913978537096	0.00183344398575588	-0.00155620805722148
1.5	0.00353304499081503	-0.00565905807631377	-0.69632400121697	-0.716807704787051	-0.696348708476917	-0.716735281157511	0.00462554408748138	-0.00372086477768796
1.6	0.000470754010623368	-0.00828367039982825	-0.800280203262555	-0.600830841489384	-0.800712192529881	-0.600326560185421	0.00148575408152432	-0.00714246743139485
1.7	-0.00151267817657888	-0.00642100425839208	-0.88425778750979	-0.468181004718336	-0.884563235077236	-0.4676871363164	-0.00116747262800779	-0.00597643786083809
1.8	-0.00234126264205267	-0.00487242983127553	-0.946160864693972	-0.32408822751047	-0.946176391437433	-0.324078659682622	-0.00276389305224985	-0.00484182800391561
1.9	-0.00266373484554435	-0.00239021298404856	-0.984763802238057	-0.173203168490503	-0.984808736859145	-0.173256139568221	-0.00382918327206849	-0.00253596469527964
2	0.00100598972250496	-0.00116096665792744	-1.00099882397928	-0.0185754525349114	-1.00109247322705	-0.0179204444180474	-0.000658588138036318	-0.000952940985927964
2.1	0.00026233228286087	-0.00478832186858088	-0.990903014140726	0.140475856673557	-0.991005905982018	0.139988400886538	-0.00152992948724906	-0.00437639648548193
2.2	-0.00223177487459143	-0.00462041223145158	-0.956135603149663	0.292111018210624	-0.956173860678513	0.292245928206566	-0.00395295297326847	-0.00394394848106134
2.3	-0.00373786010063377	-0.00364701253618913	-0.898781900120543	0.437001734000019	-0.898616429756042	0.437089772841824	-0.00547538891837763	-0.0028639323676997
2.4	-0.00550798374268469	-0.0017838746931893	-0.819524118687414	0.572332232750178	-0.819820627753461	0.571868957504843	-0.0070147737475838	-0.00084692310865984
2.5	-0.00348255316959399	0.00187966971206878	-0.719195167419694	0.694217917759037	-0.71950309294925	0.693837325807861	-0.00448534155392405	0.00256912337437711
2.6	-0.00152825648700277	-0.000365992803703815	-0.601322446641694	0.795396522411971	-0.601243402718087	0.795336093994216	-0.00175975900521067	-2.92311139944019E-05
2.7	-0.00225176357440695	-0.00130525543330531	-0.470473987154488	0.878368050196065	-0.470444254933584	0.878381928408731	-0.00236461196920445	-0.00169884255455562
2.8	-0.00311179330091921	-0.00150010728452647	-0.32813719758737	0.940600211699919	-0.328017704085533	0.940683908361644	-0.00326591252270787	-0.00224852668773904
2.9	-0.00296905065755412	-0.000930662651171442	-0.176858777826938	0.979812971460482	-0.176853707364997	0.979867912434759	-0.00361165476028807	-0.0014989558321046
3	-0.00222163747141658	-0.00141350848428963	-0.0215499932444287	0.992566270081269	-0.0216135240134844	0.992638529447128	-0.00275429559342425	-0.00153746813228997
3.1	-0.00287396551422971	-0.00120742709611817	0.130099267012244	0.983676498169896	0.130748457477228	0.983751339834782	-0.00349989035717594	-0.00108345176213264
3.2	-0.00241432380114163	-0.000407468030775177	0.282159838284665	0.951393073125029	0.282150281471594	0.951432793923591	-0.00296738045278462	0.000214133667741106
3.3	-0.00133949038465568	-0.000115358354948476	0.427371439234835	0.894814401509312	0.426751887342196	0.89510273153692	-0.00173694442092814	0.000898058189935125
3.4	-0.000144781112563173	0.000233671460808789	0.559871512417263	0.81633098195371	0.559788019373927	0.816447043315255	0.000108363660869222	0.00140915924987372
3.5	0.00262456485466533	-0.0017151530698667	0.677241933548643	0.720321301451556	0.677256359283688	0.7203473008087	0.00320583995654274	-0.000805929030648612
3.6	0.000635837138347886	-0.00415106878837047	0.781750273050659	0.607553630590144	0.782168217812122	0.60715609744459	0.00148134299096456	-0.00363364662894839
3.7	-0.000298708639349436	-0.00404419530739882	0.866672194268469	0.477062084774974	0.866680481701298	0.477188306750501	0.00041924057463623	-0.00368693083409102
3.8	-0.00107109499545265	-0.00395791107387584	0.928994233135737	0.336312301594192	0.929024415475752	0.336494751887757	-0.000451464038129098	-0.00382098824045666
3.9	-0.00126182000290313	-0.00296311511279183	0.968972670957182	0.188380474982078	0.968880058804954	0.188967073357872	-0.00149033192920979	-0.00308296339488619
4	0.00162668574460843	-0.00281102174995514	0.988210893031125	0.036905207546963	0.98829311209797	0.0369473983551669	0.00108024486857121	-0.00290750050514963
4.1	0.000839449265525181	-0.0067833025918681	0.980755803186547	-0.119113030934901	0.980694582645714	-0.119048494672543	-0.000298187694295106	-0.00690680562120903
4.2	-0.0017681999553263	-0.00762063183443829	0.948418467335283	-0.269877273867028	0.948617394496873	-0.269312744755578	-0.00324490734465914	-0.00759323749435819
4.3	-0.00388230574466267	-0.00808705105910147	0.894854639745422	-0.412341933110955	0.894855701354809	-0.412323512410602	-0.00597620736327815	-0.00769671241337106
4.4	-0.00693459048276009	-0.00711130233858745	0.820499714507946	-0.546011397343433	0.820420368328835	-0.545994737052748	-0.00948649416958725	-0.0061609647415138
4.5	-0.00666577445716304	-0.00404745758467662	0.723939622874683	-0.668457738891292	0.7238186409176	-0.668310897724164	-0.0095851681158708	-0.00212959336475566
4.6	-0.00626078526535348	-0.00538225877123303	0.609610256393873	-0.769646993244778	0.609598609092566	-0.769419412321067	-0.00893393526392356	-0.00277277207626155
4.7	-0.00783720130047782	-0.00590247927134421	0.483453071176067	-0.853542634621644	0.483571640585459	-0.853301562452954	-0.0105818896516889	-0.00257135079771038
4.8	-0.00948154216784982	-0.00556299689913606	0.345240146510875	-0.917573976446921	0.345532877085982	-0.917390304410438	-0.0119042905228273	-0.00160091369011742
4.9	-0.0107119810823916	-0.00486735340741396	0.197946249906473	-0.95918715141008	0.198203884921726	-0.959139464870092	-0.0127643698165873	0.000293907407207656
5	-0.0109469808340752	-0.004440462231335	0.0471356589973178	-0.974497793041043	0.0472930229605808	-0.974373352694283	-0.0119002243775943	0.00196469491312258
5.1	-0.0129293343080078	-0.00424667955471475	-0.100961637397665	-0.970146307913216	-0.100644639949392	-0.970086651882069	-0.0126739833374903	0.00345961818450085
5.2	-0.0140947549320705	-0.00194917945731881	-0.249835377373496	-0.943439469703701	-0.249414497049394	-0.943562483234399	-0.0123560314854661	0.00696830393090656
5.3	-0.014123775083058	0.000455233091195216	-0.392735349151961	-0.892938217530026	-0.39245243936103	-0.893279614383428	-0.0102557379672394	0.0107274750770754
5.4	-0.0123627930500267	0.00375621195540102	-0.52513219084911	-0.820209567750982	-0.524999825456318	-0.820495279207687	-0.00591309863375857	0.014466252845355
5.5	-0.00773831312676779	0.00186729290725231	-0.642691597008976	-0.730861205898581	-0.642642831933546	-0.731170046398672	0.00158101941128191	0.0122240453987223
5.6	-0.0116737854423653	6.11428500352434E-05	-0.749952581832245	-0.624146325555019	-0.749965994106959	-0.624314388728229	5.23092652116122E-05	0.00882731518629413
5.7	-0.0137108640795377	0.00290620027249379	-0.837698786038256	-0.499827476881881	-0.83767552208369	-0.500000225401225	1.99076023106685E-05	0.0102749878487595
5.8	-0.0142740384702237	0.00641493447039306	-0.904047270191246	-0.364113476180389	-0.904091529167846	-0.364401451970642	0.00129917816531216	0.0118552860272793
5.9	-0.0135535535779359	0.0113507369211942	-0.948844792656904	-0.22148711416263	-0.948963356048511	-0.221534587945006	0.00352319718324911	0.0149195587992526
6	-0.00600813997833857	0.0144127769580367	-0.97479368958971	-0.0729099039511035	-0.974790447467783	-0.0729778128741356	0.012492194816174	0.0156517303871037
6.1	-0.00429283090879748	0.0100729731844417	-0.973467967133498	0.081339069693033	-0.973471030699618	0.0812369434073284	0.0153103520737007	0.00819107091633306
6.2	-0.00478542415439482	0.00954970903239739	-0.947967438171669	0.230334995960924	-0.948014562159278	0.23015555630249	0.0150104156223171	0.00401972612786114
6.3	-0.00538351700650244	0.00942530383919225	-0.901235908251417	0.373292229610546	-0.901259502306985	0.373165143269497	0.0139281476506463	0.000323578346680018
6.4	-0.00592965166441737	0.0105478531556961	-0.834069632374916	0.508452690647057	-0.834060058063403	0.508241623477071	0.01189274104945	-0.00210366335713987
6.5	-0.00496060415626472	0.0113834426079347	-0.743723196890552	0.633802915129252	-0.74382225264038	0.63363229399152	0.0108025634163985	-0.00427569014159374
6.6	-0.00436297732802408	0.012197516583755	-0.635506010415986	0.738327067680536	-0.635651896831495	0.738182620319086	0.00862386492165892	-0.00583442524948609
6.7	-0.00256359983835807	0.0129315203908699	-0.515220983453885	0.827132530861603	-0.515339601951482	0.826976787222436	0.00727437199157211	-0.00662202389661785
6.8	-0.000436806418925802	0.0126763225534602	-0.381765661007019	0.897557608313936	-0.381973607024324	0.897482099081956	0.00591498123504376	-0.00773919633894645
6.9	0.00150342697626487	0.0116322642336402	-0.237418123982549	0.946587385323371	-0.237665804427114	0.946582113781531	0.0046183471134433	-0.00860512118188312
7	0.00276304129447347	0.00914893421637986	-0.087844253492101	0.968846018234657	-0.0880984446985245	0.968814706380919	0.00272279201853121	-0.0106949657672092
7.1	0.00189718341745626	0.00817862894493973	0.0595828236756167	0.97207154519705	0.059379190929602	0.97205742905386	-0.0010148711710873	-0.0105639456653634
7.2	0.00224574469571579	0.00779516016838598	0.209499083983101	0.952883038518726	0.209246396992499	0.952923678544268	-0.00315682060505818	-0.0091366811529765
7.3	0.00234574225934759	0.00701208574317869	0.35492459986528	0.90933474759661	0.354686167038006	0.90942170301334	-0.00477547510076586	-0.0075313129546412
7.4	0.00266320660881638	0.00654165837200576	0.490675134731063	0.842599948897997	0.490457704115078	0.842757191656517	-0.0057555363124599	-0.00548710889783011
7.5	0.00370629208879789	0.00458411011342471	0.612347758951163	0.759608738580451	0.61218680081505	0.759775878229761	-0.00510196821074836	-0.00470999696710978
7.6	0.00164817497998981	0.00218309824641904	0.725885345479818	0.658213471380018	0.72566893323476	0.6583694861641	-0.00711232207572803	-0.00489301380075734
7.7	-0.000655802606053527	0.00263357448632842	0.820172772892654	0.537440879095429	0.820019625780347	0.53763201982271	-0.00895985558195035	-0.00236154050065953
7.8	-0.00199182704474328	0.00411507558024337	0.893860507733585	0.404125884533402	0.893736729243419	0.404344037451354	-0.00942461571225234	0.000924833462262631
7.9	-0.00246680251890552	0.00731985671857427	0.946016228568355	0.262646314100633	0.945971813121407	0.262869749909452	-0.00817594155297082	0.00589102555012434
8	0.00355503153040383	0.00935538342059882	0.980124260959517	0.11341431873608	0.980189199682217	0.113707534941115	-0.00110177528820887	0.00903648011391184
8.1	0.00421079610602782	0.00458699502021427	0.985875735658632	-0.043186897929308	0.98599559755308	-0.0429137892635131	0.00180613299394545	0.00433352994129817
8.2	0.00255318632175566	0.00371030167449796	0.966803035380129	-0.195354450271271	0.966864177446679	-0.195057639274289	0.00138804695190615	0.00302632814803207
8.3	0.00100909501517957	0.00368852942867421	0.925804446251047	-0.342574875865093	0.925937789480114	-0.342316517426834	0.00112553007155813	0.00214612422771174
8.4	-0.00119105003243105	0.00528099912917479	0.863798802490977	-0.483153228919713	0.864007763087901	-0.482949205947706	-0.000406400968494766	0.00255989649557299
8.5	0.00165541032384712	0.00993249206020962	0.776822055990328	-0.615196916816957	0.776936702280542	-0.61506898020842	0.00307684286743263	0.00604763688032198
8.6	0.00445021540734028	0.00632719883753529	0.670594126851987	-0.725795098991718	0.670789239353739	-0.725606704019836	0.0062377254743864	0.000883295604196109
8.7	0.00311901644627488	0.00541024469252233	0.551526750512373	-0.821169354078218	0.551807597490596	-0.821055493694926	0.00462260865877801	-0.00184628475632338
8.8	0.00277998278796132	0.0054687873462794	0.418131015497246	-0.89843989967066	0.418337163085846	-0.898382104387544	0.00276334666426997	-0.00321242831354059
8.9	0.00226912028112347	0.00599274943702745	0.272083382051662	-0.954238682582721	0.27232471927726	-0.954094278717249	0.000476460576165545	-0.00314740038366457
9	0.00414053075501386	0.0072165715879348	0.119786860983184	-0.981591211096885	0.120149530162928	-0.981556732057985	0.00054914010694655	-0.00113488526308253
9.1	0.00545280891912917	0.00650759943993775	-0.0306082945952782	-0.990532058998425	-0.030253889528333	-0.990540987031601	0.000770462696387125	-0.000683513294442386
9.2	0.0079845871525806	0.00634332496237283	-0.18538878644379	-0.976074915839838	-0.18502917722915	-0.976140673465	0.00270027452306577	0.00101909927024383
9.3	0.0110433090047164	0.00439655375956188	-0.336456460582803	-0.935803835973146	-0.336095376530794	-0.935863847742954	0.00619331259326238	0.00101190102693508
9.4	0.0135312926351689	0.00177946206788643	-0.477829314243747	-0.87073132042949	-0.477501722480445	-0.870876175531988	0.00965771803556459	0.000233580417352263
9.5	0.017007121944791	-0.00593991102246634	-0.604483328600417	-0.788822563648589	-0.6042731745396	-0.788957590092066	0.0148263104958578	-0.00640867160532957
9.6	0.00952206620550861	-0.012280781920061	-0.724002889599391	-0.6871851466963	-0.723723846506338	-0.687368260387247	0.00834301762454773	-0.0122455962757869
9.7	0.00432032297184069	-0.0119733589740926	-0.823432643273223	-0.564971622541152	-0.823179603180172	-0.565241391069008	0.00425004539466156	-0.0114877199768987
9.8	0.000367655882135867	-0.011217654435732	-0.901339395432538	-0.429568059181133	-0.901124259899579	-0.42984416819537	0.00153063170500258	-0.0101377912803001
9.9	-0.00322077912075969	-0.00756575534953894	-0.957217531757323	-0.285692319111391	-0.957099240365713	-0.286024747274734	-0.000209228826734885	-0.00627483418763145
10	0.00071233149838153	-0.00612834512314482	-0.995315572117972	-0.133300711725142	-0.995229308835901	-0.133685694864837	0.00605789186917676	-0.00479425453516125
10.1	-0.00362005969016054	-0.0103616240786842	-1.00301126034541	0.0275365425282448	-1.00298774776548	0.0270497185663545	0.00412896512293275	-0.0104937981505537
10.2	-0.00865360422117172	-0.00848016814327441	-0.98550882364492	0.183331350373641	-0.985490815117902	0.182873522496525	0.000654844750648154	-0.0103880550152332
10.3	-0.0124010662564736	-0.00506851690731688	-0.945607016306947	0.334443264812318	-0.945741604253271	0.333892102688106	-0.00189180610056094	-0.0094551619194631
10.4	-0.0153046119215881	-4.73675069241119E-06	-0.883990860116032	0.47926089858363	-0.88425898913094	0.478712593571648	-0.0041794334394646	-0.00693504148452875
10.5	-0.0130626317598351	0.00681368318989046	-0.795543784332509	0.615784811689846	-0.795833192848433	0.615390064287323	-0.00132292672354271	-0.00322913824033231
10.6	-0.00967155197284215	0.00797485320185043	-0.68717434067268	0.729221656972671	-0.687608816490241	0.728872800035298	0.00188914883655607	-0.00547132990023379
10.7	-0.00772335480678241	0.008898543107277	-0.565849449826637	0.826920963948645	-0.566268835547202	0.826628695559393	0.00292953372192783	-0.00831065539530673
10.8	-0.00646284162037394	0.00925083160821079	-0.429721241028465	0.905686888481967	-0.430241746800761	0.905455572424604	0.00203141398652559	-0.0112950015015357
10.9	-0.00520954644138123	0.0104965993214097	-0.280838698143375	0.962156944821638	-0.281335715671197	0.962108511797616	0.000440750077626999	-0.0130371420948822
11	-0.0029684702474386	0.010390682584607	-0.126358105813763	0.988898253257045	-0.126911374905241	0.988898615067233	-0.000987873758442158	-0.015054354619176
11.1	-0.00220798423231411	0.0112418988684654	0.0257422670829849	0.997502507723016	0.0251049070639657	0.997590111630527	-0.00427619758201937	-0.0158480689377879
11.2	0.000130448041671889	0.0119190700691666	0.181742987254323	0.982298259816335	0.18121749923848	0.982508054746968	-0.00637341508147918	-0.0154858338152085
11.3	0.00274934206742713	0.0121446685509848	0.333537825293091	0.941031253672032	0.333104514018676	0.941301554484589	-0.00801884043356431	-0.0143510372377529
11.4	0.00604491794513735	0.0125065334448457	0.475315935227557	0.874925272716469	0.474849016915425	0.875193118389952	-0.00840513525364422	-0.0118768689007295
11.5	0.011902371989983	0.00832426167778075	0.601789106786786	0.792788509770913	0.601429638986684	0.793213704899529	-0.00537550325913915	-0.0141583084626228
11.6	0.00951665528794651	0.00320494582397715	0.721634406305641	0.690399959448931	0.721368005787602	0.690890246578164	-0.0110132682674579	-0.0164581872661008
11.7	0.00833903579346881	0.00256724949997772	0.820690544898949	0.56738297251823	0.820453151462348	0.567813919845174	-0.0148425276437338	-0.0137151911333483
11.8	0.00727147810638704	0.00196402110977802	0.897658212211126	0.431427748270962	0.897478970030051	0.431989420922847	-0.0177301081550058	-0.010103140431995
11.9	0.00683433129665316	0.00463602502709633	0.952387967824964	0.287950471034681	0.95235573157723	0.288501502441691	-0.0193053329095497	-0.00299107889733047
12	0.0144385483895722	0.00452980047473151	0.98983688533401	0.136008849971154	0.989830919000918	0.136496424520621	-0.0106195054567624	0.00174625927962278
12.1	0.0135257448498112	-0.00264002740157499	0.996301031809388	-0.0236962520240035	0.996284560822095	-0.0232162980741496	-0.0100077803381782	-0.00219064418174806
12.2	0.0113711062318353	-0.00573493264238592	0.978002514097652	-0.17791388771313	0.978118412061094	-0.177473631006934	-0.0100431852559478	-0.00215141604766339
12.3	0.00881533689264546	-0.00842087264007154	0.937789456693425	-0.326891391767953	0.937983560043099	-0.326532778568922	-0.0101015468493228	-0.00258787604602681
12.4	0.00425554644746288	-0.00944118894508544	0.876778936469952	-0.469664023063078	0.876920372223873	-0.469287049171353	-0.0117356786816852	-0.00175570951210936
12.5	0.00360789372245022	-0.00753614137798463	0.788435144538893	-0.6040088701884	0.788908164569296	-0.603623521273875	-0.00933197144061283	0.00107085113933136
12.6	0.00143062224660365	-0.0109354454976859	0.681934031463018	-0.714507661605969	0.682289859475148	-0.714204839629222	-0.00843114650993973	-0.00248140767591205
