# GHZ S RI R 50
0.2	-3.78864397869083E-05	-0.000273034916525395	0.950151723488333	-0.30762001241035	0.949925354049956	-0.30776218715962	0.000123763931803851	-0.000116240849186794
0.3	-0.000353469897778437	-8.09002088399883E-05	0.89051250746862	-0.451449604587009	0.89037495623546	-0.451502981522851	-0.000160349371935232	-0.000315823322567603
0.4	-0.000433412827851447	0.000115109126183159	0.809341256278975	-0.584079818269268	0.809381538004387	-0.584219604170381	-0.00026530966438222	-0.000268148099648178
0.5	-0.000512868370242596	0.000727983129833673	0.708578518928872	-0.703067953885399	0.708467770314194	-0.703164043085724	-0.0001229669675169	5.69384793009044E-05
0.6	-0.000114888766818671	0.000611204914223736	0.590327341627002	-0.804318680188979	0.590137475261346	-0.804321668647555	0.000177836056825035	-0.000354934345049146
0.7	-0.000286560738687166	0.000776258571857444	0.458194431139928	-0.885963653651031	0.458120290436588	-0.885998128867727	8.80087045277691E-06	-0.000747922613177381
0.8	-0.000238656095631838	0.00074971550605334	0.314939110067261	-0.946438837969844	0.314820310022193	-0.946351999704081	-0.000294611503918394	-0.000971888962778936
0.9	-0.000567487180724302	0.00100045485856015	0.16385607039267	-0.983817505970861	0.163706760965081	-0.983774587399108	-0.000932917981336137	-0.0012202253695588
1	-0.000797071887924532	0.00197488008022481	0.00875962882501023	-0.996706283616784	0.00864136146908831	-0.996676541110237	-0.00156748862320012	-0.000535846562668692
1.1	0.000482144089937188	0.00221091141861845	-0.145107564441025	-0.985956778956773	-0.145756188063977	-0.98592173318969	-0.00114833007170217	-0.000502631169813601
1.2	0.00102789531041938	0.000984626056984038	-0.297364281444173	-0.951386260192855	-0.297357294040865	-0.951442047872885	-0.0012268267459973	-0.000784307462162003
1.3	0.00153478501392722	-0.000703798941001839	-0.441592224262172	-0.89341971648512	-0.44168451545899	-0.893444212352891	-0.000422589575493627	-0.000427372044964364
1.4	0.00174073683233006	-0.0029243546645996	-0.57477865830188	-0.813703713207189	-0.574852550174614	-0.813603926829043	0.000891863437679943	-0.000810449784014102
1.5	0.00237926849097954	-0.004337991934276	-0.693815745859743	-0.714566103450441	-0.693840387325757	-0.714493928895332	0.00268677198859062	-0.00196364143320679
1.6	0.00111504339029472	-0.00594298238627735	-0.79644041827157	-0.598709022673503	-0.796870838741091	-0.598207193447057	0.00148787005628556	-0.00368834989224045
1.7	6.5972663765783E-05	-0.00538538607154855	-0.879775398596273	-0.467297843529246	-0.880080160699296	-0.466806536476883	0.000283828104258669	-0.00353727157767153
1.8	-0.000635422125638803	-0.0048308275064205	-0.941653689142383	-0.324317361490216	-0.941669166890778	-0.324307859790196	-0.000733118802309654	-0.00345314112729002
1.9	-0.00106089699932802	-0.00371587292153259	-0.980467737254222	-0.1740793582132	-0.980512403399578	-0.174132185399066	-0.00159482038100601	-0.00285452373446572
2	0.000110164631464664	-0.00306727426771225	-0.995904207230821	-0.0202370772654387	-0.995998531636679	-0.0195855457473744	-0.00116355579707446	-0.00227805557406441
2.1	-0.000278832283650073	-0.00451361536941888	-0.986511525649187	0.136683169368397	-0.98661238696056	0.136197767892971	-0.0019371591694619	-0.00326023341487577
2.2	-0.00181891269403495	-0.00458616299539373	-0.952988799287032	0.287545020180261	-0.953027355796205	0.287679212108437	-0.00317753829101121	-0.00289397547683487
2.3	-0.00301455133720413	-0.00402328620456222	-0.896569827912806	0.431945517485755	-0.896405368376854	0.432033779049448	-0.00406912253683858	-0.00233559704527614
2.4	-0.00441300842750118	-0.00291877965347587	-0.818040344263829	0.566604354492649	-0.818333736922891	0.566142022047938	-0.00496384141029645	-0.00151666703286851
2.5	-0.00402455424325487	-0.000669762444146848	-0.719672060982897	0.687230016386279	-0.719976556803819	0.686849490771475	-0.00436204606737703	-0.000303875407271962
2.6	-0.00324502044233175	-0.000917461724823435	-0.60391590192236	0.789596121455274	-0.60383676343705	0.789536319949184	-0.00368637376767298	-0.00100453589037008
2.7	-0.00329379896246511	-0.0008499785234256	-0.473891534612489	0.873346343683256	-0.473861961306487	0.873360343344437	-0.00410842404835218	-0.00125740158880765
2.8	-0.00335745253589189	-0.00072576355647448	-0.332570895413127	0.936151059801378	-0.332452205469227	0.936235204133874	-0.00434872807671589	-0.000999586948551574
2.9	-0.0027104901004231	-0.000405652629070537	-0.182735059517271	0.976204193508049	-0.182730356309156	0.976259028816335	-0.00410853914385662	-0.000178790615413717
3	-0.00185764231862218	-0.00070235052333748	-0.0284167255287272	0.991610718633427	-0.0284807058788241	0.991682478676372	-0.00310401316299206	0.00030931536841519
3.1	-0.00152284729388462	-0.000872416406931202	0.124309782168045	0.983827276544657	0.124958139375933	0.983905840323002	-0.0025416811532741	0.000811461006445218
3.2	-0.00103970405191023	-0.000895002780560993	0.276199000949217	0.952390342717916	0.276189211155406	0.952429976178961	-0.00163659574328246	0.0012511537502135
3.3	-0.000163889309385492	-0.00111108793165967	0.421452386428101	0.89729010867342	0.420831169346295	0.897574342886093	-0.000387543250151642	0.00130441207450572
3.4	0.000541752297688187	-0.00137784640219399	0.55483329634824	0.820645272535848	0.554748970298393	0.820760860670075	0.000999781434346371	0.000969986068242284
3.5	0.00209174918299678	-0.00259513090613616	0.674386804604556	0.724849605981521	0.67440111365568	0.724875716290254	0.0025484519296243	-0.000513996861660189
3.6	0.00130913263736318	-0.00430689589557098	0.778732228509933	0.612061085951204	0.779152507561054	0.611665683182228	0.00209100882232539	-0.00220001226747358
3.7	0.000771765862896587	-0.00490036579274558	0.864558472004571	0.482694713677678	0.864566007049715	0.482821095819299	0.0017745864648109	-0.00287918767051004
3.8	1.74518142762194E-05	-0.00536129134950408	0.928445689015937	0.342394264056762	0.928474828296863	0.342577181824283	0.00121805575351238	-0.00374275367397779
3.9	-0.000352245012717093	-0.0053078144158158	0.969963569745212	0.193882572940678	0.969867670634804	0.19446988433705	0.000133173520651477	-0.00441151254473203
4	0.000407883161657275	-0.00540237243971505	0.988884125571803	0.0419175137765754	0.988966203493914	0.041960155627489	4.25006982420284E-05	-0.00499645249442201
4.1	-0.000159344755267999	-0.00747697580441389	0.982980009240793	-0.112959416504955	0.982918281295339	-0.1128951796254	-0.00169664999068477	-0.00675061738397624
4.2	-0.00208271037188821	-0.00818902861595539	0.952467441794861	-0.26454821780999	0.952663291515799	-0.263981036572304	-0.00399574076080686	-0.00692755988039696
4.3	-0.00377106948923953	-0.00859920749102919	0.899879311885345	-0.408218480019584	0.899880267226596	-0.408199999966287	-0.00616292962626725	-0.00677996448190107
4.4	-0.00607897629197909	-0.00809789035517992	0.825785999494451	-0.542745571698493	0.825706349206724	-0.542729322271013	-0.00866001767982423	-0.00579670321450602
4.5	-0.00676911677249626	-0.0064592440611397	0.730840451999938	-0.665071185713169	0.73071806119144	-0.66492481165213	-0.00988676065074889	-0.0037279103461304
4.6	-0.00721156925823821	-0.00650840623346564	0.617935185380333	-0.769251253588327	0.617921910818346	-0.769022626802201	-0.0108099421121106	-0.00298874031826739
4.7	-0.00840015208332843	-0.00656202782475468	0.491183035303194	-0.855254961367404	0.491300799725216	-0.855011875827077	-0.0124073538748039	-0.00181048809895205
4.8	-0.00974756075389275	-0.00599592899994533	0.352345412649235	-0.920724744469196	0.352638732841699	-0.920538396808683	-0.013478049541943	-6.04289936854296E-05
4.9	-0.0106627931249836	-0.00536045353679117	0.204852667472838	-0.963632133044136	0.205111529228117	-0.963582623640027	-0.0138349304333233	0.00223074853534089
5	-0.0110892333979937	-0.00475052267229881	0.053196274472366	-0.982081478164899	0.0533541820512508	-0.981955117018257	-0.0129731127885983	0.00451213375442302
5.1	-0.0120397710096847	-0.00449186396541264	-0.0982551888169923	-0.978418735760994	-0.0979358253454299	-0.978357440477104	-0.0120723499362962	0.006623243489337
5.2	-0.0128934716072643	-0.00306429088596581	-0.248717746881859	-0.95158973488932	-0.248293193114237	-0.951712339756639	-0.0105046677998186	0.0091802060061626
5.3	-0.0131628448532709	-0.00150071918026026	-0.393152751896474	-0.90135830776095	-0.39286650535869	-0.901701588534442	-0.00800616344197812	0.0114375430399205
5.4	-0.0124462854736921	0.000854910541635454	-0.527770101194639	-0.829041297899605	-0.527635786315143	-0.829329263366704	-0.00476136182189959	0.013250427416121
5.5	-0.0101150587784062	0.000840610953934831	-0.648644516384152	-0.737763657345625	-0.648595266774022	-0.738075385742671	-0.000626937429469057	0.0126234720655309
5.6	-0.011476196224034	0.000518085545674373	-0.755750360256746	-0.628916521436707	-0.755763882991676	-0.629085877259793	0.000297843379978377	0.0115823625208377
5.7	-0.0125035376561057	0.00223679870917401	-0.844210831672022	-0.503836992404306	-0.844187366499311	-0.504011092566576	0.00187702858460976	0.0120810317855272
5.8	-0.0128397777588	0.00473987055626353	-0.911628517893117	-0.366749128704784	-0.911673255442613	-0.367039455721222	0.00388285841621017	0.0122308992671357
5.9	-0.0124187681015249	0.00794220353385789	-0.957128801426845	-0.221705660585233	-0.957248433863096	-0.221753326593765	0.00589400637018943	0.0125410173183688
6	-0.00850656092741	0.0106848313756729	-0.981097193621426	-0.0710833551437142	-0.981094090247604	-0.0711516988880639	0.0098111549495309	0.0119989901444577
6.1	-0.00660435205394829	0.00948465954592454	-0.979858390815776	0.0828095009836712	-0.979861572227965	0.0827066989726284	0.0114612171054731	0.00866411282879964
6.2	-0.00598108329571636	0.00963473441191941	-0.954607136423542	0.233462843956945	-0.954654878434559	0.233282152699541	0.0121458675419692	0.00630855930915927
6.3	-0.00560325350270988	0.00970864767982267	-0.906977023287516	0.378177213727437	-0.907001092643145	0.378049248749538	0.0125087476052119	0.00360276085094763
6.4	-0.00530039743208472	0.0102436575285877	-0.837946998204072	0.514221957800449	-0.837937990399098	0.514009497947527	0.0120809863314884	0.000833496256074588
6.5	-0.00445869336535147	0.0105326789576656	-0.747452582613963	0.638857290486726	-0.747552507761244	0.638685746034041	0.0114406071979737	-0.00199914913306134
6.6	-0.00370556075545798	0.0108954213140244	-0.638826978306498	0.745807772421819	-0.638974388628486	0.745662516987954	0.00996563099737607	-0.00436128494022681
6.7	-0.00238933536524063	0.011219629316419	-0.516080315067616	0.83548284489646	-0.516200440665933	0.835326344462893	0.00826936969010104	-0.006200199917846
6.8	-0.00067942998467372	0.0111107679856998	-0.380575869598378	0.905550331794524	-0.380785611344367	0.905475189574386	0.00617526739428425	-0.00764206795445016
6.9	0.000980078776522742	0.0102998604796368	-0.235267602621727	0.953829963193119	-0.235516953966534	0.953825633079806	0.00408537311885566	-0.00842930322261442
7	0.00238798481520532	0.00869954582505823	-0.084448668381699	0.977518159530381	-0.0847051701878231	0.977487667744369	0.00182627797084943	-0.0093300820050629
7.1	0.00252357133529179	0.00748606934158384	0.0666451455735399	0.979167117523249	0.066439845668171	0.979154275513811	-0.000963467806205224	-0.00896658387056015
7.2	0.00304119993557456	0.00660882757666584	0.217635976880404	0.957622238861283	0.217381927142335	0.957664939227593	-0.00286954751940095	-0.00775279809136948
7.3	0.00314636691970855	0.00545491626593557	0.363579506776736	0.912399294674659	0.363340226986069	0.912488481966599	-0.00438493528364022	-0.00625922092827957
7.4	0.00325604433227821	0.00456674586684531	0.500280894121987	0.84458012690932	0.500063181915031	0.844740053861384	-0.00546759226918828	-0.00444952840761941
7.5	0.00351352151835535	0.00300365702633968	0.62387074806487	0.75794235061401	0.62371052690816	0.758112159232366	-0.00558222412745256	-0.00289218363737017
7.6	0.00236197070916867	0.00126629948622417	0.735063479203472	0.65314907165425	0.734847895625945	0.65330781758373	-0.00611129572962251	-0.00184756124880601
7.7	0.000711079841571853	0.00102558142494101	0.82781558900971	0.531153861236952	0.827663823254182	0.531347051909064	-0.00636237511879749	-3.31819010105555E-05
7.8	-0.000367353802418881	0.00171488107334446	0.900303968571711	0.396426649538459	0.900181999942423	0.396646622938061	-0.00582354068326484	0.00176130375335367
7.9	-0.00102285795860554	0.00347425440847509	0.950918915005189	0.252825755189948	0.950876856671848	0.253050155604745	-0.00476565224594242	0.00381385261928133
8	0.00189463142632998	0.00499479607411172	0.980500302005783	0.102627011891506	0.980568381067032	0.102919262484383	-0.00197015749383714	0.00516193554866401
8.1	0.00252547185779314	0.00302297257509222	0.984652645043123	-0.0519962622666307	0.98477485586967	-0.051724460561025	-0.000932231273030695	0.00398644101707987
8.2	0.00191965269582534	0.00249903339381785	0.964481840145331	-0.204048982946818	0.964545650801002	-0.203752895196757	-0.000768400720066243	0.00410016085894422
8.3	0.00100769718804656	0.00260380607013262	0.921513415731977	-0.351081943580944	0.921649091984046	-0.350825144596494	-0.000292954437856729	0.00424535958804219
8.4	-4.24803122196067E-05	0.0036613272542338	0.856801271384689	-0.490260007871131	0.857011657773758	-0.490058559361666	-6.09951448622883E-05	0.00456107627659069
8.5	0.00126774021927448	0.00636995940495065	0.769779251680545	-0.618820540044991	0.769894450871059	-0.618693860219387	0.00188542838301592	0.00561536352732694
8.6	0.00335143472917316	0.00516387091656333	0.663731230061477	-0.729821746483892	0.663927488799289	-0.729635210437828	0.00354386067830919	0.00364134245441976
8.7	0.00334271540134525	0.00454954910834885	0.542998488890243	-0.82388170214516	0.543279614116275	-0.823770569258231	0.00372087614337505	0.00254098920659768
8.8	0.00363392613483402	0.00423126923147572	0.408902810469213	-0.898740869251948	0.409108700182277	-0.898685052029197	0.00381265864745601	0.00161366608770963
8.9	0.00367339496599972	0.00413868844736772	0.263869625806231	-0.952004057442285	0.264110952998203	-0.951862066141501	0.00385180669941091	0.00096396094228958
9	0.00502426895019269	0.00429020302624986	0.112516141709456	-0.980037942472246	0.112878167390187	-0.980006125531963	0.00458047943457686	0.000646329121595125
9.1	0.00629792210510638	0.00334074747500291	-0.0395104622178493	-0.986369324530474	-0.0391575280925796	-0.986381445690969	0.00514584832368205	-0.000310693469885341
9.2	0.00804986273939344	0.00232282921147514	-0.192641141142163	-0.969133580406366	-0.192284067812135	-0.969202023995331	0.0061912007980456	-0.000864353354492642
9.3	0.00987688911738281	0.000476869408219284	-0.341398629600105	-0.927627796011042	-0.341040179655528	-0.927690137242633	0.00750040618557309	-0.00193484424117509
9.4	0.0114171683651109	-0.00197132642112984	-0.48121507959693	-0.862809430338381	-0.480890229575564	-0.862955745906759	0.00850947131111166	-0.00324817543774968
9.5	0.0129590306167699	-0.00671534958942952	-0.608103390758096	-0.778706497244546	-0.607895694521023	-0.778842641732415	0.00953629130230128	-0.00611426567086059
9.6	0.0091867595131296	-0.0115142799365344	-0.723235854972335	-0.675649957340924	-0.72296062630577	-0.675833703902912	0.00659998367624001	-0.00822617346619323
9.7	0.00525962928044496	-0.012645132749082	-0.819896171135053	-0.554693614763941	-0.819647092886397	-0.554962664865232	0.00478371052407752	-0.00803594642319111
9.8	0.0016935379512958	-0.0128628622916235	-0.896118472912883	-0.420457577968952	-0.895906850539794	-0.420732587431054	0.00345707022015376	-0.00769220922397657
9.9	-0.00174771124923	-0.0109649085041713	-0.950512996838919	-0.276811513683138	-0.950397960683038	-0.277141739339809	0.002529861045993	-0.00657531794124868
10	-0.00136708563123758	-0.00953873377626568	-0.98412461374071	-0.125955701562146	-0.984041608454752	-0.126336556266659	0.00400952264923951	-0.00619570959755891
10.1	-0.00423982071296766	-0.0108637352736799	-0.991478273272804	0.0302256654144145	-0.991456487062196	0.0297443284927484	0.00269384303506851	-0.00783086544074959
10.2	-0.00778593150771173	-0.00941957192496122	-0.974387833348894	0.183992474951457	-0.974371244920215	0.18353953739715	0.00134588780006807	-0.00745964937079949
10.3	-0.0108004748952755	-0.00663620941481041	-0.934183893092708	0.333208491028875	-0.934318433847812	0.332663827994218	0.000413066673835032	-0.0072892994549029
10.4	-0.0129982999819992	-0.00286480392428709	-0.87178767703011	0.474965547366147	-0.872053512038765	0.474424752053141	-0.000508554696698993	-0.00705331142964427
10.5	-0.0124134672079324	0.00210633437041555	-0.786214133866746	0.606549503711999	-0.786499168917313	0.606159411329634	2.84129049028866E-05	-0.00671232915064007
10.6	-0.0104640363472573	0.00426206037155721	-0.68117421942826	0.720196351924085	-0.681603428104463	0.719850424105895	0.000205263867638575	-0.00815679791544952
10.7	-0.00890523170350327	0.00607184414227947	-0.561196407768385	0.817066226650188	-0.56161078641886	0.816776374917175	-0.000245581690756301	-0.00937040403420339
10.8	-0.00735828367636323	0.00715965034909057	-0.427183698884475	0.894544736603808	-0.427697839948789	0.894314704762609	-0.0012829456801137	-0.0105806735405715
10.9	-0.00585717849406926	0.00861648620901063	-0.282003561756004	0.950273517741158	-0.28249486956058	0.950223414588255	-0.00278592060569641	-0.0112680377636095
11	-0.00344425933749868	0.00910456771517355	-0.130330495151327	0.980483686806541	-0.130879413433841	0.980481267296254	-0.0040040880972694	-0.0118391147605516
11.1	-0.00164919670085961	0.00966493914000358	0.0223083044727312	0.9890175294233	0.0216761368843377	0.989102327704198	-0.00570913960725925	-0.0118874274603397
11.2	0.000814791372011237	0.00977028368361288	0.175978718624508	0.973911900267488	0.175457250032258	0.974117564102677	-0.00677113046104529	-0.0115594689622182
11.3	0.00337893371891285	0.009550407092291	0.325499628630964	0.934392440170445	0.325068747869432	0.934657994293936	-0.00745886820248026	-0.0109664538878088
11.4	0.00618196719792308	0.00903814925779319	0.466522743332672	0.87144733596666	0.466057594613018	0.871710385496637	-0.00779802325487078	-0.00995398582978756
11.5	0.0102350603746718	0.00644959714843827	0.594654308994258	0.789221690275836	0.594295918773314	0.789642555277144	-0.0072785175631569	-0.0104524151649971
11.6	0.0103452705918433	0.00239102817518528	0.711384584007777	0.687763367715796	0.711118102014447	0.68824774227183	-0.00960202490741761	-0.0106598293945379
11.7	0.0100798386573969	0.000579398709563043	0.809878845593238	0.568069969052263	0.809640575501065	0.568495646480915	-0.0110533328200088	-0.00926949716410626
11.8	0.00947332126972125	-0.00102680824389755	0.887860393968994	0.43469678912539	0.887678431017506	0.435252985992078	-0.0122749692195385	-0.00781840758145897
11.9	0.00904546965716391	-0.000623594780744859	0.944000960996952	0.292051248628371	0.9439654281055	0.29259828539014	-0.0132853374127521	-0.00520697311471967
12	0.0122415181082847	-0.00140781933375188	0.979615992296862	0.141947955599538	0.979606531360056	0.142430939926461	-0.0111851096502588	-0.00349037403885931
12.1	0.0122209196014449	-0.00588323775199605	0.988840095204177	-0.0137445043213088	0.988819045435516	-0.0132684179995467	-0.0116919669596945	-0.00410239428236158
12.2	0.0103161460726159	-0.00898011897670162	0.973600351744713	-0.167169723536482	0.973711187840087	-0.166731096103335	-0.012458190315591	-0.00321846391077971
12.3	0.00761047740643144	-0.011183642877735	0.935378480200645	-0.315938070227801	0.935567985734408	-0.315579714581391	-0.0130903950545548	-0.00231399457960637
12.4	0.00364664701133087	-0.0119805652198122	0.875528976951777	-0.457677871252422	0.875665670424171	-0.457302041520108	-0.014062218152638	-0.000763490884593102
12.5	0.00195055503535304	-0.0105168080959038	0.791943079272188	-0.589661476568874	0.792408023485215	-0.589271992179295	-0.0132190057739523	0.00157860608892906
