# GHZ S RI R 50
0.2	-0.000211839783134216	0.000145596468462513	0.948623448252107	-0.308007434999639	0.948397261841894	-0.308149229508842	-4.01864724391947E-05	0.000290366516581339
0.3	-0.000251259999766182	0.00040600738266575	0.888552637352734	-0.451620779187501	0.888415260750825	-0.451673923679395	-4.58743022243011E-05	0.000146202695026905
0.4	4.05799312786322E-05	0.00047008571356177	0.806928083658022	-0.583746646640337	0.806968118600461	-0.583886177263649	0.000216815123308398	4.93297145399362E-05
0.5	-0.000128469817090349	0.000449022566827717	0.70621649236039	-0.701740121204146	0.706105964133143	-0.701835878959468	0.000265947786269951	-0.000260960609300401
0.6	-0.000168193187626571	0.000671871282935951	0.588389801547019	-0.80273426741124	0.588200394564892	-0.80273712975613	0.000140863670131196	-0.000344849258335718
0.7	-0.000105997832870394	0.00104006598531543	0.456320769923691	-0.883925557883144	0.45624680261873	-0.883959886654542	0.000203476631781544	-0.000558966778103034
0.8	0.000158642200871554	0.00106203791623783	0.313414534025972	-0.943771658053208	0.313296145380111	-0.943685010018177	0.000100361677893512	-0.000759226484086997
0.9	0.000354080576503723	0.00132305849691331	0.16310774054912	-0.980626234431879	0.162958930015383	-0.980583424586446	-5.43220763133545E-05	-0.0010134556738214
1	0.000456191074053704	0.000920560650430304	0.00883098987229966	-0.993841639224329	0.008713059484548	-0.993811993630513	-0.000414882022890971	-0.00166511892234845
1.1	5.81225294235935E-05	0.00127071747449918	-0.144999208841185	-0.982871572106072	-0.145645823526386	-0.982836411630302	-0.0016488072924652	-0.00143529005422706
1.2	0.000316489297992662	0.00109001205255079	-0.296442384299317	-0.948024364257376	-0.296435428176705	-0.948079957827204	-0.00196758211279798	-0.000626620911195008
1.3	0.000810723509722451	0.000405605358208684	-0.439784313630767	-0.890273642550575	-0.439876263866569	-0.890298070415518	-0.00109310386008912	0.00073085075756117
1.4	0.00139587205626608	-0.00122467641610864	-0.572388193924696	-0.811168657199586	-0.572461878979555	-0.811069252717394	0.000669920530479283	0.000873131638521843
1.5	0.00145692000702499	-0.00219171921005093	-0.691410747488656	-0.712071714880108	-0.691435302327203	-0.711999791142804	0.00193154011587234	8.6924337552582E-05
1.6	0.00176772046872765	-0.00294559803548432	-0.79276583468312	-0.5963615855569	-0.79319454398895	-0.595862089386591	0.00228241129736225	-0.000969074069611776
1.7	0.00163590563198521	-0.00355642876640835	-0.875410950682757	-0.466056093636008	-0.875714824229002	-0.465567265728019	0.00187712447118726	-0.0020253772122057
1.8	0.00112336383017695	-0.00402652301844141	-0.937114457283794	-0.324109076216312	-0.937129879485531	-0.324099636055385	0.000959235539133909	-0.00294075646557419
1.9	0.000552859927377563	-0.00427642015074198	-0.975936831109921	-0.174572897565234	-0.975981233202165	-0.174625550022095	-0.000109762755162022	-0.00363627361290735
2	-0.000614026582996186	-0.00416997518444821	-0.990599614163582	-0.0216783942584533	-0.990694452146598	-0.0210304591844122	-0.00196806610769566	-0.00351547109145334
2.1	-0.000799193452175993	-0.00358837957649258	-0.981824285347546	0.133198164968698	-0.981923259096115	0.132714974970621	-0.00248575489804279	-0.00252176230985066
2.2	-0.00140079509110264	-0.00372348811160815	-0.949416493083641	0.283157766202753	-0.949455295164689	0.283291203493981	-0.00283916114955152	-0.00225373807403257
2.3	-0.00213803156504371	-0.0035335006365525	-0.893920393670489	0.426916123386647	-0.893756989177773	0.427004538391545	-0.00334191724981563	-0.00204250852177044
2.4	-0.00310715365324464	-0.00328856127337465	-0.816213208565642	0.560804742099781	-0.816503453012852	0.560343542831809	-0.00386179439591561	-0.00198975406385408
2.5	-0.00428722471004402	-0.00241919237153697	-0.719775852260293	0.680308504843092	-0.720076966693819	0.679928224752687	-0.00477199706692318	-0.00198122506670476
2.6	-0.00467088229903179	-0.000886137764706129	-0.60597280082112	0.783610722867655	-0.605893624296224	0.783551551721456	-0.00508796192811374	-0.000884343877092853
2.7	-0.00417557830443338	0.000208988703449339	-0.476900496349688	0.867980995623664	-0.476871094002994	0.867995103915107	-0.00486604906607633	-0.000191876517834696
2.8	-0.00351745312464538	0.000738479623886396	-0.336702093908534	0.93130759562804	-0.336584251049176	0.93139212930601	-0.00435575907454928	0.000374041253130353
2.9	-0.00235963853283599	0.000965896279880937	-0.188330173161505	0.97221846202816	-0.188325827766825	0.972273167384689	-0.00360834371402905	0.00101205399725559
3	-0.00131759367432705	0.000906281300850031	-0.034933344917901	0.989976849428967	-0.0349977065513803	0.990048081696084	-0.0024288021722266	0.00166376899964208
3.1	-6.22162209631421E-06	0.000455606261030378	0.118462724607599	0.983255831648183	0.119109778016059	0.983338038353759	-0.000948828374552059	0.00185659874833964
3.2	0.000637424027503341	-0.000350229536113482	0.270071835008158	0.952767587463404	0.270061819090188	0.952807108064008	2.41730104167994E-05	0.0014762075182557
3.3	0.00138520822258277	-0.00121415847001218	0.415291347102462	0.899147180646077	0.414668892794742	0.899427156558759	0.00109977303115433	0.00091063261740202
3.4	0.00151659698872628	-0.00221879367457171	0.549410711290231	0.82424850138694	0.549325630020609	0.824363529237361	0.00190776725887475	-0.000106694157688733
3.5	0.00174931960084474	-0.00282511346425525	0.670689191904922	0.728818293981163	0.67070336386105	0.728844492692559	0.00221464321482313	-0.000970800595333201
3.6	0.00180952525260078	-0.0038020684933426	0.774914105410759	0.616350124778999	0.775336523370418	0.615957294327419	0.00259172816127354	-0.00200822333874255
3.7	0.00155110252313777	-0.00484821080203345	0.861590072908778	0.488199736448699	0.861596810463076	0.488326177895404	0.0024858921376575	-0.00315556695299141
3.8	0.000785181361884929	-0.00567260703284968	0.92692141314989	0.348547057132623	0.926949408448121	0.348730289581229	0.00186221911363971	-0.00434472994674426
3.9	0.000213064176344161	-0.0063496764372735	0.969894439468861	0.199825425955589	0.969794965813193	0.200412822434041	0.0005525511123425	-0.00565623708324578
4	-0.000921923533594242	-0.00643436306332018	0.988876497675338	0.0478172259149589	0.988958341727643	0.0478603670273405	-0.00132406056897761	-0.00613330105743725
4.1	-0.00111557880462493	-0.0066206892539599	0.984781124077346	-0.106012984641776	0.984718872599669	-0.105949126439422	-0.00257514950445544	-0.00607737048627852
4.2	-0.00207027439570181	-0.00718578937059641	0.956225218978948	-0.258321913773738	0.956417436773258	-0.257752223327513	-0.00390812145571313	-0.00618342955238372
4.3	-0.00308989973241878	-0.00782849237873021	0.904845841135889	-0.403118227081082	0.904846673573985	-0.403099695372671	-0.0054308513333276	-0.00631083414402307
4.4	-0.00471174666696781	-0.00820522467966961	0.831358864481792	-0.538512444784581	0.831278917716447	-0.538496688854333	-0.00729869395255322	-0.00618894799716114
4.5	-0.0066051062829559	-0.00811651453625465	0.73819221618832	-0.661148218056831	0.738068316198235	-0.661002401897809	-0.00970723313123941	-0.00556599115206291
4.6	-0.00813392173818225	-0.00706585562574373	0.626542992312737	-0.768179535458853	0.626527946007155	-0.767949952513479	-0.011591744352243	-0.0037510662174585
4.7	-0.00922448264267744	-0.00656088607309658	0.499451603880846	-0.856264166269168	0.499568321120939	-0.856019053935184	-0.0130319821577316	-0.00210935872183726
4.8	-0.0104521168374112	-0.00563362945029954	0.360210509554826	-0.923326529678149	0.360504176382494	-0.923137282452109	-0.0139719039003737	-9.22519311302841E-05
4.9	-0.0111758153453152	-0.00487579215604362	0.212586735352787	-0.967831466647892	0.212846762686907	-0.967779911651818	-0.0141889205918447	0.00224073294724633
5	-0.0117982973429602	-0.00384120931298972	0.0599043229541383	-0.989337676147442	0.0600626419417038	-0.989209325080194	-0.0135602797241143	0.00489866302439987
5.1	-0.0117938581140046	-0.00321526526221622	-0.094457633018437	-0.986515031293471	-0.0941360624284245	-0.986451767608089	-0.0118121256243684	0.00728632698586651
5.2	-0.0121142077947428	-0.00236496681794209	-0.246519421486043	-0.959963699986589	-0.246091081425987	-0.960085413365363	-0.00989244721720757	0.00929926083494442
5.3	-0.0123838836708666	-0.00159031634219407	-0.392631749152784	-0.910240211113474	-0.392341787137427	-0.910585088489873	-0.00750631713695607	0.010929211007387
5.4	-0.0126506038882658	-0.000192703631705902	-0.529591824872059	-0.838381383946902	-0.529455280054199	-0.838671469248203	-0.00519494327515861	0.0120058095466739
5.5	-0.0124474414356157	0.00159175968466341	-0.65350321185121	-0.745467692181368	-0.653453054987575	-0.745782202530162	-0.00290657972578598	0.0132254463338324
5.6	-0.0116028149336652	0.00281127055567187	-0.760926368565129	-0.634990715220506	-0.76093976546772	-0.635161444353997	0.000264751726850169	0.0135186159608735
5.7	-0.0115075377711298	0.00374864829149887	-0.850491962644708	-0.509196997991685	-0.850468058070202	-0.509372506816834	0.00286663830502374	0.0131999733694635
5.8	-0.0113596072961221	0.00535096713831482	-0.919263917771176	-0.370728742117778	-0.91930879649727	-0.371021639403541	0.00529014205779832	0.0125112514012855
5.9	-0.0110888540364262	0.00684303312148182	-0.965668612230857	-0.223330446467497	-0.96578931895364	-0.223378492205097	0.00716331711426237	0.0112688563485702
6	-0.0103600257529669	0.00937102206864635	-0.988354317146211	-0.0708165824091928	-0.98835124588925	-0.0708854304986235	0.00815332192013846	0.010666169241085
6.1	-0.00802794207762467	0.0108331766141857	-0.987601340604544	0.0834335592080589	-0.987604544043409	0.0833299447578451	0.010528826070446	0.00979440461109282
6.2	-0.00625478212178979	0.0112517618951604	-0.962558896041712	0.236132670003342	-0.96260717370206	0.235950475976781	0.0124049277528621	0.00742340489753116
6.3	-0.0051536070078372	0.0111480803594206	-0.913999438978234	0.382837886200963	-0.914023919368372	0.382708882671753	0.0133656324851025	0.0043247143049577
6.4	-0.00443416619472736	0.0111000473564175	-0.843217630776673	0.519960797674165	-0.843209015664508	0.519746698811297	0.0131625625453624	0.000891288224820337
6.5	-0.00387904695230534	0.011174146473435	-0.752510698416973	0.644535414546425	-0.752611568946915	0.644362660268255	0.012116937906652	-0.00212346681362376
6.6	-0.00285633980609746	0.0113706222574516	-0.642997264976689	0.753867663978525	-0.643146308559968	0.753721413396924	0.0107727912687325	-0.00464840299990908
6.7	-0.00176734597113314	0.0113224259990389	-0.517845570977398	0.844434038332612	-0.517967251999985	0.844276568107844	0.00875268066949829	-0.00675100156905582
6.8	-0.000396243317200544	0.0111560255174911	-0.380294201746614	0.914405271809291	-0.38050594563597	0.914330301453921	0.00632646406542121	-0.0081403588382773
6.9	0.000846072509564368	0.0104478867604018	-0.233767382021714	0.962347236033322	-0.234018756515972	0.962343758436458	0.00390700162194146	-0.00878461477527363
7	0.00225148379652949	0.00964236176841901	-0.0810645191045125	0.987234050743393	-0.0813236061403934	0.987204367190602	0.00171272411127161	-0.00896670177377235
7.1	0.00308603953968418	0.00828048705271553	0.0734267337440074	0.987312345341915	0.0732195562350654	0.987300690593296	-0.000439907431657638	-0.00879653189486863
7.2	0.00367151712017988	0.00706698833087986	0.225794534930087	0.963681140225029	0.225538776530836	0.963725886873536	-0.00230640252281735	-0.00791880321080587
7.3	0.00372755239807725	0.00566149890932308	0.372700546291317	0.916775707047783	0.37246007578189	0.916867239697402	-0.00388483718407127	-0.00668409650095556
7.4	0.00355536607786308	0.00445519011262746	0.510705033431294	0.847495767983584	0.510486805724121	0.847658628744919	-0.00527952978249426	-0.00521144101400347
7.5	0.00306479747230938	0.00335730485078448	0.635948172123282	0.757148337747887	0.635788498589798	0.757320972268276	-0.00611869459923731	-0.0031674025580381
7.6	0.00268379723825002	0.00221318379589777	0.745302663037314	0.649199437132476	0.745087551146813	0.64936113358659	-0.00594155831479642	-0.00163030150140588
7.7	0.00149534254830397	0.00150923156947436	0.836877294801688	0.525576680211412	0.83672670013787	0.525772256719706	-0.00587436845195608	-0.000266837884975937
7.8	0.000566701699969885	0.00156904154894731	0.908294148220171	0.388978313225956	0.908173889422771	0.389200495065211	-0.00531724387671889	0.00102198724409501
7.9	-0.000463552541429336	0.00210520554408829	0.957225177452	0.242948375303267	0.957185513639507	0.243174064109655	-0.00474463352983435	0.00218000686841482
8	-0.000746303568347101	0.00380262656226917	0.982661979271501	0.0916520641661359	0.982733430383089	0.0919438441028594	-0.00475440575494755	0.00385748041114862
8.1	0.000276823128690107	0.00481016590781793	0.985077831627358	-0.0619213561708033	0.985202885854094	-0.0616505188073546	-0.00293740711049826	0.00561108593851836
8.2	0.0011637368020706	0.00506099148399926	0.963153636211683	-0.214200504745987	0.963220564250017	-0.213904836850506	-0.00117419440505564	0.00623634961020053
8.3	0.00164753662128878	0.00520459409376343	0.91771347023307	-0.360982743224448	0.917851904550316	-0.360727410110367	0.000668283982306075	0.00620415628634375
8.4	0.00212170617331292	0.00507777836769717	0.850222847110933	-0.49857325740327	0.850435035741548	-0.498374365662167	0.00227987152886854	0.00522605885494234
8.5	0.00185555740646976	0.00557342106477712	0.762949574861709	-0.624249258263539	0.76306564144955	-0.624123817514448	0.00262351151587013	0.00417351537714433
8.6	0.00306806222795194	0.00616158854176815	0.6563244584889	-0.735204497434682	0.65652223896886	-0.735019961337746	0.00356465056243293	0.00383246665495298
8.7	0.00394737654380934	0.00600779401161226	0.533971149953462	-0.827666562018264	0.534252843711702	-0.827558373605735	0.00451493307844638	0.00292511051456613
8.8	0.00500853504088301	0.00559974115382366	0.399171289670171	-0.900135197540063	0.399377137054758	-0.900081503824544	0.00509886234689364	0.00174932431046765
8.9	0.005896078453266	0.00483208560870406	0.2548450804805	-0.951116503365026	0.255086825799857	-0.95097704800204	0.00561681453570055	0.000451141816495623
9	0.0068475057902529	0.00379407696691769	0.10370100314915	-0.97911672628809	0.104062603042272	-0.97908814667881	0.00570523191683055	-0.00079608251064512
9.1	0.00789806978771036	0.00256797857808535	-0.049387809337846	-0.982661922678833	-0.0490361813022536	-0.982677584823477	0.00597237804536869	-0.00176100878252727
9.2	0.0089565262073147	0.000898964399156347	-0.201125834715513	-0.962808748932386	-0.20077106723298	-0.962880330336594	0.00636101140581895	-0.00266213692094199
9.3	0.00976156780992852	-0.00101829459259031	-0.348024770932479	-0.919830115364147	-0.347668706792114	-0.919895371065817	0.00685762108274327	-0.0035754002880731
9.4	0.0100080511767701	-0.00364620591729705	-0.486571076202354	-0.854483521415782	-0.486249052658977	-0.854632018109547	0.00687810460871211	-0.00493129547135721
9.5	0.00946530285903466	-0.00555514032861438	-0.612871364335259	-0.767813430362284	-0.612666297638725	-0.767950995767244	0.0063334689382966	-0.00510227815644727
9.6	0.00846864350202361	-0.00852472144013421	-0.723930635217656	-0.663443878367952	-0.723659326729763	-0.66362878450538	0.00624104072012775	-0.00587536473383709
9.7	0.00588402674311649	-0.0103302734901745	-0.8177939689705	-0.543120238927735	-0.817549245889659	-0.543389168594358	0.00555541725214688	-0.00658557273232516
9.8	0.00308317438476656	-0.0113238253622699	-0.891872665916453	-0.409525307642843	-0.891665106627792	-0.409799689228597	0.00477269828570284	-0.00704885988936697
9.9	-0.000149720693396853	-0.0112141563740759	-0.943975172792397	-0.266038166947708	-0.943864056280195	-0.26636628352031	0.00383681609387663	-0.00753235728753657
10	-0.00292081582408237	-0.00969229336707981	-0.973185563450928	-0.117056741404858	-0.973106415648565	-0.117433619716342	0.00237118697423785	-0.00682602727437069
10.1	-0.00452349403009567	-0.00852088983893048	-0.979607060169604	0.0350631337785403	-0.979588053199518	0.0345873688813125	0.002466399304975	-0.00617087713851353
10.2	-0.00660060472738474	-0.00741682337133487	-0.962106947396159	0.186412574402603	-0.962092680463871	0.185964865967616	0.00243662187286943	-0.0062621066666986
10.3	-0.00881892058442436	-0.00540546402203605	-0.921322883712375	0.33303785160256	-0.921458057951776	0.332500436482064	0.00208710018442973	-0.00679888949110823
10.4	-0.0105643759520411	-0.00307051084380151	-0.858526370982188	0.471232515102077	-0.85879027987742	0.470699857158083	0.00144964264556414	-0.00772845124439779
10.5	-0.0117584510286502	0.000529768509094783	-0.775817915134293	0.598573630215124	-0.776099202911715	0.598188695457801	0.000366995485831419	-0.00830345092113038
10.6	-0.0108544158480278	0.00377369531053412	-0.673320340973528	0.711823409182678	-0.67374456265331	0.711481466852902	-8.35019985769397E-05	-0.0085854801430123
10.7	-0.00934258055215529	0.00629065558074407	-0.554778471955822	0.807362174709574	-0.555187928125866	0.807075639351855	-0.000298130755299024	-0.00922883304933835
10.8	-0.00750000495380099	0.00773792233114287	-0.42298558261632	0.883327356838911	-0.423493292855854	0.883099551402628	-0.000892468647822497	-0.0102824059313965
10.9	-0.00589910458436551	0.00920920120650841	-0.281292036123214	0.93831836632264	-0.28177742546779	0.938267504994767	-0.00227949045496872	-0.0111097033827666
11	-0.00360775208281837	0.0102256685756029	-0.131932362412492	0.970815389951591	-0.13247607208501	0.970811405158107	-0.00356337777463766	-0.0113893962378122
11.1	-0.00109934330345092	0.0107734492272452	0.0201878397622924	0.978920768681289	0.0195619909330063	0.979003488403826	-0.00465290477445782	-0.0116382104702026
11.2	0.00155494578158995	0.0105263123260654	0.171327988512392	0.963934363497675	0.170811546680128	0.964136338492845	-0.0056292590662224	-0.0117795318776877
11.3	0.00411375388854315	0.00982292121183605	0.31846232519669	0.925900046438249	0.31803491111722	0.926161149527106	-0.00641615000681311	-0.011794096656706
11.4	0.00627050560689226	0.00844385155481757	0.458452833845437	0.86543030079495	0.457990836120391	0.865688913464006	-0.0075209393079497	-0.0116014348222702
11.5	0.00864328540429655	0.00739376389592989	0.586767808254022	0.78320538948361	0.58641174127719	0.783621215391983	-0.00858366328219278	-0.0104858108945111
11.6	0.0105956945974178	0.00441658485517381	0.70049980138859	0.683206641810536	0.700234180016178	0.683684479922334	-0.00911310497629578	-0.00992346965821036
11.7	0.0111957140081637	0.00182029263695583	0.798078538772984	0.566639306137401	0.797840381583012	0.567059122974639	-0.0100184417607106	-0.00938986673200315
11.8	0.0109479084609699	-0.000788059879028419	0.876369508302079	0.435904370804158	0.876185894160754	0.436453930174433	-0.011168536597338	-0.00879955422042818
11.9	0.00994387712404702	-0.00246762247977689	0.933001899497071	0.294698580342993	0.932963516543369	0.295240025351202	-0.0128834719785784	-0.0077283547349325
12	0.00891607285169015	-0.00297080784171876	0.967104603623573	0.147447138789753	0.967091722495438	0.147924397064338	-0.0145343141625834	-0.00536622073579248
12.1	0.00918821207393704	-0.00413235995503862	0.978830471965943	-0.00405750758532699	0.97880504207118	-0.00358650757939547	-0.0143896546965192	-0.00288519838561095
12.2	0.00839413955577262	-0.00596085094066388	0.9664858197874	-0.155809657930656	0.966591216655779	-0.155373876427884	-0.0139389894131807	-0.000944559634236777
12.3	0.00722437527041963	-0.00743321784379154	0.930688231548393	-0.303514120627368	0.930872393454628	-0.303156849706725	-0.0130038840483952	0.000513772635443109
12.4	0.00518771170919917	-0.00907064396808896	0.872941414883825	-0.443783268329788	0.873072672115617	-0.443409221797838	-0.012112947101592	0.00109148570755772
12.5	0.0025460594311319	-0.00933200480048567	0.794398760190593	-0.574203525037065	0.794854815327275	-0.573810376244553	-0.0122054668677842	0.00170277979434456
12.6	0.000703048493576064	-0.00944208877538922	0.695596649100778	-0.690885217430975	0.695941688541129	-0.690575306262276	-0.0116148684349791	0.00264185630610606
