# GHZ S RI R 50
0.2	-0.000295041063136438	6.1857596751025E-05	0.948744587853307	-0.307901464789385	0.948518402382791	-0.308043302367815	-0.000134791369083508	0.000219425601190464
0.3	-0.000372711970321658	0.000336178317466276	0.888752590371322	-0.451519119626748	0.888615205212732	-0.451572296144258	-0.000181671185129036	0.000104131961527072
0.4	-9.84557067299462E-05	0.000442298931810167	0.807193048370594	-0.583698501389826	0.807233118030704	-0.583838050325611	6.79677389239183E-05	6.38144832351306E-05
0.5	-0.000203362522676613	0.000428958612466706	0.706477567891185	-0.701732185077167	0.706367037964865	-0.701827981162413	0.000184403380104259	-0.000236504503984203
0.6	-0.000287656493320394	0.000607304748716026	0.588734086803184	-0.8027522402808	0.588544639094499	-0.802755154076033	1.96547421208073E-06	-0.000351010340684897
0.7	-0.000240080265909065	0.0010140532421208	0.456697667535506	-0.884053818018353	0.45662368842321	-0.884088177217979	5.1946148989745E-05	-0.000497922881388185
0.8	3.57775479407772E-05	0.00106306704685091	0.313772921598426	-0.943998706624361	0.313654470446702	-0.943912061946014	-2.07049972566155E-05	-0.000642594480993347
0.9	0.00025454004388644	0.00139144823527639	0.163426834595761	-0.980914882506384	0.163277962077331	-0.980872098172277	-0.000105701026317832	-0.000810583978320257
1	0.000612463354977435	0.00100940060692025	0.00919292129839936	-0.994211359602666	0.00907493595817652	-0.994181745432391	-0.000143344147272424	-0.00148757485767572
1.1	0.000276361522868473	0.00106098965533219	-0.144749543085276	-0.983424234935583	-0.145396501496384	-0.983389269644682	-0.00133096408139099	-0.00164120152201812
1.2	0.000528308720650149	0.000627678166264235	-0.296334563897653	-0.948624419436479	-0.29632758820878	-0.948680041281539	-0.00171561710868408	-0.00113300376870795
1.3	0.000802163346295651	-0.000410924695190905	-0.43978863424101	-0.890904225461446	-0.439880630233071	-0.89092869278374	-0.00115048593593487	-0.000133597977326903
1.4	0.000992435251722613	-0.00204522309768636	-0.572497028231048	-0.811852089717309	-0.572570789940908	-0.811752645685961	0.000144322455356059	6.62648579480553E-05
1.5	0.00079909726516131	-0.00284339663293162	-0.691784681877989	-0.712822882860773	-0.691809274977969	-0.712750907500149	0.00109470754005212	-0.00046650045081634
1.6	0.00108313149759102	-0.00307461615267049	-0.793326608625349	-0.596902141548622	-0.793755699796918	-0.596402297111704	0.00145382109497997	-0.000836855361659347
1.7	0.00123429131705241	-0.00349564158968285	-0.876033099432759	-0.466490850543146	-0.87633724889764	-0.466001679238786	0.00144582561034841	-0.00164176915709355
1.8	0.000922089518329345	-0.00391477147113413	-0.937842071274716	-0.324455839569915	-0.937857506791396	-0.32444639316919	0.000828100725393893	-0.00252171486459992
1.9	0.000613311708791088	-0.00419371664242327	-0.976826999613704	-0.174770258940529	-0.976871440509664	-0.174822961445161	9.01614313020746E-05	-0.00332240158660475
2	-0.000542529544705362	-0.00450511904499989	-0.991505177845966	-0.0215097362749083	-0.991599978896111	-0.0208611935423688	-0.001810369622539	-0.0037156293291703
2.1	-0.000999149243106063	-0.00373662330538549	-0.982578449999561	0.133438241609616	-0.982677568190358	0.132954685064171	-0.00265754504128494	-0.00247606121407848
2.2	-0.00146051644849101	-0.00377180144531048	-0.950196487407131	0.283529038848721	-0.950235305020957	0.28366259630554	-0.00281827527354651	-0.00206866372172101
2.3	-0.00208224111582806	-0.00359889990597991	-0.894650224093286	0.427504101835807	-0.894486649886621	0.427592562596888	-0.00313226162466338	-0.00189992062463888
2.4	-0.0028591911232988	-0.00341049191948971	-0.816745969144894	0.561619500876574	-0.817036649749023	0.56115799062746	-0.00339246869898395	-0.00200438161770855
2.5	-0.00392847037242703	-0.00308350777331663	-0.7200288855418	0.681046036410063	-0.720330348971839	0.680665601319446	-0.00425526086757911	-0.0027201959918964
2.6	-0.00490347476789266	-0.00170194515710493	-0.606287589164774	0.7844273795263	-0.606208360565127	0.784368138250106	-0.00535891586828069	-0.00179968885143971
2.7	-0.00470481207244372	-0.000347730064884439	-0.477000926993292	0.868962939440904	-0.476971492176685	0.868977049240926	-0.00554797916278648	-0.00075888058660198
2.8	-0.00405592036316762	0.000484169059922418	-0.336527270963954	0.932298570236013	-0.336409281490405	0.932383118721341	-0.00508041700432259	0.000218690184846681
2.9	-0.00274492758724529	0.000831487695073676	-0.187948971210466	0.973055790487991	-0.187944593063564	0.973110534903364	-0.00416732555824909	0.00106097025725601
3	-0.00168770813920794	0.000786220564255127	-0.034618343687762	0.990826741868332	-0.0346827349975137	0.990898056811848	-0.0029622008360107	0.00180604581227358
3.1	-0.000226073433495641	0.000426770376039924	0.119184010659904	0.984193676601238	0.119831778903503	0.984275573181089	-0.00125857427004873	0.00216101045927262
3.2	0.000528635054706273	-0.000458348970255875	0.27103909002583	0.95343429741632	0.271029094832532	0.953473861714481	-9.65862393867972E-05	0.00171843364593799
3.3	0.00130933841697201	-0.001382655327885	0.416339197182268	0.899568167050826	0.415716445555411	0.899848862123222	0.00106315908111957	0.00106580292176805
3.4	0.00149615114073695	-0.00250151308410163	0.550471844879813	0.82455638430565	0.550386773756932	0.824671571418423	0.00193464123875569	-0.000118347989668857
3.5	0.00144192779998627	-0.00324532757076055	0.672128276847618	0.729009433866029	0.672142489344864	0.729035648774337	0.0018828939696319	-0.00112173609448691
3.6	0.00150930571550911	-0.00386725103016391	0.776348812481474	0.615902057693585	0.776771097030687	0.615508361803227	0.00228088012618556	-0.00171286083900117
3.7	0.001447064222103	-0.00488285447909731	0.862799727211263	0.487472935437949	0.862806626368012	0.487599457153677	0.00244860876588719	-0.00281260528511009
3.8	0.000817158794424889	-0.00573500565709203	0.927989901791145	0.347613559899655	0.928018147330535	0.347796881274088	0.00202721680751189	-0.00407076858215906
3.9	0.000465653984103407	-0.00654436820451333	0.970895670626306	0.198605853637811	0.970796951560657	0.199193826105697	0.000967759579338752	-0.0056181265188355
4	-0.000855597114790177	-0.00713785157172681	0.989411491456198	0.0460316755881918	0.989493451393742	0.0460746866591731	-0.00121581977262956	-0.00672044316298412
4.1	-0.00142560118801127	-0.00703239831595031	0.984695245716913	-0.107595313850776	0.984633090987213	-0.107531350775833	-0.00297420781789999	-0.0062914201282156
4.2	-0.00231137109767209	-0.00741779569951676	0.955915871744473	-0.259810503750223	0.956108979862422	-0.259241056317415	-0.00424357994093671	-0.00613148079498615
4.3	-0.00324215488998399	-0.00793842808594948	0.904232664349366	-0.404600998633353	0.904233526830826	-0.404582467462633	-0.00564428546807533	-0.00609897105222951
4.4	-0.00456460057844614	-0.0082259988428493	0.830252062930165	-0.539926349477585	0.830172157547249	-0.539910451751646	-0.00715228319374886	-0.00590480229798099
4.5	-0.00621175936649452	-0.00869545167792118	0.736652266254389	-0.661865121984905	0.736528679640513	-0.661719209018981	-0.00935188113107149	-0.00596152686661109
4.6	-0.00823130046810143	-0.00779433127856671	0.625279987683931	-0.768625400158796	0.62526524019383	-0.768395902942344	-0.0118939332330508	-0.00426718112105635
4.7	-0.00953523517249306	-0.00717736814507947	0.498052642444885	-0.856589886267449	0.498169649202107	-0.856345040260342	-0.013619652798587	-0.00239689435829445
4.8	-0.0109030515139281	-0.00606826759008352	0.35865802390353	-0.923320872997459	0.358951797758263	-0.923132162459444	-0.0147026189091229	-8.06854142012282E-05
4.9	-0.0116248249173413	-0.00509749282399271	0.211092679437813	-0.967287816471258	0.211352553170772	-0.967236658103623	-0.0148720320131172	0.00256420514439619
5	-0.0122843261315902	-0.00391820571679529	0.0589576379678742	-0.988706035684663	0.0591159645369533	-0.988577918511146	-0.0142405984299755	0.00545913275306018
5.1	-0.012022065697151	-0.0029473244489199	-0.0956581619041652	-0.985904637078216	-0.095336671342745	-0.985841811531521	-0.0120852001082355	0.00830937684004365
5.2	-0.01189166800678	-0.00214655525141715	-0.247638186497446	-0.95890821743644	-0.24721033331002	-0.959030421215914	-0.00950570497369245	0.0102438077473902
5.3	-0.0118301868044028	-0.00171852552912127	-0.393405655955622	-0.908906792190579	-0.393116393370407	-0.909251712582601	-0.00665218431641804	0.0113680697117924
5.4	-0.0120463150897816	-0.000950236391975639	-0.529976152121162	-0.837091818649059	-0.529840025677811	-0.83738178463013	-0.00431659899164103	0.0115901580718979
5.5	-0.0128246590980141	0.000482104666262234	-0.654138874322805	-0.744202781070114	-0.654089160552953	-0.744517188966782	-0.00325476713307421	0.0124056090007828
5.6	-0.0119940524234101	0.00259156577133518	-0.761132721968427	-0.63307881895106	-0.761146380110341	-0.633249342737136	-0.00012867050121104	0.0137769921089012
5.7	-0.0114711506354219	0.00359833276085822	-0.85006347022056	-0.507312154008912	-0.850039845242281	-0.507487460000924	0.00302013449616948	0.0135623739814926
5.8	-0.0110027341670231	0.00507904654316189	-0.918428411759244	-0.369060144252711	-0.918473592115525	-0.369352572193292	0.00586134666751147	0.0126621965287602
5.9	-0.0103133527013587	0.00609392469216274	-0.964681313364881	-0.221800827937582	-0.964801922423341	-0.221848655854324	0.00816246355190644	0.0107246074190481
6	-0.010305719825319	0.00745449224944313	-0.986701755152664	-0.0690329738035756	-0.986698804732535	-0.0691017036319103	0.00810220286694974	0.00874486640924791
6.1	-0.00902200102267339	0.00957480610239664	-0.985298336318671	0.0843166159435517	-0.985301644824404	0.084213237102283	0.00911280665504787	0.00877702136555843
6.2	-0.00739917861801507	0.0106277249969236	-0.960304368354729	0.23640088308408	-0.960352689096692	0.236219118685635	0.0108136124454664	0.00731757424646708
6.3	-0.00611777145676232	0.0111025137697177	-0.911777927675456	0.382710652061081	-0.911802452690308	0.38258193999397	0.0120697980290031	0.00499882478771991
6.4	-0.0048899882661212	0.0113169106708901	-0.84081658504025	0.51947165387526	-0.840808172324065	0.519258044875674	0.0125557943185637	0.00188821814683516
6.5	-0.00398869673484777	0.0112239561442283	-0.75012843775218	0.642887778787686	-0.750229066959122	0.64271555725619	0.0119881632318898	-0.00130162270306496
6.6	-0.0026678475256406	0.0112145069318241	-0.641583328681491	0.751930165581492	-0.641731985681869	0.751784240724688	0.0110897228259485	-0.00409523743257582
6.7	-0.00160269228709465	0.0107556031033028	-0.516733939630018	0.842450307087691	-0.516855327289579	0.84229318709651	0.00909277283396182	-0.00675453138832102
6.8	-0.000493249247482633	0.0104427330666062	-0.379456386934834	0.91213059122214	-0.379667605377194	0.912055782846852	0.0063468167372291	-0.00839558320699356
6.9	0.000537107923042447	0.00977112696495454	-0.23352131229571	0.959590218507507	-0.233771990540921	0.959586646008598	0.00361054957654513	-0.00902946537175872
7	0.00173871076139048	0.00924327646267633	-0.0820076973278102	0.984823994231978	-0.0822661422157956	0.984794082856335	0.00113107064442908	-0.00886514331059047
7.1	0.00285637542526702	0.00809150372313519	0.0725199244172537	0.985392402008167	0.0723131706069802	0.985380611138236	-0.000736507666540559	-0.00840475892681974
7.2	0.00360384337385707	0.00681053085482416	0.224532226769828	0.961729398112216	0.224276998370139	0.961773843302038	-0.00242139507290482	-0.00754710357324921
7.3	0.0037348335008159	0.0053308082356492	0.370861626146458	0.915075763412567	0.370621608217274	0.915166827980496	-0.00389908152373189	-0.00634455569334405
7.4	0.00360930204954986	0.00401806171771981	0.508373573593001	0.846534702723402	0.508155545789376	0.846696898929128	-0.00523615174392732	-0.00494840647555867
7.5	0.00281786137117131	0.00289487033185797	0.634217577071353	0.756847561171311	0.63405792289256	0.75701977840599	-0.00637186902664214	-0.00286740942226692
7.6	0.00259367871414149	0.00223823452974997	0.743311252396161	0.648579919038174	0.743096418314866	0.64874112026531	-0.00589471525016181	-0.000741379637273239
7.7	0.00192957184829461	0.00154952527261546	0.834501300638754	0.525492169089393	0.83435078352515	0.525687156834206	-0.0051127906247056	0.000648065611365132
7.8	0.00146639099556808	0.00132498047602414	0.905953034038145	0.38955154516207	0.905832683971969	0.389773117518862	-0.00392681754766234	0.00148706128523749
7.9	0.000916534829183395	0.00118616169355616	0.955317371003913	0.243914218782576	0.955277450720669	0.244139482849405	-0.00295685214618463	0.0015640764167156
8	-0.000304692457733703	0.00133816858704639	0.980466109790767	0.0923920781893565	0.980537129463023	0.0926833001581078	-0.00409938580145824	0.00149807428965509
8.1	-0.000484591588098403	0.00308333145610502	0.982752706970523	-0.0599934138098905	0.982876963906329	-0.0597230210835948	-0.0039672305902276	0.00415886858859081
8.2	0.000176364849334339	0.00397595087715772	0.961594147293681	-0.211655433623184	0.961660291581586	-0.211360241906622	-0.00250797497667941	0.00567498631202242
8.3	0.000676329913297869	0.00469510773815733	0.916843725804581	-0.358295909593137	0.916981343485721	-0.358040734388487	-0.000615210233064336	0.00641988322800364
8.4	0.00170270981075743	0.00507010035687819	0.849616803992375	-0.495918306380421	0.849828190661359	-0.495719364090573	0.00169302646687522	0.00603496551713043
8.5	0.001799611109342	0.00475139447886804	0.762827452922926	-0.620642771196702	0.762942894147596	-0.620517313552014	0.00238956384639402	0.00405939844905668
8.6	0.00232019167486857	0.0057390866165336	0.657699254900875	-0.731946777106221	0.657896133151474	-0.731761883426972	0.00247787563628325	0.00431635950213366
8.7	0.00346534056114944	0.00604399995290879	0.535858458582573	-0.825042124927771	0.536139483777996	-0.824933205903897	0.00381779690827032	0.00414393306503712
8.8	0.00486505667244572	0.00584844020087206	0.401392901041024	-0.897886861707692	0.401598346590402	-0.897832615861331	0.00504170409100861	0.00335120231899757
8.9	0.00632871785829503	0.00521990998739721	0.257625257447048	-0.948986979262903	0.257866216025694	-0.948846918697251	0.00652707982486513	0.00215668987038439
9	0.00787682513398361	0.00364342747694072	0.107582384852709	-0.978147539198075	0.107943665925518	-0.978117520663163	0.0074649227999586	8.72987974976775E-05
9.1	0.00920175820569452	0.00183455739217178	-0.0461095533666661	-0.982768390307822	-0.0457578939265344	-0.982782879505522	0.00808914906554985	-0.00173692477814579
9.2	0.0100813337290892	-0.000860889955861124	-0.197942804587691	-0.963237339347848	-0.197587887398041	-0.963307748495169	0.00825401793063238	-0.00397103856939709
9.3	0.00991452523889855	-0.00333990629522635	-0.344696624594194	-0.92086461259184	-0.344340405694204	-0.920928594840374	0.00756447553283424	-0.00569535962592388
9.4	0.00932891882158443	-0.00588519847213696	-0.483259588349272	-0.856686458978262	-0.482936875280856	-0.856833697972808	0.00641224088774566	-0.00711405357301238
9.5	0.0074171526215816	-0.0071582561245656	-0.61105961006141	-0.770862556577909	-0.610853817215903	-0.770999604883394	0.0039915386968392	-0.00646271576697121
9.6	0.00702342801149151	-0.00842794400073323	-0.722495771619465	-0.666089230398769	-0.722223711830285	-0.666273467319815	0.00447228088761903	-0.00504119832386778
9.7	0.00534040181923451	-0.0100772535035895	-0.816683050348007	-0.546221715431174	-0.816437254220334	-0.546490064469083	0.00491638396568291	-0.00539412460619578
9.8	0.00311235962531412	-0.0111222311024684	-0.891569942064645	-0.413021792108365	-0.891361208852628	-0.41329580598324	0.00493555870312724	-0.0059120502959204
9.9	0.00065392863496846	-0.0114826552599273	-0.944889937017381	-0.269355458776338	-0.944777633720273	-0.269683837173845	0.00492945831885114	-0.00709165082403013
10	-0.00291007939917394	-0.0112223785204605	-0.97414801909753	-0.119308661254761	-0.974067956889671	-0.119685839145894	0.00240647205338448	-0.00788254975886335
10.1	-0.00501172930395217	-0.00898552178214524	-0.980757809436815	0.0322359872778839	-0.98073739088341	0.0317597688883854	0.00182481876157245	-0.00590459391621095
10.2	-0.00654521596167851	-0.00760635477364062	-0.96420226187026	0.18385989400061	-0.964186645106759	0.183411509959465	0.00249541128890715	-0.0055711181939389
10.3	-0.00827169120109032	-0.00564206047554144	-0.923949740248861	0.33125995719102	-0.924083764874293	0.330721164568968	0.00284704822332052	-0.00620498976165065
10.4	-0.00931571842951751	-0.00374413837506102	-0.860922303756202	0.470239266185163	-0.861185549195863	0.469705180610281	0.00305302488622195	-0.00782663385097017
10.5	-0.010624617756604	-0.00166759618205623	-0.778240667809673	0.596912015952597	-0.778521116468619	0.59652592385702	0.00166679038363764	-0.0102587715573717
10.6	-0.011057190697569	0.00117735261648207	-0.676953935917691	0.711006482746731	-0.677377864500134	0.71066248997913	-0.000451511222786299	-0.0109515649641494
10.7	-0.0106202421318437	0.00421212951395111	-0.558433323412961	0.807650354848338	-0.558842910739458	0.807361953525696	-0.00195956506368114	-0.0109347906173236
10.8	-0.00905502736827038	0.00665101968234353	-0.426340893122705	0.884349605249379	-0.426849231443451	0.884119908257549	-0.00292537876573814	-0.0108017567534351
10.9	-0.0071025013331419	0.00872848089629567	-0.284559627853015	0.939614039715673	-0.285045954015939	0.939561698603435	-0.00399749018318652	-0.0108458437863904
11	-0.00465816920848206	0.0100043484880706	-0.135696661474989	0.973577793236504	-0.136242157939954	0.973571931744256	-0.00512252607892283	-0.0106939687266463
11.1	-0.00166798205811619	0.0107965885847842	0.0180328825352363	0.982759030484679	0.017404420549669	0.982840642960658	-0.00564102170612031	-0.0105036937733127
11.2	0.00131682709378394	0.0104532188838101	0.170139039590612	0.967775681508383	0.169620332326699	0.967977421735082	-0.00612246396832525	-0.010629699990015
11.3	0.00413182863229567	0.00965281443483446	0.317874970474963	0.929846520083191	0.31744552033469	0.930107764638113	-0.00648395579900588	-0.0107425079082524
11.4	0.00658045313554335	0.00781678287424218	0.45852704181339	0.869962469135633	0.458062595529773	0.870221178647253	-0.00719744729020511	-0.0111246925196566
11.5	0.00802498905237991	0.0065101799202702	0.5890379066722	0.787672243568775	0.588679677717712	0.788089853374105	-0.00936303060507027	-0.0102321889144275
11.6	0.0103480014011345	0.00451627036844721	0.703224683423088	0.68618501119972	0.702957855878296	0.68666475509066	-0.00936606736155989	-0.00840516001030834
11.7	0.0116507154054638	0.00189552332909769	0.801047092332718	0.569205237237346	0.800807824477273	0.569626638503485	-0.00924447383754089	-0.0079072349392985
11.8	0.0120384912002098	-0.000951637306205635	0.879976492761286	0.438047084806846	0.87979191853539	0.438598934674861	-0.00948812667885559	-0.00777281195602852
11.9	0.011924306394556	-0.00356223589650543	0.93759905780149	0.295793265892793	0.93756067855443	0.296337332533453	-0.0102452600515804	-0.00821413709293012
12	0.00959243521959258	-0.00602997082651732	0.97103489563144	0.146557014798964	0.971022683415493	0.147036122469566	-0.0136414211806078	-0.00816966645149668
12.1	0.00870123164743479	-0.00648881950534843	0.982204049482258	-0.00487477447965318	0.98217891837933	-0.00440212871613855	-0.0150905543489815	-0.00487511444496567
12.2	0.00752442255795053	-0.00792515909799182	0.969981864854562	-0.157368584486227	0.970088097436689	-0.156931261934758	-0.0152264644119173	-0.00232945932728575
12.3	0.00604377767802123	-0.00884797464266742	0.933745244701146	-0.306122495566609	0.933930664634847	-0.305764157000358	-0.014676208935888	-0.000100757120570317
12.4	0.00434929480323291	-0.00986746310453611	0.874668258801139	-0.447188894549756	0.874800789903394	-0.446813972551383	-0.0133652690989986	0.00122280242467306
12.5	0.0018137729853964	-0.0107411669311005	0.79527332795614	-0.576484396781327	0.795730870480483	-0.576091049520129	-0.0134708513718381	0.0011569167635138
12.6	-0.000601925525065377	-0.0100996973715769	0.696937077910823	-0.693769057584351	0.697283515461744	-0.693458591023062	-0.0136195729290459	0.00318126178870321
