# GHZ S RI R 50
0.2	-0.00025431108572442	-4.1368431274825E-05	0.948963378099708	-0.307902202785832	0.94873715489045	-0.308044085145038	-0.000104301712876292	0.000127817360953054
0.3	-0.000391192288161956	0.000199238535215413	0.889001190441857	-0.451572087600149	0.888863774917466	-0.451625286230959	-0.000213084043053524	-7.79876356883482E-06
0.4	-0.000194446067182848	0.000307754445128118	0.807463466116136	-0.583828399786235	0.80750355510167	-0.583967987944993	-3.6970053019278E-05	-3.26647738285447E-05
0.5	-0.000331646705651617	0.000376532375537872	0.706710683220112	-0.701987433806581	0.706600113345472	-0.70208326124354	4.99961490308131E-05	-0.00024886793891758
0.6	-0.000376853077340171	0.000537767124199232	0.588868238199975	-0.803037333485263	0.5886787314588	-0.803040236689206	-0.000105085006596101	-0.000367923071929974
0.7	-0.000370880796316091	0.000932750767643354	0.456782847695119	-0.884366872159564	0.45670884263818	-0.884401237261008	-9.51094648533504E-05	-0.00050070187586519
0.8	-0.000125750585357268	0.000999019907484426	0.313783510470287	-0.944349639890495	0.313665028017882	-0.94426295393574	-0.000181245636017897	-0.000602132992080048
0.9	5.53403121523253E-05	0.00134801068031331	0.163325008907994	-0.981277603289033	0.16317609219822	-0.981234780324078	-0.000262283828364114	-0.000732142324298114
1	0.000440254110877723	0.00110898493276113	0.00898999878041285	-0.994487522868915	0.00887198698805887	-0.99445787614349	-0.000212573479833987	-0.00130649996460909
1.1	0.000413354762653537	0.00104305204608929	-0.144953476418591	-0.983666407057413	-0.145600604254043	-0.983631323922509	-0.00110649701431521	-0.00165432529492625
1.2	0.000796982486530741	0.000199636022713995	-0.296608417380876	-0.948842750981168	-0.296601450652909	-0.948898390430105	-0.00141163196635773	-0.00160269231827117
1.3	0.00102579494330309	-0.00132704220918924	-0.440125793151536	-0.891046023315989	-0.440217820642979	-0.891070475255912	-0.000970951079427488	-0.00109642547604111
1.4	0.00101830790512816	-0.00320418742485076	-0.572843619175598	-0.811886410717437	-0.572917371433859	-0.81178692431379	5.8817634109252E-05	-0.00108560225593608
1.5	0.000768205120154142	-0.00397129770844538	-0.692081285820049	-0.712831905557361	-0.692105869242255	-0.712759909633782	0.000900253571188682	-0.00150271964139254
1.6	0.000800234892612606	-0.00412539393303508	-0.793701539442867	-0.596880005966787	-0.794130631970518	-0.596379912304433	0.00103399550365389	-0.00164758190639251
1.7	0.000808464341554731	-0.00422393732793899	-0.87642120852068	-0.466351537389956	-0.876725292404103	-0.465862135912484	0.000991572318686973	-0.00207603778557593
1.8	0.000487537284781616	-0.0043550450746387	-0.938191144648162	-0.324222695435794	-0.938206580945771	-0.324213241394058	0.000458773853326548	-0.00268293196198814
1.9	0.000261420649691302	-0.00435694899402175	-0.977131423463413	-0.174486313427166	-0.977175893249223	-0.174539014245617	-0.000133844429246543	-0.00327542967673708
2	-0.000556457139929005	-0.00457756170702958	-0.991841187193582	-0.0211300408386121	-0.991935766565008	-0.0204812467943802	-0.00174377331040973	-0.00366459751542363
2.1	-0.00100513806351594	-0.00403602150472594	-0.982774671005296	0.133995756852856	-0.982874072649433	0.133512121503578	-0.00263503177347062	-0.0026002719054642
2.2	-0.00157432607798709	-0.00407033470790209	-0.950213988177227	0.284121284142509	-0.950252737306968	0.284254888696401	-0.00285639199612394	-0.00215719705657238
2.3	-0.00225794599762942	-0.00384038469067259	-0.894523472789481	0.428085807919653	-0.89435982437006	0.428174185254925	-0.00316649593051164	-0.00195463401746144
2.4	-0.00306277083901337	-0.00352739460109094	-0.816496217883507	0.562195571166711	-0.816787220755849	0.561734185462836	-0.00339824340516116	-0.00202388786882536
2.5	-0.00389158657783433	-0.00308886774435394	-0.719547176419134	0.68161071387379	-0.719848935967225	0.681230489636365	-0.00407880988602024	-0.0027922740645276
2.6	-0.00473154664599699	-0.0019925892227181	-0.605644600907177	0.784765334235183	-0.605565425119767	0.784706043305739	-0.00522300065216905	-0.00217702052418784
2.7	-0.0046107885258333	-0.000841308188719413	-0.476319911345247	0.869125641183595	-0.476290472424738	0.869139728298226	-0.00558996397498759	-0.00125752300792192
2.8	-0.00407002615427613	-0.000146571306161247	-0.335816163943911	0.932306047943085	-0.335698145116692	0.932390496511618	-0.00525930898856459	-0.000320878294515221
2.9	-0.00287754695569475	0.000110542172120859	-0.187201666291236	0.972878302236349	-0.18719725088111	0.972933026105945	-0.00445513405871018	0.000504672791256232
3	-0.00196557729172458	-2.64784626691519E-05	-0.0339599309627041	0.990358076782807	-0.0340242442149205	0.990429398056271	-0.00338751996159993	0.00122917173981595
3.1	-0.000748155369565577	-0.000324402476486509	0.119631390743592	0.983639890900411	0.120278877094628	0.983721412810662	-0.0018694073797289	0.00171481072078556
3.2	-0.000127134015874642	-0.00102867215634913	0.271371056311884	0.952810979159828	0.271361085795368	0.952850528087781	-0.000763178112281113	0.00146260262297729
3.3	0.000625785065126367	-0.00173238017887948	0.41652703430954	0.898858059682528	0.41590477071457	0.899138889084495	0.000414819097667628	0.00100658972360015
3.4	0.000918801058809955	-0.00263098666467121	0.55043994380415	0.823784906364736	0.550354975943663	0.823900051350631	0.00139955208114097	-4.54017905932784E-06
3.5	0.00107135596683124	-0.00336396041419423	0.671857522345655	0.728373422727428	0.671871731645593	0.728399617093383	0.00148875993901102	-0.000998877361799195
3.6	0.00112827824158018	-0.00399053102814844	0.776048954878428	0.615359340386	0.776470900719847	0.614965770060257	0.0018882702595497	-0.00151187847130285
3.7	0.00112282077920001	-0.00492320779916089	0.862389107876357	0.486967611403154	0.862396033196062	0.487094054082605	0.00218291613036049	-0.00251269026827722
3.8	0.000578241031862056	-0.00572145923285976	0.927454729109268	0.347209753958035	0.92748299155195	0.347392950988238	0.00190695970273549	-0.00375332996749356
3.9	0.00034313629130099	-0.00646156112300816	0.970292321128029	0.198376608054292	0.970193727035706	0.198964212879784	0.000992600106682986	-0.00532460123541407
4	-0.000717653483530311	-0.00715162574815649	0.98888155621012	0.0458830444453527	0.988963477150119	0.0459260219806923	-0.00103762129584576	-0.00662914421807896
4.1	-0.00136962988105922	-0.00729935546473911	0.984040875086886	-0.107712162833863	0.983978772466411	-0.10764822919462	-0.00299566376301482	-0.00638236851707623
4.2	-0.00242224040328828	-0.00770399849925555	0.955196861938829	-0.259733291781833	0.955389896425119	-0.259164277083865	-0.0044379691345708	-0.00616586813292932
4.3	-0.00348194855142745	-0.00813449419771486	0.903559167442442	-0.404331064003341	0.903560029830082	-0.404312546420776	-0.00593963157789699	-0.00600231059115675
4.4	-0.0048708013723085	-0.00820821229580446	0.829686513136942	-0.53955301146961	0.829606662355073	-0.539537124997904	-0.00745832407790578	-0.00561116514100772
4.5	-0.00627751658226101	-0.00844835047868114	0.736049030946306	-0.661417931746547	0.735925548022077	-0.6612721201319	-0.00944990081565711	-0.00555051660088074
4.6	-0.00808845897866722	-0.00764621882008473	0.624787840565135	-0.767921547715409	0.624773091374113	-0.76769224982871	-0.0119282185350421	-0.0039369992484264
4.7	-0.0092875351579321	-0.00713033093428208	0.497771186114969	-0.855778741448757	0.497888052738278	-0.855534084264859	-0.0136190137740741	-0.00206705650615698
4.8	-0.0105974758606889	-0.0061537560203349	0.35855955244474	-0.922472312402739	0.358853040086622	-0.92228369545047	-0.0146582835221437	0.00022760165971766
4.9	-0.0113013523298305	-0.00529517502717838	0.211128357180551	-0.966396628242728	0.211387992745358	-0.966345455450778	-0.0147710327913485	0.00285248299067708
5	-0.0119318141176328	-0.00428240558089856	0.0592760819977005	-0.987690232267929	0.0594342005618057	-0.987562183325417	-0.0140751895018359	0.00566291447062905
5.1	-0.0117863394869921	-0.00344906017966655	-0.0950130223981361	-0.985068827287333	-0.0946918576733153	-0.9850058762427	-0.0119129365201569	0.00848411769574899
5.2	-0.0117417382341975	-0.00267562443961058	-0.246832438839351	-0.958264153073222	-0.24640486570919	-0.95838598757991	-0.00923327518600041	0.0103747359514885
5.3	-0.0117124481638338	-0.00223227463113462	-0.392463703772631	-0.908441276256171	-0.392174438593773	-0.908785719079981	-0.00628660332347743	0.011378693149519
5.4	-0.0118373673735171	-0.00143265171667171	-0.528871011386105	-0.836835488202327	-0.528734762792676	-0.837125108320241	-0.00387959210443055	0.0114315539351069
5.5	-0.0124980819012446	-0.000307517168673526	-0.652959444738622	-0.744366659454355	-0.652909448467669	-0.744680809427786	-0.00292928606452985	0.0118939940078507
5.6	-0.0120035474597467	0.00165492355939189	-0.760144817559634	-0.633497127965837	-0.760158304750412	-0.633667580106518	-0.000164392053292565	0.0133047743196453
5.7	-0.0117054182294032	0.0027641169259596	-0.84918579173376	-0.507897308502358	-0.849162009012689	-0.508072511337527	0.00287648690621025	0.0132319662849758
5.8	-0.0113949080548715	0.0044303010610841	-0.917670967745246	-0.369841488193787	-0.917715831764796	-0.370133840447913	0.00565917343471017	0.0124408622393388
5.9	-0.0106976092857211	0.0057718781068298	-0.964133632691261	-0.222810401361498	-0.96425415090076	-0.222858349111925	0.00798597843142522	0.0106372823156946
6	-0.0103265690472033	0.00717436982246806	-0.986518541169788	-0.0700684893036639	-0.986515518448347	-0.0701372081158302	0.00801519334628397	0.00851148563069078
6.1	-0.00910162057897507	0.00911575012949026	-0.985227427117541	0.0833098800655027	-0.98523063083953	0.0832065143984842	0.00869109544124506	0.00856654261940316
6.2	-0.0075562612053754	0.0101867529085235	-0.960449738833935	0.235317000013344	-0.960497853957838	0.235135204266556	0.0102925855484603	0.00736877882844328
6.3	-0.00633853032131214	0.0106931870818852	-0.912235674550669	0.381650386628469	-0.912260049514971	0.381521644446564	0.0115875751354862	0.00525215269238137
6.4	-0.00512971480378322	0.0109393174421185	-0.841572716185241	0.518622332640351	-0.841564059725634	0.51840869066197	0.0122271476193948	0.00222589037041314
6.5	-0.00422020531944251	0.0107943944219722	-0.750906255746407	0.642282403828237	-0.75100673660479	0.64211004969037	0.0117891071286371	-0.00104907916552201
6.6	-0.00298357445433419	0.0107809185594052	-0.642516771000069	0.751397597753687	-0.642665302296536	0.751251484524643	0.010928980267888	-0.00390928577654683
6.7	-0.0019415545385903	0.0103781638522315	-0.517808101431679	0.842168976461325	-0.517929359625118	0.842011674818203	0.0089535890281667	-0.00665035798953434
6.8	-0.000800796332666373	0.0101313165685384	-0.380543025456348	0.912130317574585	-0.380754257056237	0.912055263112239	0.00618247701418072	-0.00833646528390925
6.9	0.000335767944102789	0.0094726060831366	-0.234500234874993	0.959787165852153	-0.234751017132976	0.959783362228523	0.00344200415894664	-0.00899268024726283
7	0.00156943473166202	0.00887041692400213	-0.083033845617728	0.985084936767578	-0.083292350449643	0.98505475316644	0.000894462034124277	-0.008835910619958
7.1	0.00267068575373899	0.00774168208272646	0.0714992146330014	0.985990783370097	0.0712923643072339	0.985978764061081	-0.000989866964598347	-0.00827411949245064
7.2	0.00344789023832587	0.00648701242074501	0.223697655001461	0.962558884560339	0.223442221822529	0.96260309878396	-0.0026390319455091	-0.00734733660497957
7.3	0.00362247558568001	0.00503521006165899	0.370219984025185	0.916038743757997	0.369979719525593	0.916129635926264	-0.00406483247315502	-0.00606998174542894
7.4	0.00358538083172908	0.00374518440781294	0.507850785915842	0.847602992836501	0.507632451366947	0.847765074867334	-0.00528301936152	-0.00461085710251563
7.5	0.00291325723315098	0.00251909878865237	0.633905789255531	0.758215452645495	0.633745803022046	0.758387637117486	-0.00630325628691943	-0.0025657220103769
7.6	0.00264965875087949	0.0018029934557245	0.743443573877473	0.649977128179085	0.743228360213878	0.650138285485371	-0.00577369797723578	-0.000373232121162629
7.7	0.00200237553830381	0.00113170532358097	0.834931277803532	0.526809826274388	0.834780422834686	0.527004889577465	-0.00477635003316516	0.00102173222661124
7.8	0.0016007874107062	0.000933107262589245	0.906648482310405	0.390790754119876	0.906527800475696	0.391012474604697	-0.0033756130102517	0.00174661215347649
7.9	0.00118205305096471	0.000839477533330859	0.956343977582535	0.245081588483631	0.956303804939757	0.245307110279034	-0.00225886575170376	0.00154107624451686
8	0.000315045433879269	0.000669452219036577	0.981911872944435	0.0931941984249966	0.981982805805614	0.0934859161040491	-0.00333408242442977	0.000933754507771363
8.1	-0.000136630916121163	0.00200520243078265	0.984253102166684	-0.0595671887523305	0.984377402885047	-0.0592963266458376	-0.00383352368209601	0.00332430916648946
8.2	0.000161437262539562	0.0027941048764374	0.963201807640267	-0.211537398420555	0.963267917528952	-0.211241712633788	-0.00282964106081669	0.0049595823747455
8.3	0.000304421715725592	0.00361829691436291	0.918529917731856	-0.358584564988364	0.918667680259773	-0.358328907205663	-0.00126818999501207	0.00599500651127037
8.4	0.00110490944786083	0.00436238458852239	0.851232229671911	-0.496747353701196	0.851443986041709	-0.496548023626378	0.000943240563769713	0.00606428279196858
8.5	0.00150063275622933	0.00434347717717844	0.763985273719077	-0.621862858759403	0.764100938279723	-0.621737213627772	0.00193066377029264	0.00428406767668344
8.6	0.00213000768142457	0.00517551743895866	0.658585520790968	-0.733283600559133	0.658782760520773	-0.733098455615219	0.00197651410507581	0.00455954054303395
8.7	0.00323102639884551	0.00538419285505638	0.536435982185376	-0.826573687802801	0.536717502882399	-0.826464691696164	0.00338002070986838	0.00454574524118188
8.8	0.00449565630524422	0.00512164742786326	0.401567498928326	-0.89953318930101	0.401773301582337	-0.899478963682796	0.00473571175841342	0.00384349032996422
8.9	0.00577800378942164	0.00456886788684319	0.257331142345476	-0.950559462491848	0.257572553013515	-0.950419367254887	0.0063913722476895	0.00269730348759785
9	0.0073293874877519	0.00313209813893392	0.107099880838109	-0.97946664749888	0.107461642963507	-0.979436819594691	0.00756200962579512	0.000522939313497345
9.1	0.00866343843645582	0.00140444076426478	-0.0468293839894184	-0.984089423724714	-0.0464772505033205	-0.984104167722675	0.00827854068596679	-0.00145893041621222
9.2	0.00965441064905166	-0.00121261429463292	-0.198987819950304	-0.964370598458957	-0.198632483143245	-0.964441389256118	0.00852460386755557	-0.00389787506903367
9.3	0.00962228313999185	-0.00365000766039164	-0.34595845327586	-0.921689044011782	-0.345601852474153	-0.921753428706625	0.00777694933938369	-0.00580932252878332
9.4	0.00933883028407962	-0.00612520737978666	-0.484542613859906	-0.857194968756683	-0.484219678518884	-0.85734265308801	0.00661019208336813	-0.00729878921548649
9.5	0.00769101808891592	-0.00779155780055346	-0.612432335536149	-0.771312537748403	-0.612226401443553	-0.771449920569628	0.00400961177588671	-0.00687202441347694
9.6	0.00712954102325025	-0.00928080427588695	-0.724072966097983	-0.666178201120176	-0.723800756749653	-0.666362944621169	0.00429356464031671	-0.00522442199275526
9.7	0.005326929975894	-0.0110012979315336	-0.818227474525307	-0.545945079861764	-0.817981693051499	-0.546214009859296	0.00482926054095313	-0.00546717354073048
9.8	0.00296251683211876	-0.0120207865558028	-0.893011989215224	-0.412470163693135	-0.892803335972151	-0.41274471290539	0.0049254707999682	-0.00596465682799065
9.9	0.000517927752704409	-0.0121822704888956	-0.946294853535116	-0.268608232693758	-0.946182788221028	-0.268937120342383	0.00506163622653076	-0.00717133036292301
10	-0.00277883911443246	-0.0121334027420812	-0.975560869272641	-0.118091459037504	-0.975481235093332	-0.118469231477186	0.00255900048306619	-0.00838724609342427
10.1	-0.00516149892915652	-0.0101321416856673	-0.981783333462355	0.033816961434063	-0.981763642984707	0.0333401882733219	0.00153192572902007	-0.00641709401074551
10.2	-0.00695734312921275	-0.00871971550928431	-0.964886108995914	0.185661859397184	-0.964871226241002	0.185212988214641	0.00206965271597487	-0.00591594670865072
10.3	-0.00889212147530835	-0.00662669559225133	-0.924251213946328	0.333267227238817	-0.924386351180952	0.332728151106707	0.00238995310289873	-0.00645892637089652
10.4	-0.0100513619512163	-0.00448645577304641	-0.860724887737607	0.472457454611093	-0.860989483436479	0.47192343228108	0.00260794184425161	-0.00805609045220185
10.5	-0.0113435443484231	-0.00230087207093646	-0.777239755691615	0.599020696591641	-0.777521242635843	0.598635064616304	0.00118685047485028	-0.010822296865357
10.6	-0.0117215190458537	0.000596969128786767	-0.675536158323512	0.712698653415616	-0.675960962528353	0.712355521081568	-0.00131943890022735	-0.0113590762421979
10.7	-0.0112912064540101	0.00380227483371557	-0.556674520444472	0.808991424896944	-0.557084799498297	0.808703914990401	-0.00305538633491206	-0.011027964413738
10.8	-0.00958958328140542	0.00640693609961989	-0.424264898113238	0.885268333875792	-0.424773728943685	0.885039829042533	-0.00398803584734192	-0.0105268022892568
10.9	-0.00741501870905105	0.00852891294322614	-0.28222299242963	0.939930840144869	-0.282709257342866	0.939879672253815	-0.00486696232069798	-0.0103458837761435
11	-0.00478546755465586	0.00967862297567108	-0.133543694094606	0.973202011119279	-0.134088831442914	0.973197308088169	-0.00581278163137923	-0.0101230570949275
11.1	-0.00173328344351703	0.0103639088714944	0.0200127944329004	0.982045378101068	0.0193849308889012	0.982128208399424	-0.00615843121250865	-0.00982867247015607
11.2	0.0012807361546595	0.00992764248392008	0.171944816388505	0.966626449733642	0.171426947562466	0.966829065648552	-0.00643751961948191	-0.00993100146793162
11.3	0.00411980479941752	0.00909465100239206	0.319357952033594	0.928273731124786	0.31892945094136	0.928535543152663	-0.00659289814500646	-0.0100483876024046
11.4	0.00669306702962963	0.00726037449293299	0.45946902762329	0.868102999265579	0.459005598114702	0.868362194612069	-0.00706444231183938	-0.0105248329372388
11.5	0.00820120761811854	0.00565072810902031	0.589589629157141	0.785910004064613	0.589232429568718	0.786327700261845	-0.00926525052378588	-0.0099314420898358
11.6	0.0103029107836051	0.00357958790566204	0.703510552947531	0.68426583056456	0.703244802002389	0.684745447163711	-0.00933640682183063	-0.00796558736731956
11.7	0.0114707934432561	0.0010473686885962	0.800887555410831	0.567247650955228	0.800649239976692	0.567668876244376	-0.00903751451366891	-0.00740270430955959
11.8	0.0118094509726407	-0.0015865117822525	0.879391408199797	0.436215403474142	0.879207859783052	0.436766759976131	-0.00906201623145797	-0.00729087886267751
11.9	0.011920045544212	-0.00383273375678522	0.936789137376306	0.294229210152697	0.936751497236695	0.294772637667571	-0.00947826317188377	-0.00780699020106817
12	0.0102716536840847	-0.00656138503880532	0.970055213688307	0.144919578861719	0.970043735151458	0.145398113026296	-0.0126360445765557	-0.00847475525535858
12.1	0.00947703878270689	-0.00745893461673595	0.980699373741871	-0.00635419604722483	0.980674996442484	-0.00588223275203625	-0.0143929524789297	-0.00551076312870283
12.2	0.00817820564474556	-0.00938962191213686	0.968122148256938	-0.158484405770225	0.968228824420586	-0.158047971918376	-0.0148312313283362	-0.00329089510940593
12.3	0.006220677571462	-0.0106337305001251	0.931652072432438	-0.306819006525419	0.9318376371434	-0.30646156208598	-0.0148343623402068	-0.00121518967435887
12.4	0.00400489769561844	-0.0114723759508335	0.872405562347668	-0.447517918149635	0.872538346777024	-0.447143886373187	-0.0140108319824823	0.00038876482878573
12.5	0.00145300513726941	-0.0120896218814315	0.792699592798375	-0.576184383655945	0.793156590272822	-0.575792531861468	-0.0142329196893324	0.000532346907910122
12.6	-0.00101940707312547	-0.0114095109868274	0.694605720012765	-0.692725811803418	0.694951602050111	-0.692416418221062	-0.0145935345512706	0.00286430651339788
