# GHZ S RI R 50
0.2	-0.000405435515922098	7.37448449196315E-05	0.948349700402322	-0.308013407336306	0.948123559794468	-0.308155144632631	-0.000247114190318482	0.000233212503899491
0.3	-0.000460798744723711	0.000347618141837571	0.888246400281062	-0.451587201780811	0.888109057600031	-0.451640315909063	-0.000272234267925156	0.000120037612093849
0.4	-0.00014724702257538	0.000426309166054424	0.806565009523848	-0.583654061896551	0.806605011153843	-0.583793549247047	1.74100365585533E-05	5.46627667556732E-05
0.5	-0.000305207972510528	0.000285902290688069	0.705832380437162	-0.701452828697184	0.705721898497277	-0.701548533341385	8.10678495726309E-05	-0.000372255406377253
0.6	-0.000524546268307524	0.000568684010346835	0.588168272593371	-0.802394046080144	0.587978942812255	-0.802396911540813	-0.000238496166173183	-0.000379894418048843
0.7	-0.000433837961902169	0.00106346355651048	0.456126317242204	-0.883568323432831	0.456052379854342	-0.883602637516992	-0.00014533115258664	-0.000433739433462791
0.8	-9.58757347211815E-05	0.00115663175431835	0.31326722548766	-0.943333893953553	0.313148891972244	-0.94324728595249	-0.000152657790130303	-0.000529277297004885
0.9	0.000273804001642101	0.00150291366513908	0.163093087525998	-0.980087407977927	0.162944353712493	-0.980044632200839	-7.90797288652128E-05	-0.000675748728829692
1	0.000774876281273043	0.000802069747212646	0.00905699811020218	-0.993405473915474	0.00893911235770465	-0.993375868544763	3.82219479075941E-05	-0.00167824792046293
1.1	0.000182893653525377	0.000778405449640756	-0.144852056133464	-0.982521793342055	-0.145498434989911	-0.982486707389175	-0.00140457906922676	-0.00191874355455644
1.2	0.000518770634135573	0.000320108219238216	-0.296209537827798	-0.947608716194012	-0.296202579486137	-0.947664282977585	-0.00171380088262078	-0.00144467262963462
1.3	0.000838348332252334	-0.000931403961963905	-0.43940175374102	-0.889901595926468	-0.439493653022934	-0.889926027915613	-0.00111413759919442	-0.000662279201975066
1.4	0.000924731818065117	-0.00273130775494756	-0.571903746987098	-0.810966152796422	-0.571977426985991	-0.810866813557089	6.6163524958928E-05	-0.000622769163162717
1.5	0.000354963089136762	-0.00333734014371171	-0.691102678507133	-0.711952754523414	-0.69112723595562	-0.711880855933452	0.000626523310491311	-0.000945699247305605
1.6	0.000882364587666733	-0.00310992026598559	-0.792279195956666	-0.596098237830494	-0.792707710147999	-0.595599052644231	0.00123217243226467	-0.000844582269060463
1.7	0.00122535404243887	-0.00354134695895803	-0.874765498611034	-0.465994401027345	-0.875069311393696	-0.465505944462773	0.001431839148492	-0.00164522305962994
1.8	0.000997653534886358	-0.00401156789678149	-0.936491429728822	-0.32426269649972	-0.936506846894184	-0.324253266859937	0.00091593695288103	-0.00257452660864583
1.9	0.000711289683851984	-0.00448057269079376	-0.975452570454947	-0.174810350314865	-0.975496936136023	-0.174862993923812	0.000211036268800119	-0.00357630664877164
2	-0.000892641864216481	-0.00484127458799278	-0.989951896476414	-0.0218375201644071	-0.990046786091076	-0.0211900228339499	-0.00214592455929006	-0.00403394204949151
2.1	-0.00123787377644638	-0.00361845338428272	-0.981168678014053	0.132588253063064	-0.981267326916793	0.13210536830685	-0.00289101792087139	-0.00233072205166038
2.2	-0.00147401946606425	-0.00369212073709716	-0.949036990174831	0.282412926833963	-0.949075851195649	0.282546262772756	-0.00281955587960743	-0.00195589794526647
2.3	-0.00200293910116573	-0.00361745955782487	-0.893706529587673	0.426162678248331	-0.893543262937824	0.426251143997907	-0.00303029056323061	-0.00188855868159517
2.4	-0.00269948373398023	-0.00362323419984909	-0.816026198522316	0.560013094968779	-0.81631601185279	0.559552016077622	-0.00320195034185979	-0.0022009038853998
2.5	-0.00409856435845735	-0.00358933865884561	-0.719812393349854	0.679117095482934	-0.720112924915484	0.678736848553067	-0.00440476035061198	-0.00323424373549924
2.6	-0.00525101934010063	-0.0018773423440918	-0.606582853486342	0.782649744775366	-0.606503643945747	0.782590682267204	-0.00571641961585356	-0.00198690256372515
2.7	-0.00491319149247425	-0.000453760057172668	-0.47760752080274	0.867276675252221	-0.477578140352578	0.867290808033843	-0.00578198422696285	-0.000862784401852848
2.8	-0.00418260917668495	0.000309289902690521	-0.337499705321088	0.930709936917454	-0.337381978476137	0.930794559185493	-0.00523657847416176	6.16125182963232E-05
2.9	-0.00289825708924467	0.000551729691186928	-0.189364204676601	0.971676401797219	-0.18935992255149	0.971731093516312	-0.0043456741999012	0.000805399351180139
3	-0.00194241570935274	0.00054932258882657	-0.0363340039591806	0.990002986074039	-0.0363984711053335	0.990074132876403	-0.00324218850233469	0.00160429474488337
3.1	-0.000394466352038255	0.000185343674066889	0.117505572744352	0.983654882745635	0.118152727347567	0.98373776488023	-0.00144111962064575	0.00198076458489165
3.2	0.000274220802518653	-0.000747992267890366	0.269196631167517	0.953192025631929	0.269186575307069	0.953231543314741	-0.000357524037009097	0.00147936247850512
3.3	0.000983592966185488	-0.00164816079950148	0.414416126251899	0.899767329152835	0.413793250637452	0.900046697685174	0.000738398564427519	0.00084721765609745
3.4	0.00107235137892309	-0.00274608556438947	0.548670006163524	0.825263749461322	0.548584750663003	0.82537872639973	0.00151259466546906	-0.000322406917731249
3.5	0.0008504705318654	-0.00320016965054476	0.670675356013905	0.729927984107015	0.670689519373544	0.72995421506571	0.00128290302482703	-0.0010357216963501
3.6	0.00126579907370642	-0.0036075162407365	0.774879200538497	0.617054462067636	0.775302021211349	0.61666171294578	0.00203032560241729	-0.00139743759634339
3.7	0.00140940842384523	-0.00472587005594397	0.861585476974056	0.489038378908499	0.861592123861769	0.489164877612365	0.00241538943409551	-0.00259612431551154
3.8	0.000896473427164512	-0.00572490907235071	0.927189605136833	0.349431073531025	0.927217480689686	0.349614430722047	0.00212198101210771	-0.00400611138831513
3.9	0.000549248783304232	-0.006809158989182	0.970515956220898	0.200457443670679	0.970416115815495	0.201045227298281	0.00107309685526524	-0.00584526321299795
4	-0.0012135799071794	-0.0075032540782351	0.989151655997211	0.0479503397762138	0.989233518084176	0.0479935030395431	-0.00157088828276328	-0.00706783997662456
4.1	-0.00180303019370496	-0.0070815522884906	0.984962491290761	-0.105399800693439	0.984900192047197	-0.105335974631112	-0.00337022101428138	-0.00631038039967505
4.2	-0.00266378633292071	-0.00741778099154407	0.95673430208716	-0.257735834860863	0.956926183812908	-0.257165814093858	-0.0046168073896811	-0.00608741320157775
4.3	-0.00358494040769097	-0.00784061690624171	0.905466051650233	-0.402738786659139	0.905466873228987	-0.402720246738156	-0.00600436046603436	-0.00594900498543505
4.4	-0.00479183485198868	-0.00811956561334892	0.831810640638038	-0.538257474250635	0.83173066714691	-0.538241751590949	-0.00738600520717314	-0.00574861818008562
4.5	-0.00663020020909021	-0.00871243148835017	0.738814131732673	-0.660359604031476	0.738690092112685	-0.660213922448799	-0.00978460731394173	-0.00595019654191868
4.6	-0.00868084173163941	-0.00745579169505276	0.627850938488769	-0.767895683028376	0.627835606682546	-0.767665977677347	-0.0123874263905488	-0.00390323445184801
4.7	-0.00977456815193343	-0.00673309209566595	0.500659080240446	-0.856476167651545	0.500775659185163	-0.856230749375542	-0.0139185624963568	-0.00190728276614956
4.8	-0.0109785509387202	-0.00562866659499975	0.361251849863715	-0.923748351494231	0.361545589303855	-0.923558714940084	-0.0148418728989846	0.000428155891153607
4.9	-0.0115656297292438	-0.00473763239425241	0.213679662721555	-0.968287288801176	0.213939817960592	-0.968235443982551	-0.0148743088747244	0.00301422050744092
5	-0.0121857618216859	-0.00358706675257834	0.0612497202160868	-0.990581111717734	0.0614080862750859	-0.990452386892019	-0.0141970570837226	0.00590649112378521
5.1	-0.0116897129160799	-0.00270990553338978	-0.09407166066314	-0.98811605096847	-0.093749619146482	-0.988052513707962	-0.0117812112276257	0.00868887146049676
5.2	-0.0114878694199856	-0.00217275038562248	-0.246503881998535	-0.961348603626752	-0.246074919744046	-0.961470325879	-0.00909433036861905	0.0103636462387556
5.3	-0.011486629728782	-0.00199632941779725	-0.392792243622095	-0.911599328624366	-0.39250176197642	-0.911944547927969	-0.00627257333053934	0.0112205684109446
5.4	-0.0119591668826601	-0.00146417622320206	-0.530064289338466	-0.839971372293779	-0.529927393142422	-0.840261862714729	-0.00418618763929708	0.0111765638020919
5.5	-0.0131500581738383	0.00032587745546836	-0.6550601625338	-0.746756474058552	-0.655010006644227	-0.747071633711191	-0.00356241025492533	0.0123407420878571
5.6	-0.0118600634058984	0.00259502367859853	-0.76230933103261	-0.635313493557112	-0.762322855094425	-0.635484432581362	2.29733167510327E-05	0.0138999168843156
5.7	-0.0112373476893504	0.00333495283877912	-0.851694503272297	-0.509352169714795	-0.851670657791639	-0.509527886951514	0.00329632178732208	0.0134267842081654
5.8	-0.0108496796762724	0.00457580705355124	-0.92052954496901	-0.370703607662052	-0.920574623298435	-0.370996826394036	0.00608437298730904	0.0122679313958546
5.9	-0.0104265321520259	0.00526040286213896	-0.967092815485542	-0.222816379040296	-0.967213717005733	-0.222864386132645	0.00813062598065181	0.00995827074198356
6	-0.011291857472883	0.00677553506074361	-0.98893172824769	-0.069567853875232	-0.988928744856902	-0.0696367395737544	0.00714705211585701	0.0080913252821939
6.1	-0.00998130878851401	0.00965001262100835	-0.987771917903301	0.0839693633212436	-0.987775176327411	0.0838657281937046	0.0081452482058875	0.00891391921965172
6.2	-0.00814316140137285	0.0109781431750946	-0.962935833522542	0.2366332131918	-0.962984207656037	0.236450949339506	0.0100703852469241	0.00775968440586395
6.3	-0.00661856920459991	0.0115991740017738	-0.91433072820445	0.383541726380527	-0.914355290702283	0.383412660603091	0.0115746371379642	0.00559545998339476
6.4	-0.00515426983581304	0.0116768286166315	-0.843090631117823	0.520768168406746	-0.843082176189404	0.520553994822477	0.0123229075064043	0.00234649415471307
6.5	-0.00425555924105665	0.0114409636601713	-0.752400580413793	0.644496269874789	-0.75250144710209	0.644323538950546	0.0117738496855904	-0.000997657406042976
6.6	-0.00290676660373448	0.0113264391629418	-0.643524153578639	0.754379074949601	-0.643673296894376	0.754232706124564	0.0109159146735805	-0.00392697541584428
6.7	-0.00191404472906204	0.010813391161422	-0.517961513074562	0.845326800379393	-0.518083353456428	0.845169244750056	0.00883724190798232	-0.00667315525546603
6.8	-0.000838014736092727	0.0105388793723854	-0.380009306345346	0.915177971329398	-0.380221221710191	0.915103074933002	0.00603159371154383	-0.00829611042409398
6.9	0.000185359763870665	0.00991494807060272	-0.233529727510416	0.962714030135565	-0.23378117930346	0.962710632059617	0.00325886763085252	-0.00888713475427059
7	0.00148513796302278	0.00954898692589882	-0.0812354888774396	0.988253154252959	-0.0814948426224724	0.988223417044363	0.000846200935774606	-0.00854852202519857
7.1	0.00278632636879235	0.00832797781719597	0.0743116161625463	0.988390918840324	0.0741041903789293	0.988379418568163	-0.000855201827628422	-0.00813113285604735
7.2	0.00357287895423401	0.00697904403480869	0.226879727818781	0.964176147503085	0.226623823565839	0.964221170968412	-0.00250599282997912	-0.00731979770350978
7.3	0.0037324702634491	0.00546751176472145	0.373665536538539	0.916998758888575	0.373425002419625	0.917090541069842	-0.00395500694934055	-0.00612830165243284
7.4	0.00360821271314697	0.00412271581735818	0.511666580125849	0.847900941002551	0.51144826755267	0.848064076090559	-0.00528208207797848	-0.00474549083347161
7.5	0.00279224952784767	0.00312940934942471	0.637958693147958	0.757130744059637	0.637799083762243	0.757303852426512	-0.00643727420396801	-0.00249490748698054
7.6	0.00288202863584159	0.00252776413844212	0.746680804940035	0.647970638693746	0.746465942200051	0.648132771772103	-0.00562412839489966	-0.000291885452504513
7.7	0.00243342679176127	0.00163633725836474	0.837639605301688	0.524287953253729	0.837489312927507	0.524483749972162	-0.00457232366987953	0.00090203573129524
7.8	0.00207634938932747	0.00112838089682735	0.908809441939138	0.387697125279095	0.908689497317091	0.387919468252701	-0.00324336620825621	0.00143078242193562
7.9	0.00142302629987889	0.000585577222809684	0.957708518050512	0.241346980074274	0.957669233134238	0.241572753032291	-0.00242248800054367	0.00101625664082502
8	-0.000469179361044205	0.00059601429306361	0.981885515579968	0.0894944177105555	0.981957510036334	0.089785759532942	-0.00421948736904475	0.00078359843472483
8.1	-0.000642481957014392	0.00265584138924515	0.983767490481028	-0.0628247653463435	0.983892656159946	-0.0625543959275782	-0.00415095965643237	0.00379186909221198
8.2	-6.65891873514121E-05	0.00348896725209088	0.962145968810547	-0.2147538509443	0.962213065687209	-0.21445849328293	-0.00279565288309293	0.00527839345092742
8.3	0.000264220886616826	0.00429598403936022	0.916709381952292	-0.361564661042914	0.916847950377532	-0.361309642322049	-0.00107127413302068	0.00613874232283386
8.4	0.00127236867340886	0.00473009123959272	0.848658879839248	-0.499042493480632	0.848871070451506	-0.498844083541181	0.0012375617178389	0.00582518118473604
8.5	0.000941886665929064	0.00443265060157117	0.761527355159511	-0.623354422409555	0.76164325190684	-0.623229218329752	0.0014990387190156	0.0038559415366582
8.6	0.00155083990588716	0.00607052254823894	0.655807887803066	-0.734706733024527	0.656005534813397	-0.734522341681411	0.00165493715841515	0.00479616806051415
8.7	0.00307961748863347	0.00648251714584962	0.533217158749833	-0.827337310228328	0.533498706467037	-0.827229327253992	0.00339480791698263	0.00476487753433227
8.8	0.00473656501358996	0.0061813282300875	0.398269504441061	-0.899469795949483	0.398475178484368	-0.899416271282218	0.00492047819979167	0.00389323999683105
8.9	0.00634872957717521	0.00531349436306039	0.254370084806857	-0.949844065866527	0.254611516521216	-0.949704833773827	0.00661146649960174	0.0024542572612306
9	0.00774316690467946	0.00350607741987694	0.104076719200115	-0.97863468410745	0.104438145277208	-0.978605961392223	0.00743481225403916	0.000116485588964284
9.1	0.0090201004978035	0.00169461902595006	-0.0499122712357344	-0.982219932792307	-0.049560800231727	-0.982235783455549	0.00802850471787238	-0.00174740808894838
9.2	0.00981989871459036	-0.00103857283342422	-0.201439429598829	-0.961758306444817	-0.201085047815488	-0.961830005884448	0.00811015137766384	-0.00406535494003201
9.3	0.00962267502545226	-0.00348041840015566	-0.34773861754807	-0.918702551581694	-0.347382980581063	-0.918767778177201	0.00735821478601487	-0.00579245086856369
9.4	0.00896587657622768	-0.00609709033649913	-0.485897169627419	-0.854025844820077	-0.485575331273353	-0.854174113541214	0.00607640513083266	-0.00730266538577458
9.5	0.00688625074390818	-0.00688782239795672	-0.613243798575168	-0.767309493667945	-0.61303885038131	-0.767447162923529	0.0034282404501244	-0.00613043799699721
9.6	0.00714840736971474	-0.00811829335947544	-0.723484954438287	-0.662117727935664	-0.723214111749864	-0.662302590531714	0.00457210125155511	-0.00460412366596577
9.7	0.00563551824301938	-0.0101204781385013	-0.81677812035474	-0.54227095433774	-0.816533765334241	-0.542539559844499	0.00522594196801185	-0.00529100125014327
9.8	0.00341845679082112	-0.0114560897553568	-0.890883022849803	-0.409150056330458	-0.890675666983009	-0.409424127502579	0.00529316641855832	-0.00611350165812867
9.9	0.000801597518992564	-0.0122215958083946	-0.943376103796212	-0.265551754276094	-0.943265169986507	-0.265879668254794	0.00511742815974823	-0.00774828136947419
10	-0.00350079291549478	-0.0118206014510243	-0.971476842561473	-0.116058353701571	-0.971398144030778	-0.116434597468336	0.00180250828094245	-0.00842983115157702
10.1	-0.00535954063005852	-0.00915001261614048	-0.977746974709035	0.0346016738926563	-0.977727812616285	0.034126826923981	0.00143147724726817	-0.00597312039865183
10.2	-0.00675199896838556	-0.00786696561819128	-0.960855105561104	0.185700220677771	-0.960840647812985	0.185253142367159	0.00226096921075571	-0.00571105219398077
10.3	-0.00844304899045168	-0.00603448882484646	-0.920169535548059	0.332460279118103	-0.92030445015817	0.331923545935023	0.0026699021338538	-0.00647907444073901
10.4	-0.00954542159061856	-0.00441169588323176	-0.856758763440331	0.470471462524159	-0.85702225576961	0.469939896038595	0.00282789267750543	-0.00840204896916899
10.5	-0.0113711628303817	-0.00246617502225729	-0.774443438862296	0.59602157158001	-0.774723502594629	0.595637337693577	0.000895403111079009	-0.0109929431987011
10.6	-0.0120371275535743	0.00071508111045081	-0.673394928473758	0.709636018358639	-0.673817940747347	0.709293938268527	-0.00150116262620424	-0.0113473340652376
10.7	-0.0116569533080306	0.0039940300544966	-0.555098551959172	0.805486473319009	-0.555507049880233	0.805199782663433	-0.00310192743998034	-0.0110559058369038
10.8	-0.0101095244823055	0.00679802935576638	-0.423554835868295	0.881406990965428	-0.424061463422947	0.881178835010702	-0.00419158787623771	-0.0105877306979696
10.9	-0.00804845037493879	0.00892316080360429	-0.282687651931758	0.936108916671984	-0.283172088865114	0.936057167562442	-0.00506925124684604	-0.0104598706519661
11	-0.00549388344526553	0.010481611634688	-0.134481201219883	0.970137611184507	-0.135024718085613	0.970132175518087	-0.00607611865867399	-0.00998917350177392
11.1	-0.00219495426206124	0.0113566057394197	0.0187177883954309	0.978845419627944	0.0180918830641828	0.978927191985487	-0.00625354268539831	-0.00966113270793478
11.2	0.000990017472987443	0.0109873991187424	0.169832678449355	0.963693714759863	0.169316204602038	0.963894832505638	-0.00647588739420623	-0.00978871559078243
11.3	0.00396476625991183	0.0101120365018979	0.316614394720773	0.925995126828854	0.316186729524248	0.926255317316259	-0.00661574687817117	-0.00999134035473271
11.4	0.00643237638286046	0.0081370095990748	0.456605626162777	0.866595795086179	0.456142975403439	0.866853423989656	-0.00728211679625353	-0.0105400065920784
11.5	0.00781849304941958	0.00714550077296597	0.586587169144241	0.784389564369834	0.586230433638242	0.784805436003168	-0.00950272222338926	-0.0093241337609608
11.6	0.0107155710149054	0.0051419920672953	0.699732770946307	0.683531042465027	0.699466862208432	0.684008514614052	-0.00888093554115907	-0.00750392569230635
11.7	0.0122647320565021	0.00220767988678573	0.797073142949063	0.567525804074556	0.796834500667265	0.56794517191008	-0.00845729396716794	-0.00736136943839676
11.8	0.0127898057164151	-0.000972168116615703	0.875828483722714	0.437257904453843	0.875644031665292	0.437807257741251	-0.00853426764603839	-0.00764625468745554
11.9	0.0126865928644277	-0.00412576934206822	0.933391713220967	0.295707483318798	0.933352836386834	0.296249269024342	-0.00923476082294373	-0.00865783791922329
12	0.00974510476477845	-0.00667137304790821	0.966476203904416	0.147523485335603	0.96646324778555	0.148000443869963	-0.0133432463102518	-0.00880241181691071
12.1	0.00905760511130791	-0.00713540633191299	0.978203859130016	-0.00271845535446577	0.978177802579267	-0.00224779427042803	-0.0146797827351489	-0.00552842074633796
12.2	0.00768208236244125	-0.00898048943285223	0.966562364649704	-0.154539538879691	0.966667184283155	-0.154103677415444	-0.0150666273860696	-0.00336449998485996
12.3	0.00567857670239303	-0.0100465583202565	0.930850549455444	-0.30264176624851	0.931034368456371	-0.302284372222871	-0.0150626985159568	-0.00124784192620937
12.4	0.00350553979222924	-0.0109308381885236	0.872402832297766	-0.442896069741955	0.872533762439953	-0.442522286864368	-0.0142241159955809	0.000220567591659109
12.5	0.000360558928517798	-0.0113355424786271	0.794441547447213	-0.571511406403478	0.794895999759982	-0.571117849482336	-0.0150146428680241	0.00060594690032132
