# GHZ S RI R 50
0.2	-7.44049866108193E-05	-0.00051424077073399	0.95078427192572	-0.307438206586508	0.950557831136059	-0.307580542401451	8.19922789920092E-05	-0.000351423434122949
0.3	-0.00053563341833688	-0.000334685105628665	0.891346185280861	-0.45136344745401	0.891208561232198	-0.451416924581945	-0.000349034857359459	-0.000556797619195117
0.4	-0.000786569473922018	-4.85038851057217E-05	0.810372145204636	-0.584230648680067	0.810412531590769	-0.584370544606587	-0.000622902566066451	-0.000412311506437234
0.5	-0.000782625298306016	0.000833394973435113	0.709546314177274	-0.70363461610867	0.70943547195675	-0.703730840859985	-0.000395367872201253	0.000182826104439963
0.6	-0.000255227820679388	0.000549514024495644	0.591153158922097	-0.804971493751165	0.590963100259046	-0.804974538435963	2.88966525057494E-05	-0.000390017272950019
0.7	-0.000536504134343849	0.000682985048436362	0.458992721833454	-0.886838966946153	0.458918506696673	-0.886873504528789	-0.000248601360584197	-0.000801843352219432
0.8	-0.000556158844425302	0.000673234341580706	0.31556572434164	-0.947586843812646	0.315446750800678	-0.947499921133766	-0.000610984204706968	-0.000996084499072254
0.9	-0.00106155440827772	0.000972365983288064	0.164132427072802	-0.98516129983453	0.163982910191203	-0.985118330029238	-0.0014048406788984	-0.00118755641097073
1	-0.00120922418467063	0.00253174992097941	0.00874839073538135	-0.997893197127661	0.00862998323259155	-0.99786341663085	-0.00192729966603773	6.03959869422576E-05
1.1	0.000859283974924245	0.00247210324260742	-0.145174222405389	-0.987305928476715	-0.145823725644338	-0.987270920383787	-0.000730192136562398	-0.00024426994450322
1.2	0.00159266726376312	0.000575923364265377	-0.297818125507014	-0.952816970940593	-0.297811127932419	-0.952872842695962	-0.000645270772410362	-0.00121744907517383
1.3	0.00203012166937846	-0.00193688476749485	-0.442417835635324	-0.894727446363882	-0.442510273237615	-0.894751965173986	4.64405144342949E-05	-0.00168307960209649
1.4	0.00171994404192282	-0.00456463177297981	-0.575830080716829	-0.814750438716581	-0.575904055481441	-0.814650487037829	0.000808322957625104	-0.00244078489270838
1.5	0.00223936360064405	-0.00601972064453396	-0.694949808550829	-0.715619261151609	-0.69497448247827	-0.71554697260877	0.00245128489684533	-0.00359677965476621
1.6	0.000208164241898848	-0.00742997522600225	-0.798116008455988	-0.599546670827359	-0.798547055086686	-0.599043767806449	0.000513509405662256	-0.00504553251684719
1.7	-0.00100779608541451	-0.00614747547231761	-0.881640852134717	-0.467620613591463	-0.881945873594707	-0.46712823882116	-0.000803592548484362	-0.0041442797357996
1.8	-0.00165535292845825	-0.00508718548558195	-0.943514501269078	-0.324213803849886	-0.943529999126779	-0.324204274731858	-0.00172021461189896	-0.00355981166154809
1.9	-0.00185593417049877	-0.00337631110481696	-0.98229180977855	-0.173700897804059	-0.982336590204778	-0.173753785732577	-0.00232432636259591	-0.00240196564339333
2	0.000291155767304879	-0.0027103152572195	-0.997963215286176	-0.0193996409977041	-0.998057158033493	-0.0187466908907828	-0.000941730287754886	-0.00185306647618012
2.1	-0.00032874675458198	-0.00479121452553267	-0.98817821171955	0.138220401314775	-0.988279892243762	0.137734223448917	-0.0019728415820236	-0.00344256473349903
2.2	-0.00207439392141564	-0.00472121024088759	-0.954236532859014	0.289345526420542	-0.954274971991778	0.289480002312787	-0.00339260220967351	-0.00291570753668297
2.3	-0.0032827150955574	-0.0040221363251432	-0.897477553784024	0.433979377499578	-0.897312685665662	0.43406755219076	-0.00426177982622279	-0.00223448273188667
2.4	-0.00464642857247629	-0.00266031695963022	-0.818594171966527	0.568957040253819	-0.818888845899386	0.5684943511452	-0.0050953791405697	-0.00120676386900671
2.5	-0.00348191981043155	-0.00026351780388786	-0.719384099083793	0.689896599443754	-0.719689908218203	0.689516100223504	-0.00374768094720842	6.47996691461031E-05
2.6	-0.00256533866224781	-0.001443703007812	-0.603006850545393	0.79184350762182	-0.602927739488251	0.791783465774506	-0.00302675449883806	-0.00157744771824877
2.7	-0.00304103630067164	-0.00174875207002549	-0.472611682162348	0.875401823280548	-0.472582043592725	0.875415777142188	-0.00393059852744061	-0.00215975046052738
2.8	-0.00349000229201993	-0.00167628765979467	-0.330811552438858	0.937984188881564	-0.330692534101958	0.938068158261681	-0.00457259936784885	-0.0019011055960931
2.9	-0.00304010028050907	-0.00124617271043145	-0.180392701186417	0.977603125893751	-0.180387852181497	0.977658001206645	-0.00452081873658823	-0.000927940995807058
3	-0.00229319179352023	-0.00159435116066476	-0.0258823032538911	0.992061410026713	-0.0259461237892022	0.992133361634179	-0.00361594638611178	-0.000452550575054996
3.1	-0.00224751022739135	-0.00158977869861318	0.126652767000377	0.983954662878367	0.127301581762416	0.9840317505822	-0.00331287881644946	0.000247207893679799
3.2	-0.00180625895281475	-0.00141450267533671	0.278645835356143	0.952056835961629	0.278636139633408	0.952096507977431	-0.00240556516702712	0.000901491440998012
3.3	-0.000961969537731767	-0.00145091589175818	0.423820076797924	0.896338750296448	0.423199498968939	0.89662462261463	-0.00116212599489908	0.00112135603438475
3.4	-0.000127989497929664	-0.00147966438874686	0.556800254056112	0.819078014802205	0.556716237310913	0.819193793422939	0.000358510777214382	0.000997626845418055
3.5	0.00163704319147783	-0.00296380613117886	0.67580206352874	0.723260267077184	0.675816425573416	0.723286341494279	0.0020879871657277	-0.0007550337150015
3.6	0.000398187460165573	-0.00461874908395583	0.780162388259371	0.610160203230658	0.780581696576026	0.609763811365123	0.00118152912701065	-0.00234204374029119
3.7	-0.00019290588761173	-0.00484009525004236	0.865506185371365	0.480359408587022	0.865514037269968	0.480485732011684	0.000848916204490208	-0.00264325710380188
3.8	-0.000876293306949439	-0.00497013959690028	0.928780027522251	0.339914285149721	0.928809602256046	0.340097030366128	0.000393690619262007	-0.00319722425974378
3.9	-0.00097183334858485	-0.00446673845463766	0.969790685712913	0.191557376042222	0.969696180916523	0.192144533942497	-0.000404048140271746	-0.0034641771814593
4	0.000623777197109857	-0.00463942121338425	0.988617357380807	0.0394882273671372	0.988699508748305	0.0395306529690098	0.000284638764521335	-0.00418064298484451
4.1	-3.80156187974445E-06	-0.0071508942409741	0.981881723082091	-0.115557876653492	0.981820220432024	-0.115493522481036	-0.00157621097895495	-0.00633474126264304
4.2	-0.00186861453123867	-0.00785542564906228	0.950738558767278	-0.266754282159706	0.950935680485269	-0.266188230766704	-0.00382070602664743	-0.00646407935740765
4.3	-0.00342961904063838	-0.00835793657618979	0.89774821553354	-0.409997500941342	0.897749216473784	-0.409979045853298	-0.00584329473092951	-0.0063930883938253
4.4	-0.0056344289551856	-0.00788725512145174	0.823357174240994	-0.544201902548021	0.823277665029558	-0.544185467720371	-0.00821368890553026	-0.00544697811745343
4.5	-0.00575243082445164	-0.00648909157723839	0.727660330074836	-0.666104320507745	0.727538574695768	-0.665957832100783	-0.00888183761510215	-0.00366902363274311
4.6	-0.00642998191639449	-0.0075097494033418	0.614635501510746	-0.769101799220304	0.614622830695696	-0.768873644888641	-0.010109240642606	-0.00389085877780829
4.7	-0.00832540802727567	-0.00784192614835489	0.488142979003946	-0.854413590649268	0.488261022006795	-0.854171322836376	-0.0124451098631868	-0.00293771859913507
4.8	-0.0102695435686199	-0.00714283889189047	0.349516764789654	-0.919315521245046	0.349809796748609	-0.91913024963527	-0.0141117792454587	-0.00100242567676416
4.9	-0.011531641873213	-0.00611316448091544	0.202178142479431	-0.961564520884529	0.202436436558567	-0.961515715490345	-0.0147905839593026	0.00172310775746689
5	-0.0119831014805453	-0.00524025635837636	0.0512437384462512	-0.979013266951226	0.0514013663489558	-0.978887599377726	-0.0139385776775644	0.0042947461840477
5.1	-0.0131065574981737	-0.00460110151603393	-0.0992377105928359	-0.975327180642946	-0.0989192340789927	-0.975266488809605	-0.0131519310499027	0.00683679554056163
5.2	-0.0137261743980875	-0.00274309168134232	-0.249143522492147	-0.948397570926918	-0.248720407343868	-0.948520330480678	-0.0112575347196754	0.00980617318804026
5.3	-0.0135941582952578	-0.000952350852164805	-0.392886733230817	-0.898038150015808	-0.392601781768858	-0.898380646713121	-0.00830247905139178	0.0122107888982168
5.4	-0.0122805345700785	0.00146556027558469	-0.526569193316041	-0.825754616725245	-0.526435565833109	-0.826041683602238	-0.00448396333270339	0.0139771947832043
5.5	-0.00952274279975313	0.000548851046724502	-0.646627271873379	-0.735297621151225	-0.646578217858699	-0.735608344866247	-5.75623620442845E-05	0.0124272957284081
5.6	-0.0116079591616658	0.000175343150421227	-0.753652026290409	-0.626823362074641	-0.753665554387643	-0.626992205775403	0.000126013864987827	0.0114359507688061
5.7	-0.0125945943083683	0.00220136757384015	-0.841613325154044	-0.502097939356539	-0.841589963229874	-0.502271490548312	0.00180135899376523	0.0122594807829326
5.8	-0.0126888212112045	0.00481505863221482	-0.908593825217617	-0.365678512049051	-0.908638375236227	-0.365967895482659	0.00408566184591564	0.0124868540655314
5.9	-0.0118220499330808	0.00806846124217806	-0.954007651346125	-0.221572840796057	-0.954126882011038	-0.221620427803014	0.00654161808866154	0.0127618538154642
6	-0.00717819071313761	0.00979125906412751	-0.978496970207276	-0.071366776946429	-0.97849384229254	-0.071434940413967	0.0110508724087636	0.0111127363545846
6.1	-0.00645411600020423	0.00763340755690163	-0.977007365816193	0.0822309260128529	-0.977010502733952	0.0821284250440838	0.0113678556611473	0.00693095854215523
6.2	-0.00683790951300466	0.00807165192167041	-0.951862834424968	0.232163598581523	-0.951910319778729	0.231983424595622	0.0110263506006991	0.00500937011309482
6.3	-0.00700169246341844	0.00880679471167753	-0.904619929033906	0.376295250845927	-0.904643819306608	0.37616764317934	0.0109253676052838	0.00307486777429334
6.4	-0.00670935395617206	0.0101607113410301	-0.836088909011645	0.512062452450322	-0.83607973835875	0.511850586888096	0.0105820217757288	0.00115783647633942
6.5	-0.00541417683146829	0.0108578018869989	-0.745552553049926	0.636393530629017	-0.7456520573816	0.63622245258138	0.0104584386820113	-0.00127777960467167
6.6	-0.00427348346162205	0.0114025642548927	-0.637636995924292	0.742486473005356	-0.63778372549895	0.742341516554015	0.00944781237374336	-0.00347167424774391
6.7	-0.00254228001119349	0.0116515717833121	-0.515812835728473	0.832019543732483	-0.515932329922442	0.831863340504304	0.00820666314728414	-0.0054518285128071
6.8	-0.000603836286935748	0.0113537716868573	-0.381027239688061	0.902170112195802	-0.381236221366175	0.902094826515518	0.00632807682239497	-0.00714018669977933
6.9	0.00124303451482722	0.0103475283024428	-0.236238480589653	0.950489804957623	-0.236487060159101	0.950485045859323	0.00438130218691744	-0.00814241614625145
7	0.00260751418307517	0.00839899538156805	-0.0864968051158956	0.973982554177684	-0.0867523592707635	0.973951553400812	0.00204690593856744	-0.00936241773352399
7.1	0.0026439336032805	0.00717227697444601	0.0636148287932294	0.976592460127823	0.0634101465416542	0.97657905857911	-0.000827813748716466	-0.00899140872547254
7.2	0.0031795022782533	0.00616397688712913	0.214240237307803	0.95582905591028	0.213986707898481	0.955870893720241	-0.00270756717257541	-0.00790181067910909
7.3	0.00318617336641656	0.00484930083358403	0.359856949437579	0.911312770874004	0.359617973764161	0.911400996904727	-0.0043151787138376	-0.00656189946068903
7.4	0.00316429423624702	0.00389976028846946	0.496142072173943	0.844298367679289	0.495924324804205	0.844457153555693	-0.00553461005486496	-0.00480396347783578
7.5	0.0032335400615392	0.00216200643273889	0.619776415551542	0.759195501160653	0.619615776585736	0.759364381131345	-0.00585678878218748	-0.00341586425396317
7.6	0.00162903754081567	0.000697922211057436	0.731818469894854	0.655069245655502	0.731602558817114	0.65522701863114	-0.00677476912688962	-0.00207439617308483
7.7	-1.43950481641542E-05	0.000820866786228571	0.824983283534017	0.533539484765248	0.824830992009073	0.533731914439342	-0.00694920065914824	0.000140828533522841
7.8	-0.000975552898276307	0.00182946068242165	0.897940933201542	0.399418681213437	0.897818257947186	0.39963798304674	-0.00622308694138127	0.00218652881127814
7.9	-0.0011926172187869	0.00392738882022554	0.949367767309959	0.256491674700386	0.949324833915685	0.256715779587272	-0.00468299046360933	0.00442960004766069
8	0.00243128285947644	0.00501088315707562	0.980194526247911	0.106108849137231	0.980261573342044	0.106401358357202	-0.00135939034479307	0.0052188793340301
8.1	0.00258205220836206	0.00252326944493747	0.98460356710148	-0.0486766125467367	0.98472483706778	-0.0484044620515783	-0.0010136902830364	0.00359903191444852
8.2	0.00178177415720925	0.00224020427738976	0.965073189921783	-0.200560382621664	0.965135929436239	-0.200264109138572	-0.0010814297183666	0.00408003623106291
8.3	0.000891618125836965	0.00246845445206903	0.922968968486162	-0.3477111616646	0.923103711543025	-0.347453816305535	-0.000564494782506634	0.00444808231815642
8.4	-0.000109474622637017	0.00380353422256962	0.85907293109794	-0.487502608096808	0.859282727208115	-0.487300286164086	-0.000210750926332598	0.00508838958794202
8.5	0.00208369765144375	0.00640576793394538	0.772021388706528	-0.616624809541091	0.772136231547125	-0.616497718595993	0.002623524432076	0.00597530369513688
8.6	0.00387458258050388	0.00426417107786324	0.666692631466577	-0.727678687557676	0.666888284262644	-0.727491351809643	0.00389942378181198	0.00315014974544933
8.7	0.00332202070010334	0.00354449477474583	0.546575327972291	-0.822583906338116	0.546856288464872	-0.822471619437893	0.00358657897340562	0.00209121761965628
8.8	0.00320807627586444	0.00339390881804183	0.412618394169156	-0.89841495153512	0.412824344064135	-0.898358330742047	0.00341365507635585	0.00141870809435523
8.9	0.00308112237089574	0.00379416573306251	0.267275067895889	-0.952394250378095	0.267516252439556	-0.952251298081814	0.00347920766277489	0.00125107660317192
9	0.00497646606349393	0.00423687645898185	0.116167601820982	-0.980672294248319	0.116529896963836	-0.980639138795042	0.00487166084206779	0.00108721123046055
9.1	0.00656523723459002	0.00300204854917484	-0.0359384114413469	-0.98826731920199	-0.0355848056722542	-0.98827815866617	0.00578866326275948	-0.000286728648106305
9.2	0.00839436398175795	0.00152897146837455	-0.18972923745053	-0.971748038391666	-0.189371209492039	-0.971815403932123	0.00689205238079219	-0.00144076795333118
9.3	0.00984418795229657	-0.000603086950661791	-0.339073237147499	-0.930682558190852	-0.338713834639622	-0.930743855499798	0.00772658056996805	-0.00291321187040724
9.4	0.011187192831508	-0.00277003660235154	-0.479247635552662	-0.866280594665962	-0.47892159881188	-0.866426096261594	0.00841798105293097	-0.00401879751524701
9.5	0.0127039329289772	-0.00809686395984078	-0.606966629476192	-0.783273628833899	-0.606757812530799	-0.783409393692487	0.00912554829749078	-0.00740131615954078
9.6	0.00815753039972757	-0.0123649987676194	-0.723644677657761	-0.680117587365141	-0.723367963451463	-0.680301125643394	0.00538931068661519	-0.00873387773398873
9.7	0.00434936045862555	-0.0129534411699172	-0.821186419950914	-0.55881504299094	-0.820935760498009	-0.559084334390959	0.00379936396506503	-0.00789340109715364
9.8	0.000949454047471682	-0.0128178871543754	-0.898206867828672	-0.424282033631686	-0.897993778594905	-0.424557469187924	0.00275068114608001	-0.0071864212732679
9.9	-0.00202175677018948	-0.0104376325100823	-0.953598328920648	-0.280334462371527	-0.953481993645394	-0.280665711888676	0.0024070733982076	-0.00569426779018738
10	-0.000731762016772963	-0.00977769438430187	-0.988346956519911	-0.128150652788678	-0.988262947574903	-0.128533084875736	0.00467748657394423	-0.00620481298544956
10.1	-0.00432804667596185	-0.011511727902904	-0.995505273780158	0.0291161490130255	-0.99548280226103	0.0286329023549742	0.00255385051483409	-0.00813744958590533
10.2	-0.00806755113951635	-0.00981228737016377	-0.978539911863443	0.18356572585413	-0.9785227131005	0.183110980787833	0.00108276121533201	-0.0074425942701531
10.3	-0.0110617641332659	-0.00678404892474756	-0.938476723688479	0.333683164341458	-0.938611288089721	0.333136058411484	0.000269219182343535	-0.00705147998948613
10.4	-0.0129169222020012	-0.00271505607739076	-0.875918772390376	0.476690661677381	-0.876185548311511	0.476147317137176	-0.000234913692795007	-0.0066455253690352
10.5	-0.0114882815230175	0.00173100811797664	-0.789151517334895	0.609022621867902	-0.789437717952444	0.608631069419647	0.00104989839820057	-0.00702413960397286
10.6	-0.0100217949946452	0.00284945638885039	-0.683891510824176	0.722716413798229	-0.684322236019649	0.722369090499046	0.000667028351406791	-0.00952520980524043
10.7	-0.00937845838872579	0.00451141494783031	-0.563558235390758	0.820297681354098	-0.563974252244837	0.820006610664055	-0.000916561359371619	-0.0107886436994884
10.8	-0.00840763123907385	0.00614516340805378	-0.428710377084741	0.898420505394336	-0.429226741160547	0.898189661031427	-0.00257814346422485	-0.0113607680097634
10.9	-0.00685828108884443	0.0081377737139364	-0.282330377186087	0.95424489171335	-0.282823659419666	0.954194996137144	-0.00405664303465949	-0.0114454066604874
11	-0.00431776592437853	0.00876627672408795	-0.130347811692032	0.983998959863679	-0.130898666202055	0.983996779368671	-0.0051475390786103	-0.0117766622209383
11.1	-0.00243698499881881	0.0096059833394835	0.0230321519119608	0.993075388161513	0.0223974357021091	0.993160939584959	-0.00672692618810438	-0.0114610417276293
11.2	0.00024754636856686	0.00982342527170378	0.177840947265513	0.977695369915846	0.177317583475442	0.977902487371607	-0.00751041638244381	-0.0109616118808373
11.3	0.00301030045045731	0.00970399539832327	0.328165456517194	0.937489836700315	0.327733322291964	0.937757063756611	-0.00792335330336327	-0.0102394147086218
11.4	0.00626445986743604	0.00924102640379565	0.469431390907611	0.873822366916831	0.468964994982664	0.874087018205409	-0.00775471373543815	-0.00922256044063095
11.5	0.0104549565354955	0.00586915302562014	0.598172918268112	0.79166038688998	0.597813625556251	0.792083470189263	-0.00719612753684188	-0.0105183608781726
11.6	0.0100216394797933	0.00199131771802731	0.71580538007196	0.68893057283899	0.715538917029352	0.689417501918945	-0.0100047814135492	-0.0103657230133021
11.7	0.00990499537546521	0.000458899266183423	0.814234223527711	0.568076082183445	0.813996167828754	0.568503896647511	-0.0111421767366343	-0.00867582732441572
11.8	0.00955564054383321	-0.00106312141087404	0.89195316805735	0.433900016694453	0.891772008189429	0.43445854756068	-0.0119507986102631	-0.00721000540834421
11.9	0.00999485539981139	-0.00061729330397891	0.948072993074802	0.290695476027044	0.948038717987885	0.29124453435256	-0.0120704505000497	-0.0048921338239043
12	0.0133448333738989	-0.00284248513268345	0.983716557029117	0.139138193688362	0.983708704896668	0.139622993745313	-0.0100262863427573	-0.00475332037258339
12.1	0.0117494792255525	-0.00774137511243789	0.991735591493704	-0.0173477320856152	0.99171619413444	-0.0168701520348338	-0.0122699529583251	-0.00572176268733119
12.2	0.0090517477326445	-0.0100527636389658	0.975758921981156	-0.171145339526117	0.975871649868876	-0.170705867383587	-0.0139124807912423	-0.00395929702989204
12.3	0.00631084344000428	-0.0113312078316224	0.936821836629037	-0.320408944756084	0.937013249047105	-0.320050297847596	-0.014613540021541	-0.00203299849308849
12.4	0.00290192753517298	-0.0113777974925406	0.87594578354574	-0.462847686406524	0.876084528980259	-0.462471412256578	-0.0149998369721032	0.000340175871557044
12.5	0.00238865365488141	-0.0101340931234419	0.790349155444145	-0.594666987698172	0.790816864552515	-0.59427916724077	-0.0129627560179943	0.00244022319484122
