# GHZ S RI R 50
0.2	-0.000437759707156452	7.36279063913962E-05	0.948450840415642	-0.307996827108449	0.948224685835646	-0.30813858801221	-0.000214442915895289	0.000160305051999306
0.3	-0.000523746499229028	0.000379454589571084	0.888378829162777	-0.451587827257941	0.888241473341002	-0.451640955888509	-0.00025307167716694	-6.44465751846616E-06
0.4	-0.00024701980269301	0.000507535192322407	0.806743705175907	-0.583700273228333	0.806783723142851	-0.583839781951464	-2.60155478743742E-05	-0.000105302033036874
0.5	-0.000381306996866582	0.000475206731383062	0.705986933973026	-0.701627471253404	0.705876424758537	-0.701723196621831	4.41004432815338E-05	-0.000436850883678973
0.6	-0.00055193359389299	0.000734900904787521	0.588234106557597	-0.802564133553167	0.588044743127448	-0.80256699048835	-0.000153045081488933	-0.000547427432662842
0.7	-0.000486411910879537	0.00125758071468183	0.456178787662536	-0.883752961225416	0.456104834972343	-0.88378727896975	-9.52183084953465E-05	-0.000738098463408305
0.8	-0.000134853961829166	0.00139176181765243	0.31328068352684	-0.943562638993507	0.313162328831888	-0.943476004644393	-0.00019912360149277	-0.000956631673816402
0.9	0.000231924325882407	0.00173872378682284	0.163003783446978	-0.980361796264211	0.162855017042695	-0.980318989534612	-0.000393171436547347	-0.00121172795837974
1	0.000698429893983592	0.00118633023391981	0.00882600812791618	-0.99355746451364	0.00870811151523866	-0.993527827101273	-0.000694307643329292	-0.00180974214405001
1.1	0.000305055436389393	0.00113081555431126	-0.145009106407073	-0.982612452212137	-0.145655553521964	-0.982577269764432	-0.0018510251414118	-0.00160119482906007
1.2	0.000609847121188382	0.000625873122073826	-0.296406164144254	-0.947707295737557	-0.296399213588325	-0.947762872178956	-0.00186745786788315	-0.00089552837705979
1.3	0.000974958830817837	-0.000605405679599531	-0.43965884610598	-0.889941903417763	-0.439750764508109	-0.889966319404542	-0.0007316840426164	-5.19223406388068E-05
1.4	0.00103189693658464	-0.00246044113299436	-0.57217353050316	-0.810870172300009	-0.572247188610298	-0.810770804869352	0.000838103684961565	-0.000396061124985337
1.5	0.000442849311184702	-0.00305007822291546	-0.691190090103251	-0.711819858373968	-0.691214635438063	-0.711747958436878	0.00172702024987837	-0.00122586015235554
1.6	0.000726035647975814	-0.00282281058828676	-0.792446490820693	-0.596059447443104	-0.792874986451513	-0.595560149825315	0.00191864495408056	-0.00202685140393671
1.7	0.00104975196737622	-0.00301782437976066	-0.874961547693089	-0.465844389125284	-0.875265281206463	-0.465355813212397	0.0014361126527092	-0.00294939147001202
1.8	0.00089814668378775	-0.00340848486512077	-0.936601334784277	-0.324027374346182	-0.936616749894663	-0.324017940441349	0.000409014165993078	-0.00371672087448332
1.9	0.000606258704577073	-0.00380195424933295	-0.975417177897333	-0.174616242112916	-0.97546155029424	-0.17466887379562	-0.000695039465343158	-0.00420867017155585
2	-0.000738023113208124	-0.00401465391222887	-0.990036429990041	-0.021797295537472	-0.990131300109803	-0.0211497395019489	-0.00248941710740471	-0.00397130427329263
2.1	-0.00108926306028397	-0.00305267484485445	-0.981265993195555	0.132836177189785	-0.981364768489552	0.132353252382306	-0.00290846389950049	-0.00286011455086924
2.2	-0.00137251390200618	-0.00304736317274737	-0.949006057008937	0.282656988554383	-0.949044886911812	0.282790339397491	-0.00317781139606868	-0.00263139194231723
2.3	-0.00180847364106101	-0.00297078272368396	-0.893643938392504	0.426344767951344	-0.893480651044273	0.42643320410809	-0.0037095748170911	-0.0024229045812238
2.4	-0.00249547047549033	-0.00305736213133796	-0.816047640506558	0.560184712170539	-0.816337547719879	0.559723617680156	-0.00423623908084619	-0.00225050966651773
2.5	-0.00378801077590523	-0.00290321264308665	-0.719761806852259	0.67956746402962	-0.720062560334317	0.67918722249892	-0.00496563454409302	-0.00213928553411166
2.6	-0.00479419509811757	-0.00150667526546701	-0.60623133608308	0.782944948097872	-0.60615215246741	0.782885847851708	-0.0050260729040932	-0.00107881504282617
2.7	-0.0046122099152676	-0.00027798880738589	-0.477264870186108	0.86743763040024	-0.477235485049861	0.867451751643103	-0.00462171639541903	-0.000659646233321731
2.8	-0.00412537982059331	0.000435523813004237	-0.337149685314801	0.930850059064589	-0.337031924766042	0.930934637590678	-0.00413936991604281	-0.000388132185117777
2.9	-0.00304558514706135	0.000837171379299096	-0.188876304345371	0.971835209924443	-0.188871993800989	0.971889902895265	-0.00351499412479132	5.67027988477589E-05
3	-0.00209627920042414	0.00101086788042585	-0.0356116038868286	0.989787218056586	-0.0356760039935538	0.989858393933233	-0.00247134547635503	0.000585885246509418
3.1	-0.000583476515042463	0.000794706883219316	0.117882919049737	0.983221175826839	0.118529857222274	0.983303747302516	-0.00111013730297795	0.000665718324764637
3.2	0.000179152627842081	-2.97187977792663E-05	0.269477012367753	0.952781957276753	0.269466974953109	0.952821466125496	-0.000377211414088711	0.000219826790957848
3.3	0.000932470773661898	-0.000940758270139531	0.414664773654815	0.89928153978335	0.414042231078881	0.899561083003736	0.000473352186860472	-0.000272166238844057
3.4	0.000975743598417983	-0.00200537343536386	0.548804013821984	0.824562694398475	0.548718860141763	0.824677655203284	0.00115752444320339	-0.0011143885826726
3.5	0.000858676846290021	-0.00246155358727709	0.670275298190184	0.729248379572589	0.670289454904147	0.729274587765347	0.00144727749097311	-0.00181855600309669
3.6	0.00104076496518569	-0.00292652271259643	0.774507787306253	0.616751714716327	0.774930401291501	0.616359153239043	0.00188575660812645	-0.00276033962087865
3.7	0.00111118098535242	-0.00384212148834589	0.861222206835999	0.488739729744305	0.861228860881737	0.488866168745584	0.00175597398179729	-0.00385863292653666
3.8	0.000615305455117978	-0.0047100532884373	0.926692222061062	0.349193904451626	0.926720090776515	0.349377158728616	0.00109838391099247	-0.00490743985796464
3.9	0.000243872911693998	-0.00563510933584297	0.969849547331624	0.200489521336901	0.969749673438275	0.201076904977257	-0.000151493754308062	-0.00599334587246417
4	-0.00122448080940905	-0.0060710409290814	0.988864832707914	0.04840573293712	0.988946652505177	0.048448923423261	-0.00181448010950026	-0.00628713150221464
4.1	-0.00167797863859117	-0.00584487478507901	0.984882444626608	-0.105267697696999	0.984820143358295	-0.105203885394401	-0.00272559251446885	-0.00617972764401445
4.2	-0.00242681748487017	-0.00617110240625107	0.956563604535785	-0.257610158182823	0.956755403744369	-0.257040236140962	-0.00381837880710392	-0.00643827726853922
4.3	-0.00316452884065265	-0.00676342656434377	0.905334890167483	-0.402523133075611	0.905335708884838	-0.402504596916514	-0.0052100482314405	-0.00672100070647825
4.4	-0.00439885757968641	-0.00736246803393647	0.831909927861086	-0.538025450799141	0.831829953867978	-0.538009748893167	-0.00696924908203602	-0.00673396776203285
4.5	-0.00634520302489692	-0.00804733350256598	0.738878994623769	-0.660615846312418	0.738754949305848	-0.660470114007809	-0.00925401828553127	-0.0063263152045197
4.6	-0.00859845626615076	-0.0071863506940831	0.627499321704298	-0.76790339018454	0.627484057413217	-0.767673730707575	-0.0111168524658267	-0.00480706752028122
4.7	-0.0102070894284671	-0.0064653988666949	0.500426248321301	-0.856274128650488	0.500542817462585	-0.856028794225881	-0.0127270085233955	-0.00346988033059723
4.8	-0.0117613963480457	-0.00510503570485417	0.361143300677537	-0.923559124282786	0.361436982370931	-0.923369538506144	-0.0139477413285606	-0.00158005460424316
4.9	-0.0125278158806546	-0.00385541033100668	0.213482002146566	-0.96824239977142	0.213742144296714	-0.968190607574115	-0.0144054184321201	0.000770935572497708
5	-0.0130840671900415	-0.00233062819154788	0.0607647285035381	-0.990090488185822	0.0609230704997584	-0.989961903160676	-0.0139117347175587	0.00348708437427918
5.1	-0.0125309704941326	-0.00116648402906296	-0.0939799805708064	-0.987455439807018	-0.0936581570756651	-0.98739193589942	-0.0122684627903777	0.00587368014563777
5.2	-0.0120908542736793	-0.000334267298604016	-0.2462659985955	-0.960899396477181	-0.245837235376248	-0.961021006741324	-0.0105444701107073	0.00796442769212576
5.3	-0.0118153459405279	-1.62359253151066E-05	-0.392555917977294	-0.911198561322556	-0.392265551079744	-0.91154360299221	-0.00826032282598229	0.00983916053623886
5.4	-0.0120447817801785	0.000648019793140219	-0.529727020927436	-0.839391434102094	-0.529590224235951	-0.839681731781845	-0.00581828602091483	0.0112101841045865
5.5	-0.0126580325300504	0.0022960992731634	-0.654023194807094	-0.746371860757868	-0.653972921187	-0.746686685157902	-0.00320095947843236	0.0125476596546585
5.6	-0.0116052377197239	0.00422673320493517	-0.761490565008195	-0.635614834094456	-0.761503952937732	-0.635785708290909	0.000310181807837649	0.01263583564558
5.7	-0.0109174196930721	0.0050808452157991	-0.851106965330616	-0.509747504040602	-0.851083013580677	-0.509923152518669	0.00291812807999514	0.0120601594125986
5.8	-0.01034232422812	0.00617344526443542	-0.91999329434285	-0.371180303831812	-0.920038168264039	-0.371473457407057	0.00528053177265065	0.0112715009064022
5.9	-0.010003863002383	0.00662479784672546	-0.966528020570688	-0.223593141794759	-0.966648833476168	-0.223641238425819	0.00716197877979179	0.0100002931364128
6	-0.0106698435606811	0.00808701566992232	-0.98910040701587	-0.0708150146842094	-0.989097337229933	-0.0708839145268396	0.00819793334994164	0.00926423721598926
6.1	-0.00977858470193011	0.0103404724006177	-0.988356164910694	0.083381442536641	-0.988359358672222	0.083277749614007	0.0105338349903426	0.00815748023956948
6.2	-0.00850068534256204	0.0118307306328888	-0.963422580194855	0.236267940251367	-0.963470886591956	0.236085582527499	0.0120614788651323	0.0056312507130232
6.3	-0.00723121402146131	0.0127620158026656	-0.91483060483385	0.383216548129407	-0.914855111435014	0.383087426481213	0.0126659577742679	0.00267437296161873
6.4	-0.00584523753295761	0.0132778986195871	-0.843872994809553	0.520525370098333	-0.843864401783514	0.520311085476421	0.0122757639344399	-0.000473846677422545
6.5	-0.00467313301982935	0.0134646297635632	-0.753093111215773	0.645041949173275	-0.753194061328529	0.644869060940479	0.0112302522829164	-0.00322487518047463
6.6	-0.00297812830041781	0.0135218049081338	-0.643612158057802	0.754665923249816	-0.643761360418231	0.754519531692615	0.0099617176710703	-0.00556700644174576
6.7	-0.00155202693708251	0.0129858889908657	-0.518184557490582	0.845428976594309	-0.518306401202456	0.845271371776384	0.00807508746021274	-0.00749015733217632
6.8	-0.000209485310295088	0.0124225179477219	-0.380352604845545	0.915426896581613	-0.380564580823517	0.915351925476796	0.00590653657971446	-0.00875614892861317
6.9	0.000830299081537088	0.0115294897545399	-0.233645065898545	0.963291671024791	-0.233896667207317	0.963288277065188	0.00383802021805905	-0.00943157940324459
7	0.00205231568803318	0.0108690898171491	-0.080838682707595	0.988309633211519	-0.0810980546770006	0.988279999978325	0.00195116932757998	-0.00982731182095323
7.1	0.00306072449398483	0.00957418789454381	0.0740997093215489	0.988312008625109	0.0738923057163159	0.988300466478099	-4.88882106225042E-05	-0.010008752165396
7.2	0.00369728025898423	0.00824548559341019	0.226657623676831	0.964419192209645	0.226401659086935	0.964464153882017	-0.00192790914576304	-0.0094709611302113
7.3	0.00369486898534021	0.0067585459532004	0.373660572014317	0.917320089343732	0.373419954400641	0.917411868363233	-0.00364083264295058	-0.00855147306867429
7.4	0.00339462912620323	0.00553247272749525	0.511788330896148	0.847918761543942	0.51157001674881	0.848081930456302	-0.00530458367818311	-0.00729490735160006
7.5	0.00262816530639503	0.00470657848932419	0.637362999655486	0.757236256842375	0.637203347591522	0.757409227806176	-0.00644412174767655	-0.00529823151725486
7.6	0.00255383901766806	0.00415078894795817	0.746553464549938	0.648758566215808	0.746338399198532	0.648920620740658	-0.00648768695415941	-0.00377237134368593
7.7	0.00204685049776537	0.00346125439026582	0.837911830371563	0.524915365351646	0.837761375517971	0.525111214822399	-0.00669536574575974	-0.00229701711029526
7.8	0.00162484082596011	0.00308994010969067	0.909152195449567	0.388132726922155	0.909032131905004	0.388355146985862	-0.00636505100452199	-0.000701498624555258
7.9	0.000728341663056237	0.00272086197942101	0.957914737629662	0.241881411994174	0.957875332613843	0.242107241903595	-0.00578370278486722	0.00100185200713947
8	-0.000691322188414273	0.00352373150767762	0.982866489068292	0.0903803500638093	0.982938326330489	0.0906720622383281	-0.00535186122474586	0.00307399264389181
8.1	-0.00066126739191141	0.00525505347383769	0.985004684362321	-0.0629457954572244	0.985130019286493	-0.0626750906110404	-0.00284490395540157	0.0048326319769627
8.2	9.67221839609095E-05	0.00619881929900858	0.962974808697944	-0.215177896686433	0.963042036816055	-0.214882284866391	-0.000720258960028862	0.00503760379421883
8.3	0.000757270854991685	0.00685910542953323	0.917348947482487	-0.361945195982729	0.917487650082969	-0.361690003941066	0.00117768677658716	0.00459249067867778
8.4	0.00174188588451572	0.00689858199551419	0.849576220654767	-0.499439706324605	0.849788600385609	-0.499241070023384	0.00266834659598739	0.00335659614909985
8.5	0.00137346781822835	0.00678574518531996	0.762231751949056	-0.624732785954665	0.762347894639413	-0.624607474517828	0.00296178531374473	0.00218550372361512
8.6	0.00198234576329412	0.00798906991011447	0.655686337087284	-0.735740970854866	0.65588426862951	-0.735556606622482	0.00402949076906791	0.00157113405525051
8.7	0.00319486079851399	0.0085524312856949	0.533129131851226	-0.828146627778347	0.533410916731567	-0.828038721981642	0.00476964905343594	8.48991935724897E-05
8.8	0.00494924732599394	0.00854087553850043	0.398169720823944	-0.900409415330483	0.398375591718465	-0.900355944727294	0.00468691864225001	-0.00146246689004743
8.9	0.0068063598645823	0.00774291864264787	0.253824389254368	-0.951098541279517	0.254066204431914	-0.950959366691729	0.00440993437610995	-0.00262703473016994
9	0.0084733358694834	0.00598349677882054	0.102761559280245	-0.979075720359753	0.103123134854943	-0.979047486321391	0.00406639471334044	-0.00334829485252892
9.1	0.00987042854783733	0.00396689064565129	-0.0505729074652227	-0.982321334522351	-0.0502213988482568	-0.982337421307728	0.0042908815253059	-0.00388850674505471
9.2	0.010759377318785	0.00122005852408348	-0.202150429042603	-0.9620479013623	-0.201795938929327	-0.962119861675366	0.00466793647178489	-0.00444451241557849
9.3	0.0107192728695916	-0.00141574952969856	-0.348749445034259	-0.918851388378743	-0.34839368740635	-0.918916971141808	0.00530674106930201	-0.00492916604656877
9.4	0.00984894232487423	-0.00431709860019693	-0.487035833968654	-0.853503106219882	-0.486714148337595	-0.853651800141173	0.00578925724734261	-0.00589378108091539
9.5	0.00780805730651005	-0.00537432159453073	-0.613358960987968	-0.766666273989173	-0.613154171471758	-0.766803985418617	0.00595351054922978	-0.00606832016401754
9.6	0.00714925623775843	-0.00672307253430676	-0.723950515908757	-0.66204973743708	-0.723679659662531	-0.662234756746074	0.00633832442588049	-0.00743013927622972
9.7	0.00542422819698686	-0.00814095791772288	-0.817442505137302	-0.541851648443052	-0.817198266226564	-0.542120520729247	0.00546614509041605	-0.00864063586759318
9.8	0.00331597545489573	-0.00927022216856424	-0.891296341105235	-0.408407641893199	-0.891089208027545	-0.408681910725407	0.00433243604437474	-0.00920043459148115
9.9	0.000534629744063758	-0.00995599241740057	-0.943250495393536	-0.264981778801424	-0.943139764880474	-0.26530965912483	0.00321640858865892	-0.0093966752147851
10	-0.00328343063001632	-0.00920144609407655	-0.971977078557603	-0.116060519226636	-0.971898362122784	-0.116436958695447	0.00195648579508916	-0.00841485656107331
10.1	-0.00531467899572071	-0.00704225834367455	-0.978236186564254	0.0355004953064789	-0.978217441848794	0.0350253783337804	0.00241521353254487	-0.0079481228465944
10.2	-0.00687384188232368	-0.00557026786062756	-0.960779956654567	0.186577524272004	-0.960765897564783	0.186130390651317	0.00222536124960738	-0.00834796553510275
10.3	-0.00849652886276988	-0.00368132317589846	-0.919961157065622	0.332986115740716	-0.920096379455909	0.332449469974049	0.00155769500971367	-0.00882635718181947
10.4	-0.00966953447580763	-0.00206600797892499	-0.85703818821211	0.470866806274596	-0.857301913228713	0.470335060218611	0.000816579353852842	-0.00940164333686124
10.5	-0.0112951038979698	0.00018301357791992	-0.774532076028972	0.597554966344401	-0.774812884586852	0.597170669944099	3.62918600895536E-05	-0.00971596366792875
10.6	-0.0116716843362832	0.00304107879286432	-0.672502544817857	0.710713977634188	-0.672926115436339	0.710372439821115	-6.79889018061114E-05	-0.0101762824115698
10.7	-0.0113560803098933	0.00595953733634692	-0.554185423189574	0.806173987126436	-0.554594275742576	0.805887759451465	-0.000326280414884433	-0.0110956808795106
10.8	-0.0101740407389578	0.00839633130241233	-0.422641191675478	0.882038136873006	-0.423148164713461	0.881810508840881	-0.00104826742433866	-0.0121757966271515
10.9	-0.00862232469978905	0.0108453598573515	-0.281313722614342	0.936929559299512	-0.281798434033788	0.936878558766736	-0.00239334594384593	-0.0129470159992803
11	-0.00621732565070885	0.0127553677303821	-0.132346881025894	0.9697579012036	-0.13289003791451	0.969753613434286	-0.00350844466432396	-0.0132684543767994
11.1	-0.00304963832844785	0.0140738960280477	0.0198693247659404	0.97793544897263	0.0192440846145759	0.978017894335385	-0.00449597198376233	-0.0137613077996736
11.2	0.000358462874156469	0.014125764558873	0.170796072843067	0.962896799363968	0.170280148389968	0.963098363927575	-0.00556656336888149	-0.0141258967371462
11.3	0.00360145581270101	0.0134120866059105	0.317650642269258	0.924978852464909	0.317223598902855	0.925239448595242	-0.00651057926020508	-0.014221716027278
11.4	0.00621886769154405	0.0116205683057002	0.457461684099166	0.864817798709821	0.457000005004242	0.86507586802687	-0.00767794914907245	-0.0139664466727787
11.5	0.00823026720579024	0.0106085188271696	0.585954968063871	0.782656300983254	0.585599101771475	0.783071616175215	-0.00860102543134361	-0.0128474366217002
11.6	0.0109618430513003	0.00834728748562189	0.699302045193277	0.682636592414982	0.699036555518526	0.683113701197735	-0.00904472201520418	-0.0126309328520736
11.7	0.0127125247789909	0.00546286571057718	0.796661344551704	0.566453018895677	0.7964232080155	0.5668721311662	-0.0102758695409786	-0.0122934438993038
11.8	0.0134072088520605	0.00189575428500772	0.874946054470637	0.436113745472135	0.87476220073733	0.436662487519548	-0.0117514452954284	-0.0115682567069228
11.9	0.0129585158200768	-0.00173419393346696	0.931694606709762	0.295179798365991	0.931655795155332	0.295720600293964	-0.0133760338344094	-0.0101631563130341
12	0.00987872533476973	-0.00408044374846975	0.965679710109729	0.148156993268028	0.965666398987663	0.148633604465101	-0.0150142670732236	-0.00749825440917979
12.1	0.00832102021831706	-0.00489516618339449	0.977718922024475	-0.002723174297534	0.977692881306898	-0.00225274634891796	-0.0145456315220303	-0.00525029489488617
12.2	0.00645007446400107	-0.00582653743707634	0.96587881326623	-0.154340105245735	0.96598351760707	-0.153904548818492	-0.0142878768156587	-0.00333644151367175
12.3	0.00488871896270074	-0.00616462196050555	0.9304089882707	-0.302080406068032	0.930592550732852	-0.301723154123587	-0.0133952751782228	-0.00161461422539577
12.4	0.00321764410311046	-0.00701598518111507	0.872791850974292	-0.442338456536091	0.872922536512822	-0.441964547468394	-0.0123090953550544	-0.000754807038054155
12.5	0.000563314339045709	-0.00729393497977781	0.794677290828819	-0.572422589191284	0.795132321210783	-0.572029020828499	-0.0119110184623858	-3.5042160170329E-06
