# GHZ S RI R 50
0.2	-0.000397273295011178	-1.84706808228125E-05	0.948896798521369	-0.307870903796834	0.948670593174575	-0.30801277786718	-0.000167148579577383	6.08709689880435E-05
0.3	-0.00055226252670931	0.000290254883356037	0.888958762980832	-0.451523929205308	0.888821356941677	-0.451577127923177	-0.000272833122935517	-0.000112008245519965
0.4	-0.000362503632571536	0.000475895959360552	0.807464207464751	-0.583788167313049	0.807504300155823	-0.583927750923589	-0.000135294413995234	-0.000162042126890259
0.5	-0.000432535430864759	0.000637787085641854	0.706687752423263	-0.702015439569658	0.706577178700301	-0.702111263339495	-2.55989777717772E-06	-0.000300984568251276
0.6	-0.000449057742366159	0.00078141592997936	0.588810197622481	-0.803021779149738	0.588620699694438	-0.803024675058236	-3.79462462303463E-05	-0.000536028131636186
0.7	-0.000433384882192721	0.00123039682171035	0.456738206984121	-0.884344907924115	0.456664203885631	-0.884379269442303	-3.0723176022572E-05	-0.000818035673099961
0.8	-0.000136369884898907	0.0013285436480788	0.313737674528502	-0.944340630459058	0.313619198364399	-0.944253941664012	-0.000200805446030954	-0.00109006665294601
0.9	5.97162932040993E-05	0.00165443414275474	0.163228468373754	-0.981294471152869	0.163079555774411	-0.98125163348088	-0.000593426797331347	-0.0013780627892209
1	0.00038738673947881	0.00152394022736824	0.00880714426883496	-0.994381244123559	0.00868915071530708	-0.994351579031781	-0.00107482874111076	-0.00152765663558845
1.1	0.000407208787724071	0.00149688207335239	-0.145025371429784	-0.983494943971247	-0.145672392283627	-0.983459803890645	-0.00181171896023886	-0.00124178071734598
1.2	0.000692944582663756	0.000870302130564738	-0.296651295980881	-0.948673802066163	-0.29664433539861	-0.948729433846934	-0.00181197237815612	-0.000626700774190142
1.3	0.00100891154695614	-0.000379592674338901	-0.440154927234395	-0.890848123564251	-0.440246942283547	-0.890872560922319	-0.000676160602280454	0.000205158768754751
1.4	0.000990359358860274	-0.00221208275184103	-0.572828891244667	-0.811599640730202	-0.572902610123444	-0.811500167261086	0.000860623934576339	-0.000146641629751215
1.5	0.000680979958461897	-0.00292442875391353	-0.691825674900407	-0.712553840926837	-0.691850248222086	-0.712481872114413	0.00206899955665654	-0.00115768791352288
1.6	0.000599638529486885	-0.00304137133694198	-0.793455288391866	-0.596779236551889	-0.793884303673952	-0.59627930165817	0.00187821261431241	-0.00238765417515632
1.7	0.000752620342645505	-0.00303262840860635	-0.87617921352447	-0.466258927669232	-0.876483234369403	-0.465769662740884	0.00115746008359795	-0.00314731556501196
1.8	0.000601530671938926	-0.00326524163208002	-0.937880587042867	-0.324157832527622	-0.937896018816562	-0.324148382122144	6.82719429948085E-05	-0.00375047887128351
1.9	0.000369346305095082	-0.00338668012762553	-0.976711156414811	-0.174560942789753	-0.976755600421786	-0.174613628956536	-0.00101676990856714	-0.00392496720124571
2	-0.000292070247252642	-0.00354686774156985	-0.991600936814988	-0.0214743606460262	-0.991695722463243	-0.0208257522052897	-0.00209568229698945	-0.00357815258825638
2.1	-0.000748371332137423	-0.00327113578062494	-0.982672065714908	0.133791071884609	-0.982771362265128	0.133307480652035	-0.00258499273778989	-0.00318846565891175
2.2	-0.00135350977370211	-0.00329419971306666	-0.950079380487567	0.283893907489355	-0.950118146180159	0.284027478888335	-0.00320587839293194	-0.00301179383173566
2.3	-0.00197098073583594	-0.00314420400256546	-0.894440362452481	0.427768977150911	-0.894276771239384	0.427857376855308	-0.00396110944706056	-0.00271609201707925
2.4	-0.00285153032585478	-0.00299557005234025	-0.816613925612707	0.561827638392679	-0.816904723571469	0.5613661961216	-0.00471650707201585	-0.00225198671792508
2.5	-0.0037561489467716	-0.00241630934418291	-0.719766483116976	0.681557415439191	-0.720068207280966	0.681177086474627	-0.0050194675561711	-0.00161320685650751
2.6	-0.00450880606728613	-0.00149579935674686	-0.605655427301804	0.784648531308729	-0.605576253587934	0.784589251906617	-0.00470953375473616	-0.00101542467328122
2.7	-0.0045652322373623	-0.000458632184006159	-0.476427157087772	0.868951854545747	-0.476397723668537	0.868965945506881	-0.00447895016953715	-0.0008427129761412
2.8	-0.00432226391571533	0.000292090959174535	-0.33600113925025	0.932220398465918	-0.335883139832946	0.932304869687995	-0.00422413083473872	-0.000598744607440554
2.9	-0.00335130776105348	0.000880690774144633	-0.187299108314374	0.97297181951372	-0.18729469670229	0.973026549807505	-0.00372119384884477	-4.5072374087781E-06
3	-0.00233958927461147	0.00111558891907122	-0.0337547661785769	0.990220291560543	-0.0338190556094756	0.990291615407543	-0.00262076632384719	0.000540668655902057
3.1	-0.000960361797458408	0.00104554100466977	0.11950484134777	0.983335178551639	0.120152112756242	0.983416732361833	-0.00143905656922858	0.000702924898745722
3.2	-7.89889380711771E-05	0.000420340860142363	0.271158389099285	0.952645365021289	0.271148414419741	0.952684903661148	-0.000630300955953056	0.000467992153474135
3.3	0.000834081231402849	-0.000368353893437239	0.416349466069295	0.898737660604667	0.415727286664265	0.899018368475629	0.000350793024556132	0.000115559291517742
3.4	0.00113787917837968	-0.00130513089164785	0.550268535841816	0.823520785187618	0.550183595472328	0.823635893945245	0.00129130226662929	-0.000567559721980304
3.5	0.00149084746435929	-0.00204333966046487	0.671201075289564	0.728131177908403	0.671215267240551	0.728157360365932	0.00209621682984481	-0.00155667324490047
3.6	0.00147821543209534	-0.00284947513992336	0.775496288024558	0.615608157008651	0.775918329162878	0.615214926685387	0.00233126995653999	-0.00289237958477752
3.7	0.00150977809783921	-0.00378487445291836	0.862007185906365	0.48725933788685	0.862014053496612	0.487385759510163	0.00211671399741326	-0.00401996680867789
3.8	0.00101846470659781	-0.00474468882684733	0.927085995009568	0.347522028142751	0.92711417270603	0.347705193580365	0.00142485873778116	-0.00513642936477913
3.9	0.000619442933106468	-0.00568172902463987	0.969828467856399	0.198879123493833	0.969729561747313	0.199466460141679	0.000130434466795894	-0.00617167046371597
4	-0.000480152906725229	-0.00631370886201178	0.988865966677328	0.0468213406773352	0.988947849204493	0.0468643970477275	-0.00109125514609399	-0.00659322079717021
4.1	-0.00134645742046522	-0.00674877929729088	0.984359237329014	-0.107203423979781	0.98429708342834	-0.107139507375825	-0.00233595181725087	-0.00719432181221572
4.2	-0.00269432694116892	-0.0070348505734484	0.955438383595398	-0.259320974589332	0.955631177294979	-0.258751798164882	-0.00402191916779467	-0.00746718477505857
4.3	-0.00383964792739479	-0.00734187360976219	0.903864407857206	-0.403856008239956	0.90386525987379	-0.403837488588943	-0.00584243751032421	-0.00749027821415354
4.4	-0.00534021475277443	-0.00743149907065128	0.830325220814587	-0.539071525769545	0.830245335940502	-0.53905569557768	-0.00790461303062852	-0.00698435068298117
4.5	-0.00688419855206025	-0.007445996099788	0.73682383844447	-0.661611487466494	0.736700212365675	-0.661465618529355	-0.00976531378139652	-0.005833446892666
4.6	-0.00873965561743228	-0.00677544233904025	0.625090508142836	-0.768066307173967	0.625075721214519	-0.767836941174024	-0.0111306966389943	-0.00451708234138348
4.7	-0.0102933703302213	-0.00609365155150385	0.498166015234366	-0.855843501596213	0.498282835605665	-0.855598745077965	-0.0126401089480971	-0.00328703254149178
4.8	-0.0117609219550473	-0.00474160323500214	0.359037135937193	-0.922712108036207	0.35933067289072	-0.922523309277655	-0.0137669943225208	-0.00148136536039137
4.9	-0.0124421219434144	-0.00348503624707342	0.211406199079523	-0.966991524205367	0.211665995283838	-0.966940280365997	-0.0141632145369306	0.000814887154405794
5	-0.012816039667305	-0.00210240379908418	0.058952149325823	-0.987939822209599	0.0591103483777402	-0.987811797601367	-0.0135123692690982	0.0033287628205418
5.1	-0.0124596118075769	-0.00110177416776094	-0.0949016188259108	-0.985068566707257	-0.0945804647092876	-0.985005580381148	-0.0121535737024469	0.0054753316156013
5.2	-0.0121351650971987	-0.000169648266239886	-0.246717458722253	-0.958477687681768	-0.246289788368771	-0.95859947299129	-0.0106715367590262	0.00767419037981358
5.3	-0.0118523368162127	0.00031656773356619	-0.392537663806903	-0.908654419782295	-0.392248327071831	-0.908998936057872	-0.00846791101001491	0.00980141017655937
5.4	-0.0117959181452466	0.00121610085262778	-0.529034181998876	-0.836705726847688	-0.528897997142241	-0.836995368902671	-0.00573927130647193	0.0115356466099781
5.5	-0.0117673162383347	0.00228491727447124	-0.652388314180763	-0.744186980483002	-0.65233824512368	-0.744500952413749	-0.00234592657634019	0.0123302201382435
5.6	-0.0113735190232211	0.00369730453879234	-0.759791977767702	-0.633983051753316	-0.759805362284127	-0.634153518952069	0.000520510301795734	0.0117867771424017
5.7	-0.0110019397814919	0.00470862499863652	-0.849123263070294	-0.508330846716213	-0.849099404702704	-0.508506069737915	0.00272970234688402	0.011346291558663
5.8	-0.0105971985919582	0.00592834515620288	-0.917608837705077	-0.370168997995156	-0.917653607999851	-0.370461384237907	0.00485077839947481	0.0107424403570598
5.9	-0.0103626730613071	0.00672531627224892	-0.96384639949378	-0.223317883817487	-0.963966870393419	-0.223365891680162	0.00660976679172542	0.00995863606472966
6	-0.0103556537456858	0.00820316298748228	-0.986843628065321	-0.0711945751027909	-0.986840527634557	-0.0712633186639603	0.00850878091239137	0.00937226032825883
6.1	-0.00991614743530831	0.00983361836127178	-0.986012843603368	0.0828770499240465	-0.986015997678672	0.0827736046070202	0.0105699883789407	0.00751661101511082
6.2	-0.00906284773594998	0.0116587534262479	-0.961078635952217	0.235100812188423	-0.961126712121917	0.234918896045855	0.0116926869111082	0.00518669307622226
6.3	-0.00774300948653113	0.0129952798121158	-0.912881449020006	0.381422712019576	-0.912905776675552	0.381293892332068	0.0122873264359598	0.00253419752086207
6.4	-0.00608881134899174	0.0137008434981296	-0.8426085701107	0.518451387716457	-0.842599757797707	0.518237580492641	0.0120759211712524	-0.000451544752900457
6.5	-0.00459071526389452	0.0137438065106811	-0.751981366286895	0.64315527057256	-0.752081981756893	0.642982671267125	0.011284080497364	-0.00333291024726276
6.6	-0.00294284332002459	0.0136156276689115	-0.642746338364996	0.752163115942318	-0.642895027276232	0.752016943139654	0.00990195396243499	-0.00580725088814264
6.7	-0.00153080588626804	0.0130444436123878	-0.518041005583186	0.842740749100904	-0.51816235463177	0.842583362888902	0.00799221868602342	-0.00768064869947681
6.8	-0.000205289370424684	0.0124438434434445	-0.380802990393646	0.912861928220995	-0.381014390943835	0.912786823779628	0.00585513904110361	-0.00892425015492373
6.9	0.000839651930601178	0.0115431647459755	-0.234392329390185	0.960919762822977	-0.234643385922204	0.960916049892277	0.0038601092550576	-0.00959357714099149
7	0.00198290529406597	0.0107191329155377	-0.082049527552815	0.985574044325915	-0.0823081694534373	0.985544115620875	0.0019678007634412	-0.0101909143376356
7.1	0.00275521015721194	0.0095775320605648	0.0718743850575406	0.986039521383952	0.0716675143694784	0.98602757872231	-0.000252262873633274	-0.0102884289392608
7.2	0.00339197913280773	0.00845701146869412	0.22405038598074	0.962804677691175	0.223794883160383	0.962848980628269	-0.00213807168369591	-0.00958659107364758
7.3	0.00345807586771391	0.00714432165734525	0.370816900414172	0.916218570609094	0.370576585694405	0.916309616886292	-0.00379545728734332	-0.00853232307569228
7.4	0.00333176265427631	0.00610201053812284	0.508593802763145	0.847220408461227	0.508375593154906	0.847382683582887	-0.00530341679692436	-0.00711585784790485
7.5	0.00292435624826156	0.00520566550094547	0.633610409148381	0.757635866782786	0.633450550850245	0.757807964271019	-0.00608418316129061	-0.00524735079608233
7.6	0.00279979397205388	0.00449252122745079	0.743386729210092	0.650169709153862	0.743171467483427	0.650330840410369	-0.0062496678184882	-0.00397090109007633
7.7	0.00235720261909505	0.00382636955993071	0.835132672068471	0.526811809720875	0.834981811814535	0.527006923047258	-0.00652713109527764	-0.0024568847840886
7.8	0.00202629414864039	0.00341650159448135	0.906685076013241	0.390603128965809	0.906564441093893	0.3908248631436	-0.00619916570260654	-0.000803338682943856
7.9	0.00126490501689552	0.00314470416075948	0.955950397304087	0.245157864175915	0.9559102002018	0.245383296213708	-0.00554348759632607	0.00110027051310159
8	0.000738096034178383	0.00351799991465806	0.982276067417879	0.0941101182534005	0.982346773066067	0.0944020318556985	-0.00395635855709406	0.00304682956651575
8.1	0.000296896774220134	0.00406871989818877	0.985088269553876	-0.0595583107745503	0.98521265899428	-0.0592872123451572	-0.00175980064661459	0.00347419806025123
8.2	0.000147417919949825	0.00469533888088577	0.963713659396827	-0.211778860577905	0.963779844063271	-0.211483017811511	-0.000471357480456855	0.00322913561264979
8.3	-6.57638740899987E-05	0.00553425885108349	0.918948610139101	-0.358733603485594	0.919086431248809	-0.3584778286497	0.000546239576872189	0.00284514883098872
8.4	0.000182387805296029	0.00633221206858826	0.852091984426989	-0.496875873938124	0.852303849067006	-0.49667631132681	0.00122277782624935	0.00230455901741044
8.5	0.000255962857527722	0.00735268768148744	0.764774788751733	-0.623277094836187	0.764890706359652	-0.623151327995864	0.00195499415926898	0.00232976921925357
8.6	0.0012710171855625	0.00842167381426964	0.658240944586857	-0.734394629145351	0.658438491266056	-0.734209572047154	0.00353479990717714	0.00147748444706418
8.7	0.00250913289343873	0.00915250763767704	0.53605873725063	-0.827307868416557	0.536340454433055	-0.827199031498955	0.00423239985954423	-2.04970732027329E-05
8.8	0.00441476232987622	0.00932961748007906	0.401212776051994	-0.900307000971777	0.401418731310656	-0.900252877986491	0.00412850581361613	-0.001484032832458
8.9	0.00641682828025473	0.0087242800798287	0.256531637237838	-0.951685790974797	0.256773414873123	-0.951545832125901	0.00376192145026102	-0.00243905285299534
9	0.00852892389402529	0.00713914923326152	0.105272023132481	-0.979561877090362	0.105633802384081	-0.979532723287943	0.00371056407013356	-0.00281565778062292
9.1	0.0101805798889142	0.00491523176370426	-0.0477245847568703	-0.983525739318018	-0.0473726511025007	-0.983540804715469	0.00413179820175073	-0.00342622530080797
9.2	0.0112685285721259	0.00203814212271985	-0.199695717778129	-0.963990595300513	-0.19934051903519	-0.964061647524274	0.00471887167043162	-0.00392501364254336
9.3	0.0113923064568761	-0.00082336702015265	-0.346837677361019	-0.921192058308761	-0.346481198464562	-0.921256794184979	0.00564575991594202	-0.00447558312242599
9.4	0.0107040873851601	-0.00381827233635192	-0.485470312893671	-0.855932700739233	-0.485147802526689	-0.85608075726352	0.00651281522836591	-0.00543313755031115
9.5	0.0090656092445799	-0.0057436118269767	-0.611827431744778	-0.769853814466289	-0.611621875578786	-0.769991076018228	0.00737281607380199	-0.00658002543761183
9.6	0.00742518994498483	-0.00758916938574055	-0.723606122301947	-0.665739333514544	-0.723334091405338	-0.665923958626753	0.00680088095334441	-0.00872822590143051
9.7	0.00523509283339637	-0.00873348105238152	-0.817944072252241	-0.54540089821587	-0.817698505801638	-0.545669755064778	0.00533285596338774	-0.00978167957294211
9.8	0.00287566602411575	-0.00959834715361668	-0.892440161904445	-0.41181697787836	-0.892231775361897	-0.412091380815708	0.00381365595995697	-0.0100743798889611
9.9	-7.89291185054559E-06	-0.00974503695570291	-0.945097816422444	-0.268434126488391	-0.944985834404322	-0.268762595287623	0.00251236067828699	-0.00959482771447827
10	-0.00294186148714025	-0.00896241210190472	-0.975308892520493	-0.119056837736586	-0.975228889244222	-0.119434478521858	0.00230257668413051	-0.00843516066825377
10.1	-0.00539101528453052	-0.00743346334837004	-0.98201038480207	0.0338424321117923	-0.981990698308917	0.0333655480043402	0.00246468909519694	-0.00875388910484858
10.2	-0.00728710304111374	-0.00568533763620251	-0.964713727106479	0.185787877270122	-0.964698917969651	0.185339070117997	0.00185899843508301	-0.0089771702962226
10.3	-0.00889132246343692	-0.00350701898856727	-0.924028289756566	0.333099426729139	-0.924163345222789	0.332560485522465	0.00109641574960912	-0.00915675241280685
10.4	-0.0099357760730812	-0.00162531529879314	-0.861154173432715	0.472125678785879	-0.861418557058488	0.471591404514829	0.00039694343199005	-0.00934488638699236
10.5	-0.0109367698127961	0.000705890321235061	-0.777651650467958	0.600176851509835	-0.777933694667738	0.599791004564802	0.000321679459083522	-0.00938690486187995
10.6	-0.0111713150548684	0.00292690145053624	-0.674682146996966	0.713357946943778	-0.675107279183685	0.713015317174552	0.000567486597614435	-0.0104602407634749
10.7	-0.0111967592111857	0.00556339873688395	-0.555894982278381	0.809075613595523	-0.556305307626529	0.808788501141244	0.000132836568980905	-0.0118311061337939
10.8	-0.010387059052875	0.0079016650197034	-0.423718667537101	0.885300568067499	-0.424227508870273	0.885072373993602	-0.000932812659383963	-0.0130913594423263
10.9	-0.00911899924419815	0.0105524042172608	-0.281361250649708	0.940368723590188	-0.28184765010753	0.940318018070671	-0.00254507358075774	-0.0137624290174503
11	-0.00677972839609113	0.012579962424588	-0.131691356900219	0.972381035704781	-0.132235911319325	0.97237729419152	-0.00373612741197987	-0.0140735427736841
11.1	-0.00383399531851977	0.0141782930052105	0.0205183136009131	0.980587685734153	0.0198914201704493	0.980670735997869	-0.00501862896299313	-0.0144296610152969
11.2	-0.000395760440663599	0.0145991856935889	0.172075986761582	0.965535764970043	0.171558738278582	0.965738332867906	-0.00618958844779933	-0.0145011746216915
11.3	0.00302020693524459	0.0142393815913019	0.319567006041116	0.927199977284498	0.319139064333071	0.927461775419634	-0.00713629622113541	-0.0142320381560456
11.4	0.0060412330729757	0.0128397294161339	0.45960355873922	0.866298701689385	0.459141106070809	0.866557947161909	-0.00797813656342081	-0.0134909971547667
11.5	0.0088084942803154	0.0114578971203357	0.587856756686125	0.784204281724116	0.587500277101594	0.784620823920333	-0.00802918343041974	-0.0127674220845402
11.6	0.0112887982789222	0.00886977221333069	0.702067487875481	0.683956427934931	0.701801692136328	0.684435221174263	-0.00883811787300041	-0.0130164254966953
11.7	0.0131179117310036	0.00608623015166512	0.799737665994361	0.566945942201702	0.799499441173019	0.567366588311465	-0.010190085277147	-0.0125461833847386
11.8	0.014012301535946	0.0025172772976212	0.877946761926178	0.435895364105861	0.877763282530454	0.436445847425095	-0.0116354295267215	-0.0116697228534652
11.9	0.014027697766227	-0.00101268027035766	0.93458964948252	0.294671527892811	0.934551486375331	0.295213826005871	-0.012885972192966	-0.00983029775372287
12	0.0120746610103645	-0.00402138946079799	0.9691868540301	0.146926293207093	0.969174351143671	0.147404528330874	-0.0131198849228902	-0.00757293418786192
12.1	0.0101123076325568	-0.00653750564096599	0.980609326995769	-0.00532770711798765	0.980584458396906	-0.00485581581867895	-0.0127501801129834	-0.00700739580830232
12.2	0.00714161801176798	-0.00826404651996713	0.967867974073407	-0.157511119126792	0.967974196823777	-0.157074766817812	-0.0134336540349476	-0.00600403828560638
12.3	0.00416475554038399	-0.00877733334566631	0.931609827043508	-0.30553167328262	0.931794867218379	-0.305174161380599	-0.0138808603334333	-0.00458466208272416
12.4	0.00108518768813786	-0.00878395244770484	0.873392838113262	-0.446122119529677	0.873525009563162	-0.445747766458533	-0.0142139632136838	-0.00296094653493741
12.5	-0.00158029702897746	-0.00764458681824034	0.79380262276749	-0.576667844533272	0.794260065930815	-0.576275402224909	-0.013714574248206	-0.000796806165173165
