# GHZ S RI R 50
0.2	-0.000192060684135201	3.82921392721597E-05	0.949029271784525	-0.30790983457449	0.948803035688685	-0.308051729147477	2.92075455905461E-05	0.000127630181378101
0.3	-0.000328228143179815	0.000307125655749358	0.889064324816827	-0.451581172100332	0.88892690206132	-0.4516343767779	-5.99734890265673E-05	-7.35542621400621E-05
0.4	-0.000136314473201278	0.000435421009700474	0.807545506608017	-0.583831744338679	0.807585604701339	-0.583971340260448	8.32218929430442E-05	-0.000169653341523898
0.5	-0.000311487590217295	0.000570607685861339	0.706829788383892	-0.702057702159131	0.706719206911052	-0.702153546272413	0.000113342397864584	-0.000333647630621866
0.6	-0.000303382930781897	0.000779355925280845	0.588908616600392	-0.803127510043677	0.588719091415411	-0.803130409577321	9.24173631867028E-05	-0.000492837439710911
0.7	-0.000299543413438858	0.00120141802068613	0.456823788155858	-0.884434731484365	0.456749777399823	-0.884469099704572	8.91642358232712E-05	-0.000779424401559099
0.8	-2.72699665212938E-05	0.00132134907793488	0.313834967284228	-0.944436412148481	0.313716471225099	-0.944349720162685	-9.07808828571453E-05	-0.00100740780337102
0.9	0.000217651145423958	0.00166115965687401	0.163352433789084	-0.981418830590279	0.163203495384423	-0.981376002012433	-0.000398651692162666	-0.00126682464100186
1	0.00052648966080909	0.00141291262402623	0.00889559047513439	-0.994589992278059	0.00877756946716718	-0.99456033121165	-0.00084677771043956	-0.00156906508347061
1.1	0.000571926160610575	0.00137137498113178	-0.144966772213918	-0.983694543500046	-0.145613919108746	-0.983659453422705	-0.00157120614533462	-0.00136337618103743
1.2	0.000829771322830321	0.000520675586535084	-0.296614871598291	-0.948925005597412	-0.296607903277974	-0.948980649418771	-0.00164789940815174	-0.00101513504856941
1.3	0.00101647883197003	-0.000792225845218735	-0.440180260525724	-0.891139062692292	-0.440272298163124	-0.891163516570797	-0.000708937121613351	-0.000250917049254477
1.4	0.001110873095509	-0.00255610022552233	-0.57294364359648	-0.811916120059759	-0.573017395467396	-0.811816620655417	0.000885293065454276	-0.000488150150280875
1.5	0.000960203154357284	-0.0032459740904994	-0.692036198678529	-0.712815073312003	-0.692060782516314	-0.712743081049218	0.00221293929669593	-0.00140120692597105
1.6	0.000943477401339652	-0.00350223780340066	-0.793714418606117	-0.597037443737314	-0.794143615927471	-0.596537348264799	0.00210155096032741	-0.0026406154829912
1.7	0.000942787467342507	-0.0034742828756021	-0.876544901759651	-0.466464781497637	-0.876849056018681	-0.465975312794425	0.0013214634009637	-0.00333442280288658
1.8	0.000722483387085496	-0.0035968719354886	-0.938327698313567	-0.324260616916375	-0.938343136724596	-0.324251161396515	0.000246434791750932	-0.00384337362475818
1.9	0.00046686691216277	-0.00366405818165356	-0.977197207185238	-0.174514157870971	-0.977241679249174	-0.174566863105651	-0.000808533841831565	-0.00402341467543122
2	-0.000278019720837561	-0.00371533764471598	-0.992028942576284	-0.0213076448210571	-0.992123653719895	-0.0206587420934664	-0.00201288333886773	-0.00364266930147871
2.1	-0.000661430408523514	-0.00339269856087787	-0.983078857611143	0.134062717002152	-0.983178302681873	0.133578932811599	-0.00247507623204946	-0.00316089858140052
2.2	-0.00130654823991141	-0.00339737868074023	-0.950401775029772	0.284269551498986	-0.950440520959651	0.284403189459012	-0.00309594329606512	-0.0029349607533735
2.3	-0.00192765310778335	-0.00318633826044521	-0.894659187993261	0.42821925036429	-0.894495504360131	0.428307633546512	-0.00379850254619759	-0.00259700915602945
2.4	-0.00277281866172663	-0.00302962658888138	-0.816695810673827	0.562314498799003	-0.816986874508278	0.561853000715775	-0.00446567409724615	-0.00220017262576981
2.5	-0.00373853344000386	-0.00246437357965204	-0.719756056052697	0.68202369185968	-0.720058008159966	0.681643348033649	-0.00487847725783469	-0.00171615349478974
2.6	-0.00447021015873219	-0.00147356587803695	-0.605522016913603	0.785112876673504	-0.605442843643356	0.785053549068442	-0.00469763126450363	-0.00106700484453773
2.7	-0.00445346796882168	-0.000405986968806323	-0.476194689938518	0.869349893120533	-0.476165243864477	0.869363975721936	-0.00447909607987591	-0.000795036949385325
2.8	-0.00408110039114198	0.00028439828469222	-0.335701233988524	0.932535966507762	-0.335583178170132	0.932620408035674	-0.00411900857836155	-0.000530176671417332
2.9	-0.00305255770917922	0.000697105360909341	-0.186985281331314	0.97319990039142	-0.186980849593223	0.973254638223175	-0.00355425489134157	-4.66261807927799E-05
3	-0.00212167173484845	0.000775535365232654	-0.0334302490434332	0.990437012144164	-0.03349452793899	0.990508372315938	-0.00252578586321333	0.000402672827020657
3.1	-0.000906405288142818	0.000643641357458947	0.11987761012423	0.98349809675655	0.120525045441215	0.983579438629566	-0.00145495691950824	0.000555476031888044
3.2	-0.000151031017702132	9.19749545696787E-05	0.271572350740452	0.952750869345709	0.271562388636179	0.952790420279676	-0.000709310611806811	0.000408630121401018
3.3	0.000728993096184969	-0.000599928446852704	0.416793519764241	0.89876974808805	0.41617131518703	0.89905076173054	0.000279252325868763	0.000131469683094839
3.4	0.00103160515080564	-0.00148924811313319	0.550738604073664	0.823490027135458	0.550653690910034	0.823605198256844	0.00122507195822264	-0.000546497469314658
3.5	0.00135803666939735	-0.00216821222999194	0.671722632938844	0.727974630367265	0.671736841250493	0.728000812111426	0.00194426653794533	-0.00147764877212605
3.6	0.00133632303028665	-0.0029391799347218	0.775974803358335	0.615319624227406	0.776396719875034	0.614926093165941	0.0021794054554972	-0.00270819624049307
3.7	0.00132736242962546	-0.00379521413846092	0.86242526819914	0.486853179069834	0.862432208337137	0.48697961776466	0.00198376743240943	-0.00374172533987504
3.8	0.000838438617843844	-0.00464039827489193	0.927416446863686	0.347018460567893	0.927444737027015	0.347201633829314	0.00134551117306412	-0.00477428800296872
3.9	0.000492540470675607	-0.00547498882018661	0.970059265969791	0.198277212813166	0.9699607266712	0.198864675398708	0.000127676511360192	-0.00578731488030438
4	-0.000555445661614642	-0.00600574432339609	0.988909883969225	0.0461521226941203	0.988991796670578	0.0461951241337832	-0.0011367533969378	-0.0061984935928593
4.1	-0.00127264345517669	-0.00637335444346491	0.984259117297613	-0.107849948767541	0.984197007438741	-0.107785993045634	-0.00233587790182739	-0.00666901985150116
4.2	-0.00249584931021558	-0.00668662404764486	0.955205172550138	-0.259943668198807	0.955398334804951	-0.259374656322364	-0.00390294624096578	-0.00690049445360207
4.3	-0.00357398556245699	-0.00706858531060457	0.903495617612692	-0.40444446223896	0.903496482411286	-0.404425944987293	-0.0056289992792012	-0.00696242498058687
4.4	-0.00509183058771466	-0.00721810736786972	0.829784718737769	-0.539587369769679	0.829704859404063	-0.539571483670478	-0.00765912196019885	-0.00653006221499908
4.5	-0.00670462725308122	-0.00719339400099895	0.736167962711668	-0.661952302760075	0.736044471031268	-0.661806385801468	-0.00961526696787818	-0.00543614951307312
4.6	-0.00846527899022828	-0.00637251245000018	0.624364155835993	-0.768268801739274	0.624349533496355	-0.768039495232214	-0.0110148420213229	-0.00395127268622678
4.7	-0.00979150105424903	-0.00569805009326888	0.497381152083045	-0.855860606529168	0.497498097399952	-0.855616024975717	-0.0123553396659931	-0.00264039352559
4.8	-0.0110824187249584	-0.00451792843207955	0.358255768668481	-0.922507609862753	0.358549289829556	-0.922319095370725	-0.0133144962887978	-0.000912097921644369
4.9	-0.0117128229259956	-0.0034998528801707	0.210735961229019	-0.966559181219185	0.210995638121621	-0.96650811427233	-0.0136255593321642	0.00122550309500449
5	-0.0121601139858205	-0.00232184803761313	0.0584670198714284	-0.98741717000073	0.0586251895257313	-0.987289289049031	-0.0130141130829411	0.00360725792041117
5.1	-0.0119132867696476	-0.0014450823590275	-0.0952701209622916	-0.984476411003224	-0.0949491196981744	-0.984413597404573	-0.0116525777866845	0.00572241085375123
5.2	-0.011692003270978	-0.000582789500619442	-0.246937689182891	-0.957832485115983	-0.246510311139755	-0.957954361952901	-0.0101093025055917	0.00783422598614589
5.3	-0.0115093798196266	-0.000157802348565484	-0.39259559663561	-0.908004825521367	-0.392306535675616	-0.908349233083738	-0.00789512745974098	0.00977882075444489
5.4	-0.0115908822426191	0.000682526968537479	-0.528960176558618	-0.836128847633624	-0.528824136125347	-0.836418369258658	-0.00532009675308505	0.0112769473253339
5.5	-0.011780873674702	0.00178945277328771	-0.652293753874701	-0.743645717379972	-0.652243799207082	-0.743959554861413	-0.00234202039012668	0.0120638615392622
5.6	-0.0115360183742383	0.00331626976047492	-0.759591362926051	-0.633431495299034	-0.759604791403409	-0.633601871096438	0.000349998296402155	0.0117920599714209
5.7	-0.0113180131798493	0.00451149743558738	-0.848816856243031	-0.507830411411265	-0.84879305858854	-0.508005548927843	0.00250381274799761	0.011563806441258
5.8	-0.0109917169506408	0.0060380087040503	-0.917240349457204	-0.369741122686794	-0.917285173600208	-0.370033348923931	0.00462813425904323	0.0111981006269283
5.9	-0.0106376107539588	0.0072225464453963	-0.963454006267559	-0.222909708838981	-0.963574434447602	-0.2229576560359	0.006517494481753	0.010629419827144
6	-0.0102795187796985	0.00902769450534191	-0.986294762951556	-0.0707683639503788	-0.986291691179522	-0.0708370685316476	0.00851864197385449	0.010207708490614
6.1	-0.00918722442141194	0.0106932319315558	-0.98531790706435	0.0831534393556377	-0.985321093946065	0.0830500651092634	0.0109878675265703	0.00856404709025511
6.2	-0.00785596177267763	0.0120207366387203	-0.960312969227855	0.235215926872634	-0.960361064652585	0.235034156769508	0.012560972526373	0.00594921578324139
6.3	-0.00656653415783679	0.0127092520542672	-0.912068766149165	0.381380082244868	-0.912093110663337	0.381251369126855	0.0132150556274303	0.00280564029330403
6.4	-0.0052918666348925	0.0130385039523731	-0.841730602466113	0.518216178481842	-0.841721854055012	0.518002557243758	0.0127682338213919	-0.000505985214377686
6.5	-0.00421925924572025	0.0130248667352578	-0.751154662633888	0.642590847984796	-0.751255195802559	0.642418433332933	0.0116572700684042	-0.00346443228637244
6.6	-0.00284855841991532	0.0130211654165006	-0.642131152222701	0.751408008948914	-0.642279691387682	0.75126197660822	0.0101024663102345	-0.00586788551973164
6.7	-0.00158743349763686	0.0126061699096484	-0.517618320030394	0.841860302160429	-0.517739533812839	0.841703058140953	0.0080785631427774	-0.00769655545689408
6.8	-0.000320602585705516	0.0121529139218527	-0.38059223926679	0.911873425639459	-0.380803413329281	0.911798356882656	0.00583790306162691	-0.00887965430634909
6.9	0.000719694744511339	0.0113439886415734	-0.234472489790621	0.95984983111041	-0.234723286034169	0.959846037897398	0.00375258443302096	-0.0094785900722893
7	0.00185010131084438	0.0106107380773539	-0.0824726388899179	0.984635976280525	-0.0827310303582732	0.984605944180463	0.0017688227684539	-0.00992918134507584
7.1	0.00263916472435786	0.00954617314025893	0.0713058650796845	0.985276903220144	0.0710991683789776	0.985264863200901	-0.000430933398985252	-0.00988142501736663
7.2	0.00330308372517682	0.00850261422658018	0.223343032203101	0.962182100011895	0.223087702998936	0.962226226986383	-0.00227819212247064	-0.00906717821095086
7.3	0.00344444155714058	0.00726100022724646	0.369970873866827	0.915771712819217	0.369730680228689	0.915862541789399	-0.00384845197348709	-0.00790500152624381
7.4	0.00344096636228303	0.00621630086448044	0.50765512150363	0.847041873369277	0.507436935306404	0.847203886582301	-0.00520064497612885	-0.00646060201305414
7.5	0.00310498294028676	0.00520469545949552	0.632770295615486	0.757685822618164	0.632610400466059	0.757857723378007	-0.0059116962279541	-0.00465762086100879
7.6	0.0029483765977444	0.0043687295334616	0.742563220063614	0.650354289810626	0.742347955838587	0.650515191305629	-0.00603682090935491	-0.00337942941096665
7.7	0.00239537865440007	0.00369621972777394	0.834377330841155	0.527201988121095	0.83422639154576	0.527396904356672	-0.00625280810247011	-0.00190942092473705
7.8	0.00201375797446633	0.00334641751858466	0.906107139486972	0.391157458529871	0.905986376927109	0.391379032610109	-0.00585296220860431	-0.000318413480350492
7.9	0.00128078700488	0.00311583660412983	0.955596078478809	0.24573176796977	0.955555742459804	0.245957127950998	-0.00516159911348763	0.0013688808235533
8	0.000597972796801595	0.00350936756798666	0.981950735655261	0.0945733123100237	0.98202127568743	0.094865178442201	-0.00397634144050144	0.00311144212961802
8.1	0.000149874939573615	0.00432582134346634	0.98477547002418	-0.0590029822715569	0.984899668802696	-0.0587319113282095	-0.00208684406874391	0.00393353574700814
8.2	0.000186842486030607	0.0051557817994872	0.963487311342972	-0.211159717557919	0.963553305523828	-0.210863943614852	-0.000698232299880418	0.00408363445839792
8.3	0.000257488344582537	0.0060357623191298	0.918801182311748	-0.35807821988327	0.918938806545329	-0.3578224646441	0.000620814837623372	0.00390407727583039
8.4	0.000793603968237307	0.00669352246965468	0.851974005273	-0.496156828879062	0.852185656576961	-0.495957239516336	0.00169335979423582	0.00330373605206105
8.5	0.000971167562134495	0.00735252186819881	0.764811292888894	-0.622331722220287	0.764927047291686	-0.622205939094759	0.00252912543260337	0.00288960818399106
8.6	0.00186394265376858	0.00818884607573992	0.658617169325902	-0.733449711588757	0.658814454444886	-0.733264556957264	0.00386574689123543	0.00195376354154838
8.7	0.00297240910078632	0.00877249328955425	0.536670504562368	-0.826468336227255	0.536952008381951	-0.826359263184159	0.00452785786134009	0.000526208246553718
8.8	0.00473221536414656	0.00883306950862847	0.402026091743789	-0.899578767540335	0.40223192011977	-0.899524445734747	0.00451212092030872	-0.000920717068876801
8.9	0.0065631107121467	0.0081193978450653	0.257610194531573	-0.951084801125553	0.257851728600072	-0.950944590996631	0.00428032443705832	-0.00201189372245067
9	0.00838043992501573	0.00647498898472964	0.106648146528088	-0.979374019225374	0.107009870104195	-0.979344356789909	0.0041342203513384	-0.00266813027003893
9.1	0.00975035334176554	0.00447746194327549	-0.0464157768505997	-0.983795894062332	-0.0460637492254794	-0.983810490709454	0.00433974509203684	-0.003265071222405
9.2	0.0108225983961807	0.00191231120630279	-0.198539925151891	-0.964577195378938	-0.198184513483066	-0.964647820858944	0.00488298243047418	-0.00369709582388494
9.3	0.0110902680991679	-0.000734335564650275	-0.345856340443236	-0.922041001351681	-0.345499618984486	-0.922105325798163	0.00578437400936305	-0.00423117428883612
9.4	0.0106176214734504	-0.00364943810124901	-0.48471797557201	-0.857069594895028	-0.484395079918087	-0.857217346030336	0.00659487427387651	-0.00522364222782876
9.5	0.00904382657866225	-0.00559144795017929	-0.611566228120921	-0.771136083907764	-0.611360356206203	-0.771273253338787	0.00713368304092914	-0.00624456507046618
9.6	0.0075295845396958	-0.00737971578548563	-0.723641500135081	-0.666900284703318	-0.723369088653947	-0.667084832479711	0.00665786176731176	-0.00795056506250285
9.7	0.00544520578476186	-0.00854198242706375	-0.818208633413721	-0.546497832004301	-0.817962650512543	-0.546766724089454	0.00547363010804155	-0.00886255030850504
9.8	0.00318726452041095	-0.00942611157897405	-0.892963130692846	-0.412816012344801	-0.892754362626181	-0.413090518778414	0.00423609766765078	-0.00917422508134165
9.9	0.00044125337532327	-0.00966614216092073	-0.945883482531931	-0.269194404870456	-0.945771217915141	-0.269523136848183	0.00318801220472151	-0.00897385398759255
10	-0.00255035813105031	-0.00911175570711471	-0.976063549980761	-0.119465093739168	-0.97598336104612	-0.119843015890131	0.00271183090347558	-0.00822575390980149
10.1	-0.0050799138892882	-0.00762498834953438	-0.982701996685363	0.0334763343436695	-0.982682107455652	0.0329991287090069	0.00265590474045921	-0.008388499338526
10.2	-0.00705843446053691	-0.00599521227904073	-0.965469029388043	0.185493197353637	-0.965454012466115	0.185044083365215	0.00208409091308775	-0.0086135170853791
10.3	-0.00887892645073007	-0.00391500311843461	-0.924849536442144	0.332937173960271	-0.924984454000332	0.332397779762806	0.00126436889416458	-0.00892336799971806
10.4	-0.0102330500497362	-0.00198141558777169	-0.86195261425036	0.472120984233706	-0.862216974681325	0.471586225869107	0.000372992615575397	-0.00924684053304381
10.5	-0.0115658010644334	0.000628970093929959	-0.778492746295803	0.600165205479244	-0.778774774158498	0.59977894959084	-0.000156517864825057	-0.00929085252989779
10.6	-0.0118189941534307	0.00346549463099896	-0.675670164263477	0.713611769165378	-0.676095480630132	0.713268602859653	-0.000213849976830497	-0.00979258010078628
10.7	-0.0113054753601163	0.00647840033788524	-0.556784308099276	0.809616810885612	-0.557194905676076	0.809329242409299	-0.000337073227332336	-0.0106053128335106
10.8	-0.00990263742711564	0.00882960666654355	-0.424422536830274	0.885990957312045	-0.42493178025959	0.8857623732045	-0.000881751805427568	-0.0117363660421568
10.9	-0.00824925689435154	0.0110987690160833	-0.281978628884371	0.941098933288784	-0.282465442954519	0.941047993163342	-0.00210942105184096	-0.0126464586447477
11	-0.00581776412672139	0.0127042208529234	-0.13231504820556	0.973382958536529	-0.132860198221882	0.973378944581272	-0.00321925286557555	-0.0132291388797254
11.1	-0.00291038243170012	0.0139676537797161	0.0202440823250805	0.981811076685304	0.0196163854097082	0.981894038463059	-0.00445734797980747	-0.0137468161041722
11.2	0.0004043782419898	0.0141141969045115	0.172105145697916	0.966777082203541	0.171587210959722	0.966979803857791	-0.00561220524966848	-0.0139974371161462
11.3	0.00365908935157066	0.0135323742673186	0.319835049160894	0.928436074951205	0.319406519542476	0.928698143187339	-0.0065622762352345	-0.0139161424310227
11.4	0.00646530928300469	0.0119232000588708	0.460142411632898	0.867592630764168	0.459679266390125	0.867852183665016	-0.00752312507246514	-0.0134762707205321
11.5	0.00880944880535671	0.0104281293903334	0.588927643769369	0.785369136205379	0.588570658771798	0.785786405055836	-0.00811932153275697	-0.0128735848705802
11.6	0.0109274259183554	0.0079754005372613	0.703370449823094	0.684696798314227	0.703104445986622	0.685176402575193	-0.00917755421816743	-0.0127891882674479
11.7	0.0124154814994837	0.00541306812826384	0.801153871322924	0.56737783970078	0.800915505307969	0.567799202147788	-0.0106196107229422	-0.0121030265643861
11.8	0.0130269080026842	0.00225708623009981	0.879490850810936	0.43600821905979	0.879307432013345	0.436559616864001	-0.0121266612245476	-0.0109855958148144
11.9	0.0126944897252117	-0.000594450041079955	0.936240468396538	0.294289990517613	0.936202724527151	0.294833129898154	-0.0136302991857006	-0.00888706402741514
12	0.0111391380913593	-0.00306528157922284	0.970487568129739	0.145955668900451	0.970475613986026	0.146434475164656	-0.0137896417969127	-0.006378132046863
12.1	0.00981978752019098	-0.00470092369046132	0.981487750004293	-0.00642139498744583	0.98146338296727	-0.00594905051532462	-0.0131689020664505	-0.00489916795578257
12.2	0.00794554049757473	-0.00640646328447793	0.968480425945585	-0.158662753294577	0.968587196241936	-0.158226162152779	-0.0129224719317335	-0.00371213714708262
12.3	0.00580509316724716	-0.00746391975838979	0.931986327142731	-0.306760843987789	0.93217189023996	-0.306403260245245	-0.0125950396479767	-0.00267305944297018
12.4	0.00319953957875337	-0.00829426796091747	0.873418061151547	-0.447405318718887	0.87355074611061	-0.447030886727302	-0.0124129171067148	-0.00177444530941904
12.5	0.00043770214402102	-0.00811243076941657	0.793585505963475	-0.577699135439329	0.794043534594721	-0.577306969447279	-0.0121248617032799	-0.000574062305346916
12.6	-0.00179608136273625	-0.00733352485965351	0.694218198500258	-0.693749864263178	0.694564553748153	-0.693440681294114	-0.0111665486764206	-0.000113372885186544
