# GHZ S RI R 50
0.2	-0.000323638627022472	-0.000250885138490649	0.949755947448036	-0.307621844087288	0.949529645625255	-0.307763937287576	-8.64863371875937E-05	-0.000178922773787256
0.3	-0.000635408839204728	3.55728114084721E-05	0.890073493161702	-0.451387228256484	0.889935992122838	-0.451440563066487	-0.000346671788800537	-0.000383553840880965
0.4	-0.000631471451649736	0.000309319822355083	0.808834409719763	-0.583928506274522	0.808874646927407	-0.584068229231081	-0.000397458005151437	-0.000354772174537592
0.5	-0.000640841787487229	0.000763983065631822	0.708046228650055	-0.702655032404018	0.707935546351606	-0.702751048157481	-0.000205543568706498	-0.000202910239823782
0.6	-0.00050535150389281	0.000741609502833797	0.590023650955093	-0.803821057796157	0.589833895277839	-0.803824053953956	-8.09340885795887E-05	-0.000612889234690837
0.7	-0.00062536414968418	0.00115275701051567	0.457943244171358	-0.885444809475061	0.457869146829284	-0.88547926590441	-0.000209834035672301	-0.000951662167293909
0.8	-0.000415829635065134	0.00129525760960545	0.314763312793027	-0.945820015559813	0.314644586805618	-0.94573323664703	-0.000479769428885613	-0.0011980866748657
0.9	-0.00038348226430429	0.00170622219453315	0.163861411164523	-0.98307788108716	0.163712205371828	-0.983035012850714	-0.00106559484022948	-0.00141433143604775
1	7.89535241282764E-05	0.00215787151440592	0.00908040008692563	-0.996104716709694	0.00896219404316693	-0.996075030752107	-0.00145692228771112	-0.000955510268563167
1.1	0.000932419621340425	0.00171869959610227	-0.144882259060043	-0.985475086299802	-0.145530556528158	-0.98544015786888	-0.00135532640701762	-0.00103170826153535
1.2	0.00129061838680751	0.000258788185634953	-0.297026671443453	-0.950832860376983	-0.297019679647144	-0.95088861175734	-0.00125248495002183	-0.00122289035941652
1.3	0.00133286860437873	-0.00180196639523197	-0.441066011773279	-0.892931993783927	-0.441158234599977	-0.892956496850242	-0.000343251243081309	-0.00118890611540036
1.4	0.000810796584049182	-0.00386776797013605	-0.574131350721479	-0.813435864058416	-0.574205236145602	-0.813336164760843	0.000735173992881067	-0.00179980831299636
1.5	0.000547852722286937	-0.00458929659450892	-0.69339331559274	-0.714394346181296	-0.693417960022911	-0.714322206424684	0.00204425287667961	-0.00288480027904148
1.6	-0.000288691056348838	-0.00454510994337137	-0.795785430264114	-0.59834543690242	-0.796215582045832	-0.597844025877084	0.00107575291971597	-0.00403017055791548
1.7	-0.000290160671599437	-0.00375068334201094	-0.878898049341036	-0.467177586854239	-0.879202707744935	-0.466686783176909	0.000129984673308621	-0.00404989255054886
1.8	-0.000321588598461492	-0.00342010641537027	-0.940765904779079	-0.324470021129185	-0.940781374393188	-0.324460533692009	-0.000903143376173682	-0.00408777447820507
1.9	-0.000230120775456422	-0.00295193774554403	-0.979705142582914	-0.174368433177134	-0.979749755141882	-0.174421241947732	-0.00170693389858576	-0.00362514922946206
2	0.000109886566010041	-0.00323684797397928	-0.994914239439462	-0.0205049926868871	-0.995008658980979	-0.0198541322493805	-0.00175061813192058	-0.00334425603810559
2.1	-0.000715243512570673	-0.0036177162675271	-0.985533805006004	0.135774818700415	-0.985634182475447	0.135289872458416	-0.00257364933275894	-0.00364731884335813
2.2	-0.00156639754650099	-0.00343024151994986	-0.952416362119328	0.286406191442865	-0.952455009344911	0.28654022931171	-0.00347149314560627	-0.00328336498602654
2.3	-0.00218063242503039	-0.00310357227893095	-0.896283532246781	0.430768714655786	-0.896119282745592	0.430857062707714	-0.00426679316745053	-0.00279544389855351
2.4	-0.0029761901640702	-0.00270050909285196	-0.817870604631885	0.565384492342582	-0.818163330352939	0.564922280272436	-0.00496650301059156	-0.00201377146052697
2.5	-0.00309747094060463	-0.00214758074424714	-0.719853812792515	0.685556701038406	-0.720157484436524	0.685176158347129	-0.00443989467981825	-0.00129582581139368
2.6	-0.0039870140253535	-0.00220665950149262	-0.604854742915566	0.788266596407471	-0.604775549630671	0.788206947779274	-0.00414049569575847	-0.0016699588795362
2.7	-0.00460726849982611	-0.00133568004536113	-0.474970183987128	0.872397229797578	-0.474940639925267	0.872411266621229	-0.00440974350454519	-0.00172869050332306
2.8	-0.00465615701852924	-0.00045733154608965	-0.33376534647573	0.935393898334849	-0.333646810800207	0.935478180827646	-0.00443582159398025	-0.00142659736576176
2.9	-0.00373519134941354	0.000222531850525878	-0.184204580406924	0.975573913973032	-0.184199965016983	0.975628737377394	-0.0040015254779548	-0.000767377072965915
3	-0.00284466674534516	0.000315915124646901	-0.0303032039819334	0.991725621764853	-0.0303673313997025	0.991797272612055	-0.00302510435932196	-0.000410270784554706
3.1	-0.00182532628704095	0.000483065540158056	0.123008655756413	0.98441188370189	0.123657177455665	0.98449137240792	-0.00224150048504917	-9.74750639830191E-05
3.2	-0.000931789679162826	0.00015134434607876	0.275020902148525	0.953016750517837	0.275011057457092	0.953056382016082	-0.00147487251641239	-8.05053654307275E-06
3.3	4.85191752190747E-05	-0.00039871018550728	0.420299064417449	0.898170259222919	0.41967724878178	0.898453692628719	-0.000455686834614175	-0.000103967481995178
3.4	0.000602644672116893	-0.00113450488177539	0.5538785336558	0.822010822693552	0.55379397529175	0.822126347992507	0.000732456161753032	-0.0005559215624322
3.5	0.0011421925342457	-0.00223798635669562	0.674335798615315	0.726302147111992	0.674350095455643	0.726328299390617	0.00176856084823975	-0.00191901346628928
3.6	0.000662091350335977	-0.00290713601024114	0.778641650062951	0.613024367728166	0.779062476158582	0.612629100868154	0.00152556935335601	-0.00317360027227508
3.7	0.000730377971701369	-0.00345927755213347	0.864501514113741	0.483839166305294	0.864508921940381	0.483965621122829	0.00129767457789274	-0.00392640224136847
3.8	0.000394304937085824	-0.00413538731533489	0.92872350686227	0.343623456569674	0.928752470933599	0.343806532264223	0.000718889812315388	-0.00473318081450474
3.9	0.000358351070595681	-0.00474283164665628	0.970685077962989	0.194849311690543	0.970588612987763	0.195437077487595	-0.000231511933855447	-0.00537200041204444
4	4.6107478005746E-06	-0.00573664553004295	0.989250045470969	0.0423529202303496	0.989332137165605	0.0423956134150626	-0.00063405293712241	-0.0060843595907474
4.1	-0.00122170403813035	-0.00660583480826667	0.983359715671498	-0.111946658768712	0.983297903271768	-0.11188247037934	-0.00215941804914667	-0.00716549580856001
4.2	-0.00266552535210583	-0.00678563413333224	0.953345511855684	-0.263641868549857	0.95354084524841	-0.263074121478804	-0.0039349324216095	-0.00738387074140625
4.3	-0.00382114469648266	-0.00705993596730776	0.90093632176291	-0.407670130211054	0.900937260308095	-0.407651635488782	-0.00578373521548692	-0.00739774774471053
4.4	-0.00530395252530435	-0.00693600709118338	0.826634511192456	-0.542438131206041	0.826554805470723	-0.542421931168886	-0.00785966567752051	-0.00666674473184937
4.5	-0.0062105078070683	-0.00699460150141109	0.731864419295014	-0.664198010531516	0.731741809723084	-0.664051776691623	-0.0090516495335951	-0.00548777299704006
4.6	-0.00823029999870147	-0.00698778780835031	0.619752848909985	-0.769041015638856	0.619739202376861	-0.768812183908699	-0.0104831767038547	-0.00485061688444352
4.7	-0.010111230905797	-0.00640567905891004	0.492837396687609	-0.85568507271647	0.492955003224169	-0.855441546455189	-0.0122734372093838	-0.00379303440202378
4.8	-0.0118090202826482	-0.00503237479555222	0.353758317904246	-0.92144453071705	0.354051787551104	-0.921257644450639	-0.0136196436828758	-0.00204581376843395
4.9	-0.0126226407345235	-0.00362655262915948	0.206277525248595	-0.964430971949445	0.206536608477258	-0.964381085819392	-0.0141721279719083	0.000334159497790817
5	-0.01302389306625	-0.00225152219035586	0.0548543343073425	-0.983842560836035	0.0550123381438194	-0.983715711712637	-0.0135748913833165	0.00277377640078758
5.1	-0.0128426814697943	-0.000947280547479865	-0.0978201838872654	-0.980601028879857	-0.0975001698991984	-0.980539389567013	-0.012480097919029	0.00514138712938118
5.2	-0.0122033628883847	0.000252570350260525	-0.248778068810314	-0.953488741364843	-0.248352662806828	-0.953611395065526	-0.0108111521356713	0.00761132685896799
5.3	-0.0115136748420965	0.000691401299019398	-0.393469660966742	-0.903198984077355	-0.393182730943801	-0.903542768386664	-0.00829255296818998	0.00976756891211029
5.4	-0.011015602083201	0.00128828531082727	-0.528503923353519	-0.831114596469833	-0.528369170730419	-0.831403122308332	-0.00512965560527671	0.0113229703422789
5.5	-0.0111964009397976	0.00121588067751352	-0.650675579483721	-0.739407863264469	-0.650626340257108	-0.739720431103595	-0.00181429801617159	0.0110082423916369
5.6	-0.0119306162881452	0.00302024241520035	-0.757550691773701	-0.629406584778424	-0.757564371329159	-0.629576222312664	-7.35730006136946E-05	0.0107396384373604
5.7	-0.0115986932865933	0.00465867231296809	-0.845812204517411	-0.504139899240029	-0.8457888021057	-0.504314283792026	0.00199419630980871	0.0108999359836516
5.8	-0.0109880222042167	0.0063148966416977	-0.913347089373642	-0.366835148871423	-0.913392066931555	-0.367125930869595	0.0042375460933969	0.0108019836449194
5.9	-0.0101165529578354	0.00751383626905417	-0.959094234919345	-0.221178998280478	-0.959214132452373	-0.221226634913052	0.00661465347332422	0.0105739738524778
6	-0.00918290361525361	0.00801254289690912	-0.982123002583519	-0.0696351075211383	-0.982120001788706	-0.0697035198645436	0.00962820899964906	0.00914032550295943
6.1	-0.00965696184085878	0.00903342441723054	-0.980466234935971	0.0835483835637143	-0.980469490113224	0.0834455138925082	0.0109394782701021	0.00655602836558242
6.2	-0.00923039841328285	0.0110201253214408	-0.955418424201305	0.23434177589382	-0.955466336203917	0.234160933408261	0.0116462158517873	0.00425750862162456
6.3	-0.00818134361401644	0.0125689755372021	-0.907575190330393	0.37942418760139	-0.907599404913867	0.379296110749901	0.0119152279543992	0.00174123764922778
6.4	-0.00655378856264722	0.0136704170888082	-0.837832284798598	0.515593153074314	-0.837823536896526	0.515380548126613	0.0115837928626912	-0.000863152792799062
6.5	-0.00482948701505467	0.0137899309982999	-0.747241539768891	0.639195242189602	-0.747341539674337	0.639023727479589	0.0109458942413518	-0.0036260863217939
6.6	-0.00303336339003195	0.0137215603194984	-0.639279887848566	0.746720202626803	-0.63942748335109	0.746574838585056	0.00966761726511415	-0.00597049802238217
6.7	-0.00147395503308263	0.0129642472069381	-0.515996963646128	0.836769604288989	-0.516117336863619	0.836613027779765	0.00791197989063989	-0.00793712977937937
6.8	-0.000238631016235058	0.0122025914901352	-0.379998897275099	0.906621402077232	-0.380208874543939	0.906546403606816	0.00575299747300297	-0.00927468695019373
6.9	0.000730338320287121	0.0112446397770273	-0.234746993007924	0.954369839359169	-0.234996448525036	0.954365668574201	0.00376544593950646	-0.00997927567864371
7	0.00157352103131441	0.0103534961711423	-0.0844277515118229	0.978787630675107	-0.0846845875167778	0.978757133600449	0.00168100187076811	-0.010692402448046
7.1	0.00226196794497597	0.00955315986607963	0.0679269960566885	0.980481208659289	0.0677213880788933	0.980468597174781	-0.000598798192338216	-0.0105419210315912
7.2	0.00300675374310441	0.00856247368141461	0.219151698908741	0.958217851396884	0.218897470512564	0.958260939845064	-0.00237711985401398	-0.0097676886736679
7.3	0.00316252627106829	0.00732860354848068	0.364961709728287	0.912659897812144	0.364722354136889	0.91274944288453	-0.00395269804531962	-0.00868886019143505
7.4	0.00321096972797382	0.00632713768662605	0.50170858024169	0.845038170307407	0.501490781362055	0.845198500662828	-0.00530657660133853	-0.00727760404937283
7.5	0.00280648790601414	0.0051593066290398	0.6265379511671	0.757757497132609	0.626377853191637	0.757927929548221	-0.0060968378500631	-0.00576983422632263
7.6	0.00239658517823574	0.00470186631867571	0.736980741115564	0.651479737865631	0.736765493464743	0.65163908895155	-0.00662253025915863	-0.00432795969991879
7.7	0.00218770107232707	0.00435444862443313	0.828988652279741	0.529342861803322	0.828837308901253	0.529536387240532	-0.00682842008987756	-0.00248875145843515
7.8	0.00222685672708601	0.00405200808650105	0.901148664951917	0.394535198567435	0.901027158187241	0.394755431221942	-0.0062510979195636	-0.000627969725371292
7.9	0.00208193151653525	0.00366192250388364	0.951631845595241	0.250426850575247	0.951590354656976	0.25065137446804	-0.00496964885598886	0.00127094028217907
8	0.00188152816484749	0.00270502970361345	0.979547611764247	0.0995001659890926	0.979616495407882	0.0997918312944069	-0.00290191245973075	0.00217809432757205
8.1	4.8315186291056E-05	0.00300091416523325	0.982895561462328	-0.0537108941031879	0.983018063543305	-0.0534397748530343	-0.0018739240237841	0.00221268960842765
8.2	-0.000589627421317054	0.00429406772047042	0.962814357200408	-0.205279346052311	0.962878543931037	-0.204983772041072	-0.00101074523707614	0.00250281054800864
8.3	-0.000850575368276294	0.00568340982917469	0.919633538343326	-0.352132019681868	0.919769454156832	-0.35187580789818	-5.37994675780577E-05	0.00256077950597682
8.4	-0.00030367465165853	0.00714149846860536	0.854193542020384	-0.490877330086393	0.854403885001955	-0.490676671117367	0.000840197662566938	0.0026312010321936
8.5	0.000907919808896231	0.00779305538937998	0.767397474575105	-0.617571500738845	0.767512432524705	-0.617445219896868	0.00272477611531876	0.0023834082507761
8.6	0.00129002499310254	0.00812845597141188	0.662583352032421	-0.728869078652843	0.662779356266604	-0.728682863338954	0.00381269676320811	0.000689272741168919
8.7	0.00216311518018458	0.00914409951815558	0.54172142245111	-0.823042252657385	0.542002215820091	-0.822931450041319	0.00410098162267824	-0.000728131397861831
8.8	0.00402421061170527	0.00964578164266913	0.407595107421905	-0.897467077570048	0.407800679914316	-0.897411494704341	0.0037781685526392	-0.00200447098995198
8.9	0.00627355076092736	0.00943639509764751	0.263191885885735	-0.950014637268392	0.26343271802712	-0.949872977274048	0.00340487569220494	-0.00256814268160823
9	0.00906579038484772	0.00773019413162649	0.112948534551397	-0.979048509364197	0.113310200089122	-0.979016523470771	0.00386555026548215	-0.0029097989970168
9.1	0.0109542176336671	0.00510435748944013	-0.0401224649264112	-0.985420219810139	-0.0397698690762631	-0.985432561824145	0.00445498887022883	-0.0037601502548554
9.2	0.0121883514548696	0.00160369210730859	-0.192916396806266	-0.967458710160336	-0.192559939022785	-0.967527259215029	0.00519565148617604	-0.00468937132724672
9.3	0.0118391176771709	-0.00178834749879091	-0.340877628231689	-0.92590326573419	-0.340519837078902	-0.925965532221012	0.00577218518730636	-0.00561232484264194
9.4	0.0108313708680136	-0.00469855557242152	-0.480198861153334	-0.861939847177448	-0.479874354748038	-0.862085824466758	0.00649960191857774	-0.00639054890605261
9.5	0.00846059546072191	-0.00720724545090735	-0.608322691741374	-0.777771053549544	-0.608115225113459	-0.777907272733541	0.00692523760919915	-0.00821363033095441
9.6	0.00607272260933565	-0.00779967712228515	-0.722408214365307	-0.673752882616732	-0.722133666673452	-0.673936505108566	0.0056307764266028	-0.00939222573717756
9.7	0.00438098495499141	-0.00823443664315405	-0.818332905973263	-0.553380785302677	-0.818084396249545	-0.553649336838863	0.00452609390947876	-0.00984416105337297
9.8	0.00250771199214562	-0.00877089412143714	-0.894506806177131	-0.419711621789913	-0.89429556103232	-0.419986135885223	0.00335688046397906	-0.0097918678789332
9.9	0.000497312141927844	-0.00875276523915546	-0.94922819976125	-0.275945849280552	-0.949113492488016	-0.276275637550147	0.00284734892681385	-0.00902417105815251
10	-0.00189631190030231	-0.00949697606328963	-0.981307192370467	-0.12463170133634	-0.981224801717045	-0.125011498737373	0.00336161913559534	-0.00922948588275541
10.1	-0.00556911640460945	-0.00801921943079493	-0.988360753619437	0.0295769168777286	-0.98833876779703	0.0290971136622088	0.0024346913521427	-0.00976062052837164
10.2	-0.00756736220055438	-0.0058458459641703	-0.971955985921762	0.182708755164185	-0.971939071457241	0.182257031486097	0.00165418345137027	-0.00966380548609551
10.3	-0.0090942048459727	-0.00347985571770118	-0.932007249896953	0.331719755694868	-0.932141076277612	0.33117640218268	0.000858645179475471	-0.0096542487286653
10.4	-0.0098300469448775	-0.00145484110632307	-0.869196618428033	0.472972080077557	-0.869461310460108	0.472432906923496	0.000376565160472233	-0.00958296917643206
10.5	-0.0104378883889179	5.02950432795964E-05	-0.784491873874795	0.602336544226785	-0.784774881671356	0.601947342970615	0.000813553150028828	-0.0102440603750395
10.6	-0.0116283814136195	0.0018522460270348	-0.68156990530618	0.716503806397427	-0.681997084365136	0.716157496793986	0.000306203362882754	-0.0117355942709833
10.7	-0.0123325389222304	0.004959775855088	-0.56214381956555	0.81393909966589	-0.562556598713042	0.81364877820468	-0.000689607910957674	-0.0126942879722891
10.8	-0.0115659031110409	0.00813983105530014	-0.428604356379576	0.89156585008023	-0.429116825357707	0.891334969202219	-0.00172409461682131	-0.0133303649064196
10.9	-0.00983942367324937	0.0111262931674307	-0.284525365008862	0.947201360846644	-0.285015402191179	0.947149738743115	-0.00283562802639081	-0.0138216892209859
11	-0.00728476554135031	0.0130001612472144	-0.134259531588452	0.979511104043901	-0.134808192223032	0.979506452976578	-0.00382307759105178	-0.0144400764846216
11.1	-0.00417626936626197	0.0147545385633651	0.0197413030615501	0.988937790672814	0.0191090035506758	0.989020938249947	-0.00506992493732009	-0.0148171715869742
11.2	-0.000479586829209453	0.0151162053958813	0.173431561687989	0.973799483338038	0.172909873255078	0.974003719859516	-0.00615257143886818	-0.0150204710818494
11.3	0.00318302038546659	0.0146713992871045	0.322630712244827	0.934815237166404	0.322199304153298	0.935079404812766	-0.0070413389411703	-0.014776698021367
11.4	0.0066153639596312	0.0129721370939324	0.463788983889238	0.873252604787403	0.463322825266298	0.87351419939905	-0.00755032196890856	-0.0142424840589992
11.5	0.00881157187588021	0.0106042083628395	0.59406034085385	0.791006027238846	0.593700904053936	0.791426785479702	-0.00815769081901711	-0.0145686623829219
11.6	0.0105278414669167	0.00876923881733719	0.710066432381338	0.688550714268586	0.709799332623353	0.689034493623316	-0.00986527105440955	-0.0141458507436974
11.7	0.012571566609504	0.00651408130400691	0.808309663764259	0.56958504230608	0.808070572067959	0.57001002552703	-0.011224286040893	-0.0130761538798887
11.8	0.0138121197219895	0.00330666464358175	0.886867190436067	0.436831259435252	0.886683894628481	0.437387049226426	-0.0124961125256819	-0.011616311673758
11.9	0.0146933501544658	-8.95237054676709E-05	0.944040799916056	0.293860084686303	0.944004296309835	0.294407376729903	-0.0130152684485678	-0.00933577277675191
12	0.0130856113068771	-0.0046741973314389	0.978511160490961	0.142973060783306	0.978501136269132	0.143455572096527	-0.0125572702032137	-0.00821423574451319
12.1	0.00994452570781459	-0.00695153486975684	0.988089966521533	-0.0110439114345597	0.988067638550872	-0.010568261544185	-0.0130546932687845	-0.00752883203797958
12.2	0.00697797526129741	-0.00823359319980654	0.974068102594437	-0.164483205099012	0.974177728564571	-0.164044268881337	-0.0135683913520651	-0.00615795637556947
12.3	0.00413811122027608	-0.0085625710144017	0.936366428535325	-0.313839965026725	0.936555148593762	-0.313481071102216	-0.0137757654436205	-0.00464779699412032
12.4	0.00147035850075528	-0.00833903051238711	0.87604498600098	-0.455852267138374	0.87618091931588	-0.455476328243787	-0.0136619415282461	-0.00285252406684736
12.5	-0.000502067046259994	-0.00819747746438226	0.793325975309903	-0.5861453625673	0.793789014735766	-0.585754552027122	-0.0123378827758275	-0.0017036224356736
