# GHZ S RI R 50
0.2	-2.25749759426289E-05	-0.000695018543156537	0.951561486971336	-0.307193757368034	0.951334962834807	-0.307336294704124	0.000144239155669361	-0.000543628179860928
0.3	-0.00061129306288186	-0.00053035267700023	0.892379677175378	-0.451211157611516	0.89224196785989	-0.451264763434306	-0.000411162470672081	-0.000777768298840698
0.4	-0.00105241643677552	-0.000156668481235442	0.811694645985896	-0.584344538203801	0.811735173798313	-0.584484566147197	-0.000879111452760259	-0.000559369660928345
0.5	-0.000945527120396272	0.00111057596185339	0.710850563196859	-0.704334372880273	0.710739604192447	-0.704430781004724	-0.000550986042342941	0.000418622511277755
0.6	-0.000128402524683537	0.000581672914536991	0.592216011173715	-0.805787392041065	0.592025708789715	-0.805790511769754	0.00017470521294722	-0.000412448251020085
0.7	-0.000541728950282045	0.000562660551284205	0.460049484370315	-0.887906778395282	0.45997517814521	-0.887941398853718	-0.000236008718739731	-0.0010041110861791
0.8	-0.000703049562443067	0.000473227106459925	0.316447448437279	-0.949024674384533	0.316328245945914	-0.948937654275392	-0.000758135265128412	-0.00130504620069112
0.9	-0.0016169683437604	0.000699719914046341	0.164565151265102	-0.986928285299377	0.164415356942241	-0.986885257878546	-0.00200352259827356	-0.00158733143568346
1	-0.00220821861913285	0.00319641179982161	0.00867535482265011	-0.999416805724222	0.00855676922627712	-0.999386969526505	-0.00303311013505171	0.000639109674284083
1.1	0.000721276568304532	0.00336670543664246	-0.14519393665426	-0.988947252833138	-0.145844506338125	-0.9889123304407	-0.000965847809188609	0.00063788619554635
1.2	0.00150606900686574	0.00143354553291366	-0.298289711846392	-0.954632512552494	-0.298282696040654	-0.954688488556248	-0.000773559131233577	-0.000330288736431149
1.3	0.00222343794027517	-0.000976970668946712	-0.443392531341293	-0.896417461498946	-0.443485152344129	-0.896442016593237	0.000272558558404147	-0.000683780911114404
1.4	0.00217522975758191	-0.00377873435871375	-0.57711979474629	-0.816044192119136	-0.577193872335076	-0.815944037269442	0.00135902075637094	-0.00165993409537748
1.5	0.00337370773215319	-0.00583359632771455	-0.69609156038981	-0.716907083230893	-0.696116282500471	-0.716834672007908	0.00375096854669912	-0.0034978031923909
1.6	0.000407053166340831	-0.00835613861632237	-0.799988738439659	-0.600880825330831	-0.800420748365332	-0.600376739161153	0.000837574062901278	-0.0061790183033485
1.7	-0.00151477550799741	-0.00669408224982027	-0.883922413028064	-0.468346808226144	-0.884227943580282	-0.467853140468876	-0.00128165567471461	-0.00496717153585561
1.8	-0.00242717887062924	-0.00525334078102112	-0.945870228408982	-0.324372073584692	-0.945885755776862	-0.324362513138865	-0.0025580215132163	-0.00399880229743202
1.9	-0.00278858341739584	-0.00280789709312386	-0.984576742389942	-0.17354460901639	-0.98462165185502	-0.17359759003592	-0.00338637787355785	-0.00203716876795982
2	0.000747325250200951	-0.00164213108923554	-1.00079618071415	-0.0188991941540764	-1.00089002580087	-0.0182443452871986	-0.000566106293323428	-0.000900351888393822
2.1	4.0206847603064E-05	-0.00508945516870888	-0.990775739792053	0.139948599827422	-0.990878365497617	0.139461189632099	-0.00163165834827052	-0.00390948489756498
2.2	-0.00237014896784077	-0.00499678939725354	-0.956214411745278	0.291561047612319	-0.95625274008805	0.291695925086691	-0.00376139261791441	-0.00339513784147127
2.3	-0.0039271076503464	-0.00405920287464352	-0.899000621702077	0.43650769375821	-0.898835202098894	0.436595820297102	-0.00504342548399868	-0.00245308513251964
2.4	-0.00571092681058813	-0.0021283323724746	-0.819810972454953	0.571898638664987	-0.820107236760037	0.571435215313243	-0.0063559078783663	-0.00076747336595856
2.5	-0.00367624875074426	0.00153061462404066	-0.719618272677455	0.6937082571383	-0.719925931447142	0.693327480569005	-0.00407750710910974	0.00192494832118807
2.6	-0.00168967760010225	-0.000552561775404399	-0.602002329542572	0.795115814369393	-0.601923227740527	0.795055431086195	-0.0021027854512303	-0.000596734549002152
2.7	-0.00227320109241688	-0.00150266812835785	-0.471147242407573	0.878313474811213	-0.471117510760901	0.878327375259244	-0.00301034417781729	-0.00190827027503693
2.8	-0.00307251197937619	-0.00174439539849138	-0.328778619349224	0.940687520014007	-0.328659139081824	0.940771310547561	-0.00397376495305856	-0.00206560331304967
2.9	-0.00289255203251591	-0.00123166113033275	-0.177500537153984	0.97999981913822	-0.177495498193798	0.980054779597055	-0.00421392645209868	-0.00107074041491007
3	-0.00212341218632645	-0.001746383145245	-0.0222309103965116	0.99304400162259	-0.0222945214676982	0.993116253929194	-0.0032926494712907	-0.000830895811310726
3.1	-0.00266807011511632	-0.00167623640289746	0.129741248589493	0.98429249268593	0.130390775023921	0.984367661933062	-0.0036452369386279	-0.000166753724562317
3.2	-0.00227007270457842	-0.00104436072193069	0.281921778840565	0.95198653930207	0.2819122013107	0.952026276342844	-0.00284557283414181	0.000956047138496983
3.3	-0.00130171714964979	-0.000815188010862573	0.427218523923056	0.89545798648196	0.4265985295973	0.895746206701841	-0.00152500223758497	0.00146423224807339
3.4	-0.000170953627592623	-0.000484308378402605	0.559861692338298	0.817085112181905	0.559778096346464	0.81720120915103	0.000284544328618965	0.00174460837781266
3.5	0.00251450729511296	-0.00240941195689464	0.677603754030393	0.72101976553814	0.677618185145937	0.721045787932987	0.00299683646599312	-0.000451125472839451
3.6	0.000634266746409171	-0.00481871462345949	0.782121046279644	0.608007251129882	0.782539284598015	0.607609543816708	0.00143409826084434	-0.00287601828847468
3.7	-0.000325312217798665	-0.0048288683613964	0.867089737874899	0.477502298814388	0.867098006635248	0.477628596085349	0.000660449348424874	-0.00298148174994638
3.8	-0.00117555996951359	-0.00476355784134923	0.929545680081044	0.336679107159054	0.929575853047327	0.336861681064706	-2.47560592393414E-05	-0.00330306601169249
3.9	-0.00138336181121099	-0.00374203846751157	0.969660605660972	0.188546312510835	0.969567908461338	0.189133328033947	-0.000965308038085532	-0.00295356405979403
4	0.00143260847682429	-0.00358645334991086	0.988730719490722	0.0367940959966606	0.988812986964103	0.0368362979494868	0.00105255771529393	-0.00323210793568976
4.1	0.000763563761978515	-0.00741644468394108	0.981230760568386	-0.119115396810317	0.981169507203072	-0.119050833133153	-0.000728720217007584	-0.00677306608716514
4.2	-0.00173945352582419	-0.00833368708260655	0.948975548939913	-0.270004698622227	0.949174574108918	-0.269439836754027	-0.00359886488564264	-0.00719446238128968
4.3	-0.00381823085132224	-0.00883339238130279	0.895361117350154	-0.412639000090297	0.895362180673985	-0.412620568526597	-0.00616956898803473	-0.00715364012750761
4.4	-0.00676205355601943	-0.00788457077014013	0.820827838844086	-0.546408833834123	0.820748455471397	-0.546392153201614	-0.00933172826960849	-0.00571580617915121
4.5	-0.00642860163982597	-0.00503999810329314	0.724226460415117	-0.668662971130005	0.724105428968214	-0.668516083189017	-0.0095084859949492	-0.00237954500054494
4.6	-0.00608251187441208	-0.00645854993053748	0.610063862310046	-0.770088278207999	0.610052188656854	-0.769860552796965	-0.00955195777162241	-0.0030175881465654
4.7	-0.00774771363764791	-0.00711159264775645	0.483725031294687	-0.854169803753059	0.483843700672782	-0.853928573297952	-0.011585353166382	-0.00249601286478526
4.8	-0.00953986545482597	-0.00679204027676537	0.34531556675324	-0.918243121412132	0.345608523182316	-0.91805937635199	-0.0130970673393092	-0.00105806391663726
4.9	-0.0108751471439799	-0.00605215424385388	0.19790954347667	-0.959797775181222	0.198167341611091	-0.959750101806793	-0.0138821234873803	0.00128158865129406
5	-0.0111930711293598	-0.00557702987612372	0.0470787764654324	-0.9753069738238	0.0472362825818951	-0.975182446208516	-0.0129312373763033	0.00335197272125191
5.1	-0.0131638688003066	-0.00538395960523534	-0.101500426005471	-0.970921157643793	-0.10118313208789	-0.970861599161368	-0.0131339792086893	0.00532761519391039
5.2	-0.0144565593680392	-0.00310136644976211	-0.250532208727284	-0.943939496228398	-0.250111111796233	-0.944062828462455	-0.0121059589230313	0.00873516045047505
5.3	-0.0145888570671185	-0.000576038706368672	-0.39347653851466	-0.893255209813721	-0.393193650807694	-0.893596972407439	-0.00954836120880559	0.0120002932035315
5.4	-0.0127981970430087	0.00286843812315212	-0.52593796483104	-0.820447187937913	-0.525805674680326	-0.820733160377281	-0.00525160647817384	0.014984623071832
5.5	-0.00814869690779735	0.00116580353841754	-0.643813797822155	-0.730796239292896	-0.643765279092013	-0.731105343843577	0.00125882633375182	0.0126978406935437
5.6	-0.0116382396415916	-0.000618310190703277	-0.750801721500894	-0.623606508433874	-0.750815303027803	-0.623774611374084	5.65124778328576E-05	0.0101319513328321
5.7	-0.0135671193869129	0.00194320082244458	-0.838312374049602	-0.499191523384363	-0.838289257681444	-0.499364328027297	0.000665716753431239	0.0114567045348932
5.8	-0.014128984865072	0.00528904584203641	-0.904520141648441	-0.363400505876527	-0.904564656044037	-0.363688494502878	0.00237116095653078	0.0125070755468787
5.9	-0.0133735601389337	0.0100422229512456	-0.949219830279973	-0.220620847751146	-0.949338459388298	-0.220668216702704	0.00468609241178722	0.0145019569898255
6	-0.00608499334990778	0.0128451530783624	-0.974705957330212	-0.0718350704799794	-0.97470278976225	-0.0719029712675788	0.0121449967786242	0.0141443183207852
6.1	-0.00451184339661701	0.00860403280328295	-0.973147715246876	0.082059470381404	-0.973150855790873	0.081957373556822	0.013583883377785	0.00766072228022768
6.2	-0.00517541346074138	0.00813069228104718	-0.947631609139096	0.230994753705971	-0.947678857329868	0.230815380221345	0.0129741058921683	0.00460304455198161
6.3	-0.00584909999669171	0.00821638437161626	-0.900760054334964	0.373945242954576	-0.900783746066843	0.373818200291937	0.0122681055643269	0.00187478717067811
6.4	-0.00629690301861263	0.00950215397091344	-0.83332524279501	0.509001782168867	-0.833315856948601	0.508790782141249	0.0110353945275499	-0.00014430504094317
6.5	-0.00523624106720708	0.0103722912480413	-0.742941368894936	0.63388215734725	-0.74304046861291	0.633711688650462	0.010557014725384	-0.00239143903534161
6.6	-0.00457406211073878	0.0111630246181567	-0.634929045082012	0.738466822006459	-0.635074969351805	0.738322493873637	0.00895220344601458	-0.00424073302178146
6.7	-0.0027932860388563	0.0119040158180157	-0.51447926971981	0.827225288468934	-0.514597958526895	0.827069677518199	0.00775492125335278	-0.0055790983639553
6.8	-0.000615853967281984	0.0117302789566599	-0.380932709298177	0.897412921818813	-0.381140612379821	0.897337599468902	0.0062029995659325	-0.00704650921275054
6.9	0.00145941823143345	0.01071787184208	-0.23670551636157	0.946131386821798	-0.236953043688816	0.946126265871075	0.00459587461783913	-0.00803021214991478
7	0.00288528292474235	0.0082098920390333	-0.0874173459977492	0.968515692195241	-0.0876714538860125	0.968484495468106	0.00242960856558099	-0.00986256238693867
7.1	0.00221606382851842	0.00703721545012591	0.0602865611039245	0.971606597186164	0.0600830057710736	0.971592639941911	-0.00110902628733277	-0.00954286610664529
7.2	0.00258455051314922	0.00640854542036542	0.210040937269429	0.952095515226486	0.209788448421769	0.952136308950884	-0.00316055915212864	-0.00814823168804015
7.3	0.00261243086172935	0.00540030730623349	0.355182488158104	0.908433233051689	0.354944288192154	0.908520260782386	-0.00476808192517794	-0.00656854397038887
7.4	0.00278347418920841	0.00476552918939768	0.490721265413502	0.841814189974129	0.490504051215071	0.841971423974052	-0.00579625741858282	-0.00453108725504808
7.5	0.00357435102944538	0.00275813912822723	0.612578661022437	0.758671562911136	0.612417930955299	0.758838729029752	-0.00540765504753095	-0.00353571545871423
7.6	0.00140413553660916	0.000488739209448327	0.725623616787108	0.656945972258061	0.725407556900428	0.657101989175798	-0.0070489581028963	-0.00310294148580763
7.7	-0.000982437904038364	0.000889927954535992	0.819530848292016	0.536337033720777	0.819377990919307	0.53652804112041	-0.00816444113784012	-0.000635621404659421
7.8	-0.00242337845994016	0.00248643847732733	0.892974530430978	0.403231692877477	0.892851000327368	0.403449641104252	-0.00808191350341866	0.00214950341727098
7.9	-0.00283198647879343	0.00587980001490722	0.945003913294682	0.261878986181699	0.944959657901052	0.262102174486987	-0.006672625515248	0.00604105631639621
8	0.00321323924183141	0.00797179930381565	0.978571401685146	0.112769686571589	0.978636371265351	0.113062391932028	-0.0007565470117346	0.00807970338307253
8.1	0.00425712189501013	0.00337877957949747	0.984224364900268	-0.0430765797343541	0.984344015318756	-0.0428039243850568	0.000878107311363443	0.00415754723535322
8.2	0.00283517234069613	0.00221586565180818	0.965383192602967	-0.194866302737776	0.965444183045185	-0.194569927402607	0.000263442738972944	0.00355977191795534
8.3	0.00125938396228379	0.00195563355560462	0.924549982855625	-0.341863711588	0.924683073206291	-0.341605694369342	7.02577295522308E-05	0.0032718491261934
8.4	-0.000994808464745005	0.00346113326194638	0.862567163894502	-0.48220018761672	0.862775751802615	-0.481996433457819	-0.000949690580605867	0.00400953076409765
8.5	0.00174606366178683	0.00794498827446807	0.775931567606753	-0.6136007631399	0.77604592832736	-0.613472963726997	0.00245446505364478	0.00687893010000861
8.6	0.00457873331290421	0.00445961030208158	0.67033889601824	-0.724351257842949	0.67053361383126	-0.724162941647066	0.00493207439362103	0.00253658227614155
8.7	0.00329663427152839	0.00321877911780022	0.551419008353314	-0.819801707671378	0.551699438461701	-0.819687793775005	0.00379539449063083	0.000693356809403264
8.8	0.0026042176965272	0.00302458456108879	0.418219567277637	-0.897002900551854	0.418425411573549	-0.896945036248432	0.00277509428772844	-0.00018908047819745
8.9	0.00164813773217335	0.00365464345981896	0.272556398642639	-0.9526813748397	0.272797274863805	-0.952536955510291	0.00165426068308396	-0.000102372052800123
9	0.00331383364681851	0.0051788413262419	0.120772277866045	-0.980513995797358	0.12113455988499	-0.980479143128963	0.0025833255059247	0.00107193794710302
9.1	0.00473052545524733	0.0046332292590329	-0.0298534748086689	-0.989540290705215	-0.0294994260216529	-0.98954895079105	0.00325231888188141	0.000616772133571681
9.2	0.00717727250110018	0.00443444542194717	-0.184314585537278	-0.974996811477715	-0.183955375781266	-0.975062176628372	0.00500057322501428	0.00100612133958548
9.3	0.0100721932930963	0.00267961130895514	-0.334955747109082	-0.934957085456748	-0.334595068912876	-0.935016609588344	0.00746387819368751	0.000145636285899432
9.4	0.0126434592694671	0.000394098318259404	-0.476073111943278	-0.870471562479969	-0.475745667479079	-0.870615794313435	0.0096812823453128	-0.000930167249799433
9.5	0.0163840201482244	-0.00707215005143248	-0.603116428948801	-0.788838151753208	-0.602906298657644	-0.788972835735972	0.0130520139495628	-0.00663797821274168
9.6	0.00955945309342566	-0.0136077578782184	-0.72231124298807	-0.687264776024372	-0.722032303651816	-0.687447333443037	0.00704657441192042	-0.0106666514527364
9.7	0.00433562544342436	-0.0137788321780917	-0.82168506952435	-0.565602495324258	-0.821431896785391	-0.565871588644879	0.00383358608381861	-0.00956702728609113
9.8	0.000145680701744537	-0.0131373700619081	-0.899836685338281	-0.430670213213686	-0.899621286075231	-0.430945724411292	0.00178932328799897	-0.00833014339563827
9.9	-0.00354838166401339	-0.00940204610008344	-0.956139524682229	-0.28698325651215	-0.956020797606661	-0.287315280786012	0.000625275941725468	-0.00524977434891882
10	0.000248980407278305	-0.00780064410614165	-0.994109365557169	-0.134633855289721	-0.994022621840762	-0.135018320664761	0.00567743489447225	-0.00460370943198893
10.1	-0.00369251015966563	-0.011810054891167	-1.00222379566426	0.0255262348215335	-1.00219933838161	0.0250398660932426	0.00339772787600966	-0.00905878779712146
10.2	-0.0086149544262321	-0.0101184762490914	-0.985372941670766	0.181273406903022	-0.985354029590867	0.180815847949578	0.000620588543335152	-0.00852102573864123
10.3	-0.0123977740835823	-0.0066700207710202	-0.945882274142845	0.332547338244825	-0.946015779313494	0.331996128765313	-0.00114394581092514	-0.00768868629403404
10.4	-0.0151135143512301	-0.00146562098774357	-0.884384429655278	0.477458173789837	-0.884651455428138	0.476909675818046	-0.00261440103572635	-0.00595859155919994
10.5	-0.0125886534004818	0.00517241894975405	-0.796429639354268	0.613534728815274	-0.796717942222773	0.613139579211938	-6.69631511907938E-05	-0.00391881253029183
10.6	-0.00911958675919936	0.00603630528054179	-0.688903801417884	0.727480683822074	-0.689337388199879	0.727130791546623	0.00171112753829343	-0.00666929068965318
10.7	-0.00741289089037612	0.00675147152786086	-0.567839496909013	0.825711743038031	-0.568258257089841	0.825418464701847	0.00163039541124848	-0.00902583765393213
10.8	-0.00626406585383027	0.00706219543939465	-0.431872174073815	0.904886289682588	-0.432392255427459	0.904653740567989	0.000187250030066697	-0.0111925251315862
10.9	-0.0051027797426096	0.00840843922388744	-0.283287822509327	0.961717807297916	-0.283784851732963	0.961668134660573	-0.00177050043858183	-0.0120500901568711
11	-0.00281425465924282	0.00830871475944681	-0.129065775422831	0.989511805508483	-0.129619573809226	0.989510720286634	-0.00316046401614393	-0.0132511726023335
11.1	-0.00196469942211036	0.00895868909648134	0.0237464911158445	0.998599909991032	0.0231082857102073	0.998686313214918	-0.00586959861209465	-0.013340447160907
11.2	0.000216188163348736	0.00945115362992418	0.179971432746202	0.983589413235338	0.179445031241769	0.983798367186621	-0.00736889547658203	-0.01268249948934
11.3	0.00261240901434427	0.00970001811303869	0.331952805265072	0.942673839723572	0.331518498832022	0.942943529785319	-0.00840894280923345	-0.0115361884222417
11.4	0.00583153842922178	0.0101352903738936	0.474091649282239	0.877109705155332	0.473623535013329	0.877376916449847	-0.00838269637999104	-0.00946348080256407
11.5	0.011639388965318	0.00609267636344734	0.601580356328054	0.794977263650565	0.601219668114966	0.795402611615831	-0.00600300825194731	-0.0115188359904099
11.6	0.00960107045706231	0.000881404588752182	0.721457952719654	0.69230981998385	0.721190496668881	0.692800292025739	-0.0106704917206221	-0.0128786864967115
11.7	0.00831782865192815	6.03324280666996E-06	0.820815291511387	0.569491137460632	0.820576870049893	0.569922251202243	-0.0132677762643248	-0.0104501689961141
11.8	0.00714784981099472	-0.000587796559798417	0.898318772430491	0.433578901214332	0.898138323330187	0.434141137665119	-0.015133802117533	-0.00778183323555579
11.9	0.00692637148868199	0.00214681073275766	0.953715488217532	0.28977230270315	0.953682440645	0.290324285815984	-0.0159853736242885	-0.00268312163634159
12	0.0142139471233258	0.00177800829049357	0.991044088779924	0.137376818116382	0.99103753303866	0.137865060056841	-0.00960137040758482	-0.000306365761676613
12.1	0.0134457158249411	-0.00538156075395831	0.997951673686399	-0.0222220267791846	0.997934447317379	-0.0217413199961192	-0.0106120281939666	-0.00356125905787315
12.2	0.0109897176576257	-0.0086292785462955	0.980142912041658	-0.176970526753052	0.980258455121123	-0.176529259296603	-0.011758089449634	-0.00287983525439393
12.3	0.00811058226409091	-0.0110380630370038	0.940021866038666	-0.326619546724764	0.940216005882257	-0.326260010869645	-0.0124905651605493	-0.00227967104516248
12.4	0.00356540141722223	-0.0115983640872016	0.878712096572153	-0.46988342927947	0.878853516684101	-0.469505667972699	-0.0140303418161942	-0.000506877129276398
12.5	0.00322831367845841	-0.00940927055855722	0.79044378402194	-0.604085841898316	0.790917135514176	-0.603699303482818	-0.0116570788305556	0.00259787142125708
12.6	0.00146660876191188	-0.0126760105266826	0.684176582280925	-0.71540655637932	0.684532895237814	-0.715102699460313	-0.0109419368904308	0.000361825556839645
