# GHZ S RI R 50
0.2	-3.4685719466935E-07	-0.000576248842934064	0.951109011341859	-0.3073613630049	0.950882530536534	-0.307503778675307	0.000174279598940715	-0.000433751294309303
0.3	-0.00051571832389532	-0.000426540877281991	0.891760789495161	-0.451321427857019	0.891623129142032	-0.451374954731156	-0.000305857235700881	-0.000693017075381159
0.4	-0.000872799871262813	-0.000131264560619038	0.810905854573038	-0.584283785831472	0.810946297386219	-0.584423735858388	-0.000692875439462387	-0.000562930874592515
0.5	-0.000886974522815597	0.000935552805938456	0.710093686642655	-0.70395484068466	0.709982791517705	-0.704051142101866	-0.000488247115995558	0.000213191827368705
0.6	-0.000222722247130386	0.000571419173094876	0.591550699188862	-0.805345732775509	0.591360538647119	-0.805348797914816	9.34954866288565E-05	-0.000462381165321861
0.7	-0.000585054181011337	0.000634567697344543	0.459383984560284	-0.88729005311969	0.459309731133765	-0.887324621189277	-0.00026764289183767	-0.000991255857920201
0.8	-0.000687637973449739	0.000603452187681065	0.315892592646997	-0.948186817660459	0.31577352850712	-0.948099850807456	-0.000744089503073402	-0.00125340768682142
0.9	-0.00138780854853205	0.00085035656159308	0.164264246773921	-0.985917723582334	0.164114614706545	-0.985874721593161	-0.00180751164119278	-0.00152832706306224
1	-0.00186746430853727	0.00284260691506868	0.0085952750287978	-0.998510725655084	0.00847679915464363	-0.998480907938972	-0.00277149294034862	0.000224971840829155
1.1	0.000631481673710384	0.00300902233912447	-0.145243282096215	-0.987902775321125	-0.145893176816435	-0.987867758205223	-0.00112130846332857	0.000280791554932207
1.2	0.00143202826044096	0.00111950171033706	-0.298055108459352	-0.953501360804973	-0.29804810702792	-0.953557273248297	-0.000877654068907452	-0.000614421395293813
1.3	0.00218521303202853	-0.00128603789276951	-0.442870885011591	-0.895349036190256	-0.442963396025459	-0.895373561542176	0.000263705094484763	-0.000961348378669534
1.4	0.00228188668526203	-0.00411906614391561	-0.576413854631016	-0.815151243447301	-0.576487854075021	-0.815051207024767	0.00154636530591254	-0.00201177614682054
1.5	0.00325327933546195	-0.00599974916331627	-0.695330830857852	-0.715974567002568	-0.695355515794756	-0.715902240105833	0.00375662447113057	-0.00373289004903865
1.6	0.000684024408660005	-0.00823742261989425	-0.79878671270945	-0.600056698863205	-0.799218125672714	-0.599553373473682	0.00121367368361245	-0.00624771639565385
1.7	-0.0011290170698559	-0.00675141681537722	-0.882523406150955	-0.467882601667052	-0.882828613586893	-0.467389726005661	-0.000878309705731815	-0.0052515191115694
1.8	-0.00204756596299678	-0.00542807539680449	-0.944413404307731	-0.324218498671123	-0.944428912643852	-0.324208956952824	-0.00222812836259264	-0.00438990625164948
1.9	-0.00250339297343032	-0.00325882296290246	-0.983086230454777	-0.173600883813322	-0.983131057773609	-0.173653801669734	-0.00319882251685645	-0.00265107039063169
2	0.000298173669983821	-0.0020190445670957	-0.999036472354612	-0.0193160085293897	-0.999130447597956	-0.0186623477146865	-0.00107570205184144	-0.00137415043295414
2.1	-0.000201262257117686	-0.00480071717123106	-0.989246512798365	0.138905229144138	-0.989348569176861	0.13841854357456	-0.00189396796108124	-0.00375826886727484
2.2	-0.0023217151085235	-0.00471020271095996	-0.95500197559059	0.290235971750128	-0.955040367961784	0.29037060556359	-0.00377147793868197	-0.00327329007188769
2.3	-0.00371627122662031	-0.0038503165802681	-0.898060001487033	0.434952456768728	-0.897894921536825	0.435040612361848	-0.00494279159571174	-0.00239021588021341
2.4	-0.00534836094482978	-0.00218161867340313	-0.81913676249496	0.570063579401013	-0.819432032798978	0.569600567433473	-0.00614455176996119	-0.000895737686381351
2.5	-0.00379787793503348	0.00112893105093438	-0.719587313449268	0.691548694863945	-0.719893919921722	0.691168025808011	-0.00430606290925015	0.00157677390331157
2.6	-0.0019770216230491	-0.000421133901703407	-0.60250968884881	0.793239169917681	-0.602430588348213	0.793178980611564	-0.00236259690573526	-0.000397814333183365
2.7	-0.00226508957282706	-0.00122862669920041	-0.471961496092194	0.876562751696425	-0.47193182053442	0.876576682082911	-0.00289709268965689	-0.00163063174521914
2.8	-0.00280917241839716	-0.00159514494678173	-0.329983870201153	0.939068344348684	-0.329864666120239	0.939152240260834	-0.00358328135202906	-0.00198937686369966
2.9	-0.00258764532477421	-0.00134569018023823	-0.179203922977586	0.978656767296572	-0.179198994881497	0.978711681269411	-0.00379337555861599	-0.00131610320916606
3	-0.00194768962511382	-0.00191938030778088	-0.0241870613056713	0.992437144389415	-0.0242507795731719	0.992509229637838	-0.00301056789996675	-0.00118957737333635
3.1	-0.0024465736729984	-0.0019552421861668	0.127920596677006	0.983959082102656	0.128569617825582	0.984035360717937	-0.0033660329342828	-0.000680547034765219
3.2	-0.00221459061297609	-0.00143030120187261	0.279975341761304	0.951989220078227	0.279965694811293	0.952028917090837	-0.00279260003597491	0.000329113368127225
3.3	-0.00138873670641986	-0.00122624376116791	0.425263143043354	0.895943131720475	0.424642827885414	0.896230001165938	-0.00164897956612296	0.000832716858308127
3.4	-0.000493202677278621	-0.000945026098573845	0.558145592056281	0.818098137640593	0.55806177435464	0.81821405105881	-7.88726921781237E-05	0.00110252664748419
3.5	0.00183557383629358	-0.00247650033558025	0.676332252646048	0.722108710546341	0.676346638661525	0.722134755301072	0.0023309818165746	-0.000695018908549101
3.6	0.000246091814811453	-0.00460663820529219	0.780783005647394	0.60931496986906	0.781201880983895	0.608918147019708	0.00105117411534785	-0.00290761899922113
3.7	-0.000640582182426351	-0.00461867395591862	0.866050374942092	0.479211318377019	0.866058388004205	0.479337621369077	0.000297293764573625	-0.0030265720298719
3.8	-0.00145649384791492	-0.00451364612159703	0.92895071286138	0.338602884477363	0.928980517301051	0.338785537451404	-0.000397945758247259	-0.00327972304577515
3.9	-0.00167559801996006	-0.00355922960484201	0.969489329056443	0.190448963644671	0.969395484258436	0.191035916736589	-0.00136847542440154	-0.00292780061267474
4	0.000733175098142373	-0.00315633246354769	0.988647215470233	0.0388219241742353	0.988729395708193	0.0388642945348819	0.000325636277875891	-0.00288214653970185
4.1	0.00047452166670158	-0.00642721747154601	0.981839437068193	-0.116829490084308	0.981778010313948	-0.116765050102388	-0.000956665777850489	-0.00592123284903672
4.2	-0.00156637664698204	-0.00739658710925007	0.950203830665808	-0.267985478584716	0.950401678342956	-0.267419797144394	-0.00336276763730343	-0.00645406076251973
4.3	-0.0033563269688726	-0.00811856310831421	0.896989888167483	-0.410989464999858	0.896990911584663	-0.41097101634037	-0.00566401430445087	-0.00666577036379179
4.4	-0.00616187020535781	-0.00757460171417122	0.822697234638422	-0.54505730706809	0.822617749717941	-0.545040786748064	-0.00872983792254843	-0.00562216654472318
4.5	-0.00629810814263739	-0.00509834205885777	0.726671158217015	-0.667565789486228	0.726549630341415	-0.667419047403105	-0.00935683399573319	-0.00257473420844061
4.6	-0.00614038824515373	-0.00611495760988072	0.612729486197952	-0.769904991997853	0.612717283870393	-0.769676942380327	-0.00948300083305405	-0.00282250305545023
4.7	-0.00760669193726032	-0.00667469771810282	0.486242087609143	-0.854568775038057	0.486360458973263	-0.854326913431974	-0.0112695884024524	-0.00228605171463483
4.8	-0.00925974090399892	-0.00643618198196902	0.347707933219473	-0.919103315370103	0.34800101885574	-0.918918683498006	-0.0126378409902347	-0.00100675013906955
4.9	-0.0105612029796348	-0.00587355351872042	0.200254018797687	-0.961166470024672	0.20051219586398	-0.961118177086622	-0.0134230177696791	0.001090674100326
5	-0.0110172212833421	-0.00540315623769248	0.049016368779966	-0.977557059640268	0.0491740195141827	-0.977431938804555	-0.0126371706092792	0.0031053422395911
5.1	-0.012798744797265	-0.00523405462495077	-0.100349284816273	-0.973342514529715	-0.100031332271636	-0.973282362475203	-0.0127424939147657	0.00497817816607548
5.2	-0.0140689836591525	-0.00316420988406949	-0.249823899009892	-0.946505479913767	-0.249401641473295	-0.946628523392646	-0.0118346362373568	0.00819312284526693
5.3	-0.0143172912213562	-0.000849016495906788	-0.393298408069272	-0.896013155757645	-0.393014363332929	-0.896355407470229	-0.00948445805384857	0.0113618707361846
5.4	-0.0129077621042277	0.00239473712544639	-0.526504839653129	-0.82332643753561	-0.526371863013124	-0.823613064892766	-0.00554528187084426	0.0143064373924542
5.5	-0.00880750025520158	0.00132690622096618	-0.645191440316491	-0.733163936515221	-0.645142619054101	-0.73347386746899	0.000606366795251563	0.0126925364633306
5.6	-0.0117446286035792	-0.000151062156753273	-0.752331348483304	-0.625658707652953	-0.752344861066774	-0.625827247479281	-1.83161504789525E-05	0.0102870924986286
5.7	-0.013559632143255	0.00226734487459967	-0.840297881774786	-0.501031992350825	-0.840274602551387	-0.501205252524192	0.000622017047320408	0.0114415408598915
5.8	-0.0141347669913963	0.00558627804110895	-0.906994524785772	-0.36478155276387	-0.907039061498228	-0.365070388215689	0.00225233838130098	0.0125207869646114
5.9	-0.0134774268244974	0.0102254982442555	-0.951988647481018	-0.221244652758554	-0.952107623034022	-0.221292157323901	0.00446762941096816	0.0145389570592818
6	-0.00672562861870323	0.0135061095935127	-0.977192948774851	-0.071941617218465	-0.97718977846011	-0.0720096911394338	0.0115991725005608	0.0147905176109934
6.1	-0.00432700347653931	0.00991617019679655	-0.975893684619218	0.0822702755356697	-0.975896831910778	0.0821678906374512	0.0140817434666584	0.00879978476621664
6.2	-0.00432726864759549	0.0090025353774899	-0.950368142392534	0.231953789821375	-0.950415582664642	0.231773899310034	0.0141562504625314	0.00510140064569004
6.3	-0.00495186462340446	0.0084669373612011	-0.903146403240322	0.375559415504087	-0.903170238710329	0.375432019129506	0.0134120767167338	0.00161140676606908
6.4	-0.00574038533218552	0.00933448717145756	-0.835164786919127	0.510965418202627	-0.835155531100925	0.510753851021541	0.0117066634394762	-0.000873142343565577
6.5	-0.00514791901579696	0.0102583728279989	-0.744676135144076	0.635995700956162	-0.744775592085578	0.635824811374445	0.0106698491396308	-0.00304695303773025
6.6	-0.0045999844677339	0.0112126464431639	-0.636190672847649	0.741274887478394	-0.636337168950213	0.741130252901626	0.00885355265010251	-0.0047037309572405
6.7	-0.00287978415152781	0.0120670642139737	-0.514982261551524	0.830235422136303	-0.515101479868504	0.830079502123192	0.00754853893381896	-0.0058363511787192
6.8	-0.00068912336324561	0.0119771019460598	-0.380808042344491	0.900398449148036	-0.381016620093904	0.90032319149935	0.00603692643611526	-0.00714205124151185
6.9	0.00136294414838675	0.0109867638531975	-0.236149138054714	0.949069681899284	-0.236397361126931	0.949064864681127	0.00447713095618488	-0.00807459120802984
7	0.00284585508987085	0.00865265463139269	-0.0861182157987863	0.971741148513809	-0.0863731834078927	0.97171026633914	0.00243033141136986	-0.00978291201701317
7.1	0.00233993806991836	0.00738160076724508	0.0625490027101032	0.974255574124403	0.0623448351892667	0.97424201485231	-0.000961708686083339	-0.00961343407434789
7.2	0.00269322273654718	0.00666658230532972	0.212746963972062	0.954145740895598	0.212493897770605	0.954187212728805	-0.00304592089527023	-0.00832796849188711
7.3	0.00270658930666883	0.00561110035973523	0.35826291558859	0.909944855892254	0.358024304751715	0.910032675509756	-0.0046835574479983	-0.00681582091272339
7.4	0.0028160709375361	0.00487365337934397	0.494266142162347	0.842767035195603	0.494048763230103	0.8429252658441	-0.00578172068982239	-0.00490300984242407
7.5	0.00345215925197173	0.00295739315114487	0.616445394306296	0.758421830172404	0.616284838463013	0.758589901157301	-0.00553218182429055	-0.00383814339734627
7.6	0.00144668972693383	0.000655291228243418	0.729010364867238	0.655888075089546	0.728794394839	0.656045053852215	-0.00709996562889409	-0.00349318898958349
7.7	-0.00103738540614928	0.000971809254830833	0.82269150949208	0.534729392847073	0.822538976642853	0.534921224367198	-0.00842652471231686	-0.00113495876896974
7.8	-0.00260337017588099	0.00253144892961271	0.895888976646291	0.400933987206043	0.895765963494832	0.401152731170458	-0.00858087508027127	0.00171418787225814
7.9	-0.00316444017226098	0.00582100491950962	0.947378368062534	0.25871437859195	0.947334885963737	0.258938061592686	-0.00733549910075245	0.00576394438611199
8	0.00198441704389469	0.00846858894769545	0.979757138138735	0.109223775848544	0.979823245702691	0.109516469321838	-0.00212852411366045	0.00848852685691186
8.1	0.00352217246042169	0.00478818564412925	0.984892399764378	-0.0466083979948223	0.985013118445704	-0.0463359401846258	0.000333674561581178	0.00540972827098786
8.2	0.00281711476456228	0.00383882139255681	0.965295113295696	-0.198627798130236	0.965357259306179	-0.198331454221328	0.000506150701834141	0.00484037459456364
8.3	0.00191566645245986	0.00344171204491804	0.923498694350216	-0.345570829103107	0.923632830713633	-0.34531325213982	0.000966388977504582	0.00426155741372549
8.4	0.000222028130245015	0.00430152290879766	0.860560740724576	-0.485381011627339	0.860770060912717	-0.485178091249846	0.000401410491751297	0.00427680521832788
8.5	0.00246653388665186	0.00796214372743654	0.773721293363295	-0.616021366758387	0.773836049685638	-0.615893975395159	0.00329516600902847	0.00640366185651228
8.6	0.00504607371137614	0.00470646331828446	0.667668823273878	-0.726635702858628	0.667864184014786	-0.726448105484411	0.00564151537298232	0.00217099592438629
8.7	0.00382306947648987	0.00333007601152323	0.548187102485018	-0.821426828992604	0.548467817152528	-0.821313986190991	0.00448648541483034	-1.3160993689874E-05
8.8	0.0031019576388241	0.0029451350154419	0.414752331448776	-0.897801565349707	0.414958225026192	-0.897744468176295	0.00322692808458957	-0.00121338797509008
8.9	0.00204723737281526	0.00325247632000626	0.269262509777851	-0.952756874950399	0.269503647999358	-0.952613351945966	0.00172519314757976	-0.00143333603786277
9	0.00314706272249589	0.00454709736037399	0.117369429470849	-0.980427993916167	0.11773164646172	-0.980394393553222	0.00190274534290883	-0.000290941875420089
9.1	0.00422371004574754	0.00432181192126809	-0.0334475211287109	-0.988449679937725	-0.0330938551740858	-0.988459627934615	0.00217517695602143	-0.000226718393570171
9.2	0.00654778568762783	0.00451234831550849	-0.187513869838245	-0.973122989503749	-0.187155341468716	-0.973189536499714	0.00382380283504822	0.000775409259336312
9.3	0.00960478053229762	0.00307443701362869	-0.337700635463486	-0.932544158553093	-0.337340649596861	-0.932604836103404	0.00660115990064727	0.000408745430195675
9.4	0.0122776800512189	0.000711958791667789	-0.478519270360606	-0.86764999945739	-0.47819276442676	-0.86779519733334	0.00913566824087613	-0.000637024236619872
9.5	0.0157524378441668	-0.00606293984877268	-0.605169832246809	-0.784992091513545	-0.604960623136026	-0.785127369865678	0.0126312508882152	-0.00576361858564918
9.6	0.00975984684288729	-0.0124748349062162	-0.723073206657064	-0.683029675126684	-0.722795587683585	-0.683212803923963	0.00749954973744018	-0.0100281997572078
9.7	0.00481166282706274	-0.0129527377011615	-0.821541729434285	-0.561382916214026	-0.821290109385494	-0.56165219353933	0.00440526975752752	-0.00939134813702771
9.8	0.000780315054438689	-0.0126116303405507	-0.898859066527591	-0.426479494343191	-0.898645175534695	-0.426754987381628	0.00235845871951729	-0.00846543580414982
9.9	-0.00298936144824099	-0.0094380655280103	-0.954165810815519	-0.28278577546431	-0.954048600493865	-0.283117180354947	0.000974549974228815	-0.00581126672033996
10	-6.74372031058077E-05	-0.00768585613409263	-0.990679517447732	-0.131186571515036	-0.990594240405893	-0.131569812565507	0.0053203787086935	-0.00483686652413687
10.1	-0.00363180810109455	-0.0112583275409609	-0.9983731701936	0.0278587070145769	-0.998349984167281	0.0273741175849743	0.00353718696999567	-0.00902111056225039
10.2	-0.00839124052677353	-0.00984330830807146	-0.981117642507465	0.182750838506477	-0.981099819613176	0.182295026818036	0.000813361887118162	-0.00886226478219972
10.3	-0.0123296687166105	-0.00668859428835192	-0.94132502872532	0.332988234340832	-0.941459040525856	0.332439564717007	-0.00126221416386234	-0.0082850863587169
10.4	-0.0154427258649367	-0.00171379948836064	-0.879795282145769	0.47659654809172	-0.880061902279246	0.476050855159013	-0.00324824597422711	-0.00659742189399853
10.5	-0.0137861955257739	0.00523537268346852	-0.792786064045215	0.611525913754674	-0.793073436109622	0.611132561762308	-0.00145339938807374	-0.00394791769513035
10.6	-0.010379517812985	0.00715570601826824	-0.685792693143438	0.725270623078266	-0.686224917906524	0.724922358240402	0.000632842322577788	-0.00553561973608841
10.7	-0.00785176593761412	0.00831133251124727	-0.565068168891616	0.82288900409565	-0.56548550113341	0.822597151833832	0.00132895073953484	-0.00765307337201356
10.8	-0.00611252327840345	0.00855194496896789	-0.42979601398092	0.901432961233805	-0.43031410450984	0.901201542714419	0.000581324655472429	-0.00997677267933089
10.9	-0.00459665835185453	0.00953673427258685	-0.282260343430916	0.957937610942872	-0.282755426960375	0.957888091441063	-0.000858183938728857	-0.0113695329376628
11	-0.00218050258686305	0.00926394321250717	-0.128626953575572	0.986140019480172	-0.129178864795973	0.986138937468411	-0.00210907445289612	-0.0128976478046265
11.1	-0.00114978688870509	0.00956187382647031	0.0237099177552192	0.994827763511136	0.0230741267385768	0.994913874221212	-0.00471359408085672	-0.0134844773559094
11.2	0.00100371403968879	0.00971314728342663	0.178967320482169	0.979848161887658	0.178442885716039	0.980056143619833	-0.00634540131105683	-0.0132523846919735
11.3	0.00326638828007903	0.00960176198271644	0.330122828677645	0.939353600674448	0.329689979176212	0.939622010831845	-0.00762805147465699	-0.0124981632865895
11.4	0.00605970059095034	0.0096489119940449	0.471846510332249	0.874424904252573	0.471379818966282	0.874690868416956	-0.00811752882849543	-0.0107537680295121
11.5	0.011263285678505	0.00602941217501647	0.598971214430253	0.792224319164163	0.598611711147231	0.792647907049051	-0.00624522492255949	-0.0123618934425702
11.6	0.00943789858791119	0.000982518619898089	0.717848216155759	0.690299303252453	0.717581314733791	0.690787534380636	-0.0107755446397721	-0.0137835095545079
11.7	0.00798236390438153	7.95547600905339E-06	0.81691071987972	0.568461418466095	0.816672608712627	0.568890565240675	-0.013783135225557	-0.0114611184871365
11.8	0.00654264363098832	-0.000529210001904098	0.894391987882956	0.433358401551363	0.894211345709545	0.433918317787764	-0.0161110224937532	-0.00860028706203964
11.9	0.00552405918484611	0.00214754362526525	0.949664380749888	0.290121000774283	0.949630621375251	0.290670843429909	-0.0178599621306257	-0.00314843915751442
12	0.012224546780852	0.00313591501515463	0.986595214156375	0.138906537638834	0.986587648412081	0.139392717710005	-0.0116898016510272	0.000879404809053586
12.1	0.0122533111352222	-0.00272217341027459	0.994290142652324	-0.0194230371898904	0.994271672199448	-0.0189441701595217	-0.011641526126353	-0.00120900219560385
12.2	0.0110349474859827	-0.00557353744470909	0.977278917608264	-0.173450790381188	0.977392752048954	-0.173010705899349	-0.0114256621032348	-0.000277195173686963
12.3	0.00942932002648451	-0.00824474690751898	0.938012154822227	-0.322516716162292	0.938204499730948	-0.32215772529041	-0.0108392139198029	-8.75158673782105E-05
12.4	0.00584798556613642	-0.00988682576120391	0.877657016063558	-0.465208521283825	0.877796617024577	-0.464831433952561	-0.0114581843915539	0.000512840928358644
12.5	0.00506278807231003	-0.00896386928360489	0.791085120381404	-0.599259120597323	0.791555678468066	-0.59887151293516	-0.00946718942177372	0.00233709684004789
