# GHZ S RI R 50
0.2	-0.000125566055175875	-0.00019689069117938	0.950115483312594	-0.307589443124275	0.94988912637447	-0.307731615686747	0.000113746079128339	-0.000127207951996541
0.3	-0.000427178284292096	8.5798289837193E-05	0.890488933434051	-0.451410409734977	0.890351388838317	-0.451463787947154	-0.000135611883793975	-0.000338542193172105
0.4	-0.000427646279906744	0.000361363535948411	0.809310633050933	-0.584039952850327	0.809350914849341	-0.584179731425165	-0.000191589777901198	-0.000310745766790836
0.5	-0.000415302733883405	0.000901171362489619	0.708535348634865	-0.702952360451844	0.70842461742257	-0.703048444594723	2.16485186054513E-05	-7.43766251532525E-05
0.6	-0.000132471872529282	0.000811240659221628	0.590392613229112	-0.804195524214738	0.590202758780257	-0.804198536369837	0.00029601937214367	-0.000554684547658504
0.7	-0.000274510755190083	0.00111310194006672	0.458282497776522	-0.885882610397965	0.458208363403062	-0.885917093101557	0.000144901401510377	-0.00100867130789354
0.8	-0.000125697851776965	0.00120113432460058	0.315036022389969	-0.94636481198019	0.314917217021076	-0.94627799089306	-0.000189650093859061	-0.00131537983181761
0.9	-0.000214904602367626	0.00158385734605229	0.163998104617982	-0.98371966004352	0.163848799421329	-0.983676767991798	-0.000906341833461641	-0.00156392748177796
1	7.09648145399726E-05	0.00224808085849459	0.00904265377718162	-0.996711550355123	0.00892437704878963	-0.996681841180949	-0.00148843249783938	-0.000883916628026323
1.1	0.00106653457556794	0.00193619123943894	-0.144936942292756	-0.986096611216772	-0.145585646440886	-0.986061684554387	-0.00124392429656249	-0.000817483067333589
1.2	0.00125280087664903	0.000573608068444785	-0.297232685986994	-0.951518226477909	-0.297225688734695	-0.95157401783664	-0.00130377203605122	-0.000905672317556485
1.3	0.00115019980799026	-0.00107565051542362	-0.441458404098063	-0.893584503965497	-0.441550698726433	-0.893609019869746	-0.000524927127051558	-0.000456864809721001
1.4	0.00082638185405176	-0.00278433114600768	-0.574665263608019	-0.813975815308124	-0.574739192096928	-0.813876031738587	0.000765444726210359	-0.000717753053118271
1.5	0.00105522613795269	-0.00366860920922033	-0.693961963171536	-0.714887283391513	-0.693986621450224	-0.714815087702597	0.00258416236726642	-0.00197995850801828
1.6	0.000169509186954518	-0.00420164032068822	-0.796591367933353	-0.598796874905196	-0.797021852992761	-0.598294949486156	0.00155749155311682	-0.0037289523806957
1.7	-4.99807491270695E-06	-0.00354630020894014	-0.879856024815224	-0.467386365125911	-0.880160841288177	-0.466895014835484	0.000418125405095154	-0.00390151018851328
1.8	-0.000117816318414637	-0.00325220925273944	-0.941759044908027	-0.324433612533277	-0.941774525495691	-0.324424110710657	-0.00071327534079082	-0.00397454885512776
1.9	-5.64600732356692E-05	-0.00271082620537406	-0.980678149622235	-0.174140322913827	-0.980722824291566	-0.174193162707104	-0.00156029031714056	-0.00342482746157079
2	0.000587552457706934	-0.00299263021384527	-0.995969207371267	-0.0200639357786344	-0.996063423489756	-0.0194123475408604	-0.00128955089631805	-0.00312287438107253
2.1	-0.00032482637902978	-0.0037787831650626	-0.986436367528645	0.136615204618842	-0.986537192554104	0.136129838179647	-0.00218900364762446	-0.0038427587370772
2.2	-0.00141577297843372	-0.00359424690246348	-0.953051756644613	0.287425020943105	-0.953090332082954	0.287559211152699	-0.00333627221405164	-0.00348923081991658
2.3	-0.00215116811658609	-0.00318109889147149	-0.89669146205345	0.431900251761432	-0.896526995959782	0.431988536756561	-0.00426636416587992	-0.002910156177215
2.4	-0.00304396968826996	-0.00262041424489734	-0.818061635074259	0.566638115247013	-0.818355045827063	0.566175770352999	-0.00507382818556115	-0.00195156232621516
2.5	-0.00298342343702424	-0.00181569157539115	-0.719645691638607	0.686966856793186	-0.719950060188746	0.686586355304809	-0.00435242180823294	-0.000949785225309627
2.6	-0.00377519519309279	-0.00205022557846264	-0.604240023988767	0.789456413623043	-0.604160858057023	0.789396634201686	-0.00391670685477836	-0.001495572507969
2.7	-0.00451584429647842	-0.00112633501887977	-0.474159511107702	0.873396953841976	-0.474129935635018	0.873410962217587	-0.00428599643295219	-0.0015199201301933
2.8	-0.00457577241788644	-9.85829659406944E-05	-0.332750603012849	0.936221489824696	-0.332631910283167	0.936305662276081	-0.00431832918325302	-0.001090033781699
2.9	-0.00355271752951714	0.000712339155100087	-0.182953706717923	0.976165538917442	-0.182949015750271	0.976220375390753	-0.0037879698155226	-0.000310294689140721
3	-0.0025110840847005	0.000779137419262041	-0.0289405032082834	0.991845780282837	-0.0290045370607681	0.991917525070953	-0.00266203857174384	6.6416997483248E-06
3.1	-0.00150918170774674	0.00093475183894146	0.1241985790507	0.984300389830194	0.124847220597782	0.984379100598674	-0.00191323011015871	0.000274654446767792
3.2	-0.000491919930967261	0.000641221499525208	0.276206978673012	0.952718372257029	0.276197182402617	0.95275801757206	-0.00103359008628245	0.000418839469029991
3.3	0.000620698282915407	4.4999886500485E-05	0.421433827519729	0.897594117723612	0.42081240107678	0.897878337052449	0.000109770702805803	0.000282047046090122
3.4	0.00131975812132444	-0.000773848895779201	0.554820603229887	0.821132855031636	0.554736210308047	0.821248465325921	0.00144206278681021	-0.000244006573214941
3.5	0.00202690212321349	-0.00218552455604682	0.67493427015635	0.725371995249419	0.674948591311801	0.725398124829632	0.00266068978323921	-0.00191489767225925
3.6	0.00128190897771224	-0.00311885436989169	0.779214081061467	0.612049150037221	0.779634395120772	0.611653468647214	0.0021487449336155	-0.00345451103438978
3.7	0.00116794254371483	-0.00367086089063903	0.864873639133883	0.482669150739601	0.864881198635718	0.482795565074167	0.00172330381418802	-0.00420997144790936
3.8	0.000713095665843987	-0.00430424710292143	0.928792023607971	0.342381139487752	0.928821196749998	0.342564112589348	0.00101272967567074	-0.00496606967319452
3.9	0.00063368561483698	-0.004777106213674	0.970474019885699	0.19369626803999	0.970378243667345	0.194283882368638	1.27601254437474E-05	-0.00544987441365843
4	0.000533158344516033	-0.00576626040162415	0.989002753964451	0.0412500775841436	0.98908486831665	0.0412926676083183	-0.000114795253075051	-0.00613501552509988
4.1	-0.000787246123036443	-0.00691135543816387	0.982789254015037	-0.113171740378343	0.982727551488424	-0.113107499710776	-0.00170927256997193	-0.00750511232916532
4.2	-0.00237651143503359	-0.00710402336929144	0.952442635459625	-0.26469086237948	0.95263857067517	-0.264123701499467	-0.00362799383596046	-0.00775214001106887
4.3	-0.0036362860700091	-0.00736996019576789	0.8998359098132	-0.40848837207316	0.899836870152449	-0.408469890930077	-0.00558452066972355	-0.00776644142212648
4.4	-0.00525112457605276	-0.00713919830178464	0.82542018977287	-0.543075152385931	0.825340557362091	-0.54305886661527	-0.00780309399598882	-0.00692573101785786
4.5	-0.00601185417652404	-0.00698221722606062	0.73033333519529	-0.664705067500222	0.730211031803561	-0.664558776764615	-0.00884122163669004	-0.00550890667585326
4.6	-0.00793154465315704	-0.00712093734411491	0.618042394170319	-0.768978340556114	0.618029062587987	-0.768749750936881	-0.0101422626215446	-0.00502135122380085
4.7	-0.00984844867316385	-0.00655822899640815	0.49124068446043	-0.855199951315478	0.491358427532189	-0.85495686121158	-0.0119537432870282	-0.00400563730945399
4.8	-0.0115501954450559	-0.00519313491431081	0.352300935082521	-0.920628150146481	0.352594225025416	-0.920441824624975	-0.0133030494089632	-0.00229195169462513
4.9	-0.0123723306164135	-0.00378977767343991	0.20494193279384	-0.963283471697538	0.205200701784463	-0.963233936503013	-0.0138719410471548	6.60041280609923E-05
5	-0.0127641139284661	-0.00248861624795623	0.0538456881534335	-0.982168986989693	0.0540035326945627	-0.982042506748967	-0.0132731111777007	0.00241243285339778
5.1	-0.0127877602550335	-0.00119606739957886	-0.0982168016878134	-0.978844284707042	-0.0978973069778161	-0.978782937051317	-0.0124107802898348	0.00474159097852375
5.2	-0.0122497738788881	0.00015366714613335	-0.248809077075849	-0.951758608759204	-0.248384448503301	-0.951881256575084	-0.0108840419057379	0.00736223864505191
5.3	-0.0115667687264696	0.000750375141020514	-0.393134153708627	-0.90147704172531	-0.392847855124952	-0.901820339106649	-0.00840215389995501	0.00970092188267288
5.4	-0.010927800038149	0.00150547493692154	-0.527709643950165	-0.829449205513208	-0.527575207330641	-0.829737225380806	-0.00510235225669809	0.0114547599817885
5.5	-0.0108675112481787	0.00115436604134711	-0.649390765862566	-0.73817077138271	-0.649341568728899	-0.738482767779661	-0.00150609849441165	0.0108748411701838
5.6	-0.0120072722149384	0.00286249517727242	-0.75625149011378	-0.628539904182721	-0.756265119852042	-0.628709276484262	-0.000166741532618316	0.0104761621932919
5.7	-0.0118007787876821	0.00474618583916654	-0.84437347122047	-0.50350186520361	-0.844350072462169	-0.503675968583252	0.00174341721627978	0.0108706286807774
5.8	-0.0111594029795878	0.00664975051441811	-0.911766417174444	-0.366530393553245	-0.91181123191522	-0.36682072272569	0.0039919414353939	0.0110456095284255
5.9	-0.0100767360372697	0.00818165204590507	-0.957503967298753	-0.221330743038792	-0.957623655675335	-0.221378367954236	0.00657517476657349	0.0112012126344894
6	-0.00844805114425649	0.00863956630796849	-0.980869736236541	-0.0700639660970455	-0.980866703165108	-0.0701322921926122	0.0103468397315223	0.00977492433561304
6.1	-0.00883275644804912	0.00917204106592552	-0.979196648447249	0.0830841553648817	-0.97919986211681	0.0829814207601511	0.0118069926054336	0.00666530876342904
6.2	-0.0084134039501781	0.0109505229269111	-0.954182201467369	0.233569400200436	-0.954229962216281	0.233388789936426	0.0125150795929302	0.00411528305940875
6.3	-0.00741434416840926	0.0123030521890186	-0.906536648029979	0.378371266015156	-0.906560754688945	0.378243352648861	0.0127212653344494	0.00137826923392587
6.4	-0.00589502783045076	0.013356291365276	-0.837092929504808	0.514409894681369	-0.837084058692252	0.514197565289323	0.0122582222206904	-0.00128479065543947
6.5	-0.00420731610163553	0.0134253273114936	-0.746530451354903	0.637995650827038	-0.74663023864225	0.637824320648442	0.0115619836280891	-0.00409589343953662
6.6	-0.00254395694832663	0.013346055810721	-0.638799698093463	0.745113168408067	-0.638946962802361	0.744967928884505	0.0101337824702621	-0.00643390025005565
6.7	-0.00106106026077673	0.0126097610884993	-0.515986535456	0.83505683980776	-0.516106587730674	0.834900387341189	0.00830238624374153	-0.00835585305397413
6.8	9.14821538562114E-05	0.0118601636419077	-0.380376372277235	0.904976428578989	-0.38058598159951	0.904901324506616	0.00607766628833203	-0.00966675040400763
6.9	0.00100916758109113	0.0109217205774666	-0.235377741007286	0.952820150614475	-0.235626848654885	0.952815736151051	0.00405947713134698	-0.0103405988577733
7	0.00173089552248221	0.00997922432105188	-0.0854771011198031	0.977130594431538	-0.085733492229341	0.977099835256058	0.00188213640286247	-0.0111177699538492
7.1	0.0022580122856626	0.00931591061676124	0.0663092946921997	0.979250172028046	0.0661039866404199	0.979237257914772	-0.000551022206053669	-0.0108607261595127
7.2	0.00298537921934912	0.00846571542661887	0.217346316019227	0.957454823161388	0.217092314416652	0.95749745016942	-0.00235102816546537	-0.00996613881134877
7.3	0.00316968914114992	0.00733666886468432	0.363047372101467	0.912283223068062	0.362808125577523	0.91237227273862	-0.00390563809814646	-0.00879884155786807
7.4	0.00330203254760773	0.00640247354160039	0.499639130411059	0.845032630860722	0.499421276879376	0.845192394340952	-0.00517387172762849	-0.0073297630819356
7.5	0.00300386810089153	0.00512279458812687	0.624368644644758	0.758489389789668	0.624208309271218	0.758659332203869	-0.0058637755715126	-0.00596044766351238
7.6	0.00243115970331703	0.00459037038720969	0.735295559363854	0.652743144853643	0.735080070737926	0.652901975586252	-0.00659592206449235	-0.00461646697599241
7.7	0.00210172778892227	0.00433266927149887	0.827650226300621	0.530866018148127	0.82749853605127	0.531059174552409	-0.00695761727963781	-0.00269163645143471
7.8	0.00210544079255918	0.00416904360774946	0.900158463920764	0.396326289117875	0.900036524245461	0.396546227809121	-0.00645405576260898	-0.000661226335074728
7.9	0.00206215119931104	0.00397606551095115	0.951103340070889	0.252498817029323	0.95106136057469	0.252723254457457	-0.0050660148416246	0.0014924382740087
8	0.00229188399007702	0.00296057606232091	0.979779715370329	0.101503156123499	0.979848045973064	0.101795087568116	-0.00253792220732548	0.0024124424467999
8.1	0.000313429136801853	0.00295039348874515	0.983383339073876	-0.0520359820522158	0.983505422438765	-0.0517645423884661	-0.00156427603253364	0.0021070976352984
8.2	-0.000415622847473464	0.00431699521185003	0.963547762870935	-0.203689595402771	0.963611462023357	-0.203393794219548	-0.000772576040947764	0.00242632807205517
8.3	-0.000662498317790773	0.00574622891250366	0.920713226227209	-0.350688546334456	0.920848758782802	-0.350431967164329	0.000194278177301568	0.00248821837114821
8.4	-0.000126701814947856	0.00731633377514983	0.855632224941019	-0.489786334318559	0.855842379523921	-0.489585177000977	0.00105044279140263	0.00265199411754992
8.5	0.00146924164718055	0.00805073043980863	0.768760810495936	-0.616927916310211	0.76887567145587	-0.616801392770191	0.00331744129046044	0.00251476448514669
8.6	0.00182802102780063	0.00796130048549998	0.664063141005527	-0.72823722629447	0.664258962923573	-0.728050608737924	0.00442629486945945	0.000367029798111417
8.7	0.00247741295889355	0.0089715404623669	0.543435694218701	-0.822740124675934	0.543716504553151	-0.822628789051205	0.00447493174750188	-0.00112503501469776
8.8	0.0042472202964935	0.0095993606334485	0.409351602031952	-0.897604832148302	0.409557265195035	-0.897548879591283	0.00400001074979947	-0.00231329740811012
8.9	0.00650720610044174	0.00957031283026801	0.26476129447795	-0.95051565869968	0.265002148825693	-0.950373532298472	0.00355339215825442	-0.00269055731666921
9	0.00950796448014399	0.00795494156308142	0.114514240476307	-0.979594661060677	0.114876122518588	-0.979562103922346	0.00417187587395704	-0.00287873293762197
9.1	0.0114333069345109	0.00524930804571326	-0.0385008491052898	-0.98653046597311	-0.0381478593968435	-0.986542225630204	0.00478974698058488	-0.00377035773637405
9.2	0.0127028681952621	0.00169726348200884	-0.191666229642641	-0.96899728147304	-0.191309208902979	-0.969065366670618	0.00556750343129654	-0.00469107684247885
9.3	0.0123164965330302	-0.00177182069605865	-0.340039301662521	-0.927642153951915	-0.339680936248278	-0.927704002001516	0.00614591085743028	-0.00564085157166507
9.4	0.0113214441967264	-0.00464580866439378	-0.479642182020988	-0.863745404106216	-0.47931704402401	-0.863891125707623	0.00694595148005463	-0.00634768530608638
9.5	0.00901986196652335	-0.00757908894326008	-0.608064180562614	-0.779987964461757	-0.607856163953858	-0.780124072794215	0.00753996880956037	-0.00862632330565786
9.6	0.0060682772727667	-0.00816692782453342	-0.722950231664084	-0.675977720923078	-0.722674918301315	-0.676161349720418	0.00569090832093826	-0.00989581452384549
9.7	0.00421624566435014	-0.0082988496006972	-0.819365517012575	-0.555321766029346	-0.819116238709905	-0.555590586730555	0.00438384588552105	-0.0100829031874835
9.8	0.0023275004781828	-0.00856503641245718	-0.895896078395719	-0.421381373567941	-0.895684156680247	-0.421656237147257	0.00315617503257245	-0.00975873001506912
9.9	0.000489210127034399	-0.00818606183222717	-0.950998492068879	-0.277403477653181	-0.950883238215965	-0.277733863719129	0.00278134174089435	-0.0085926120211547
10	-0.00133645285817767	-0.00908290043233027	-0.983659755871211	-0.125497662872612	-0.983576945680394	-0.125878351324794	0.0039196433097301	-0.00889770968125198
10.1	-0.00522055396553128	-0.00788521739486629	-0.990609729266885	0.0294451032747641	-0.990587596913219	0.0289642155699507	0.00282272042668865	-0.00976100285194147
10.2	-0.00728762613490193	-0.00558129851572714	-0.974100748750073	0.182969477945889	-0.974083733453426	0.182516771852243	0.00194729294471554	-0.0095667847557632
10.3	-0.00876596148760313	-0.00308990707983453	-0.934116529728355	0.332391228390786	-0.934250614373989	0.33184664965803	0.00116340333885726	-0.00943026037310336
10.4	-0.00937950832580143	-0.000881592336263764	-0.871221019646512	0.47423212279323	-0.871486424267972	0.473691689831979	0.000774520208172218	-0.00913956848732845
10.5	-0.00957360116481293	0.000635592365700464	-0.785872355957148	0.60415573045937	-0.786156231041839	0.60376583467716	0.00164886489918072	-0.00972141144549159
10.6	-0.010629096433947	0.00220745044566751	-0.68253457406914	0.718312768815201	-0.68296279835525	0.717966003996872	0.00134013157571101	-0.0114452767065417
10.7	-0.0112396809401616	0.00517788115169158	-0.562780593731816	0.815945045309377	-0.56319439343585	0.815654390203961	0.000474212311070578	-0.0125757713606651
10.8	-0.0103881087798536	0.00815687197258138	-0.428747531739637	0.893729045504562	-0.429261231504853	0.893498113753911	-0.000465187047116916	-0.0134518912096485
10.9	-0.00868295527396285	0.0108764092991947	-0.284022827685626	0.949292685728638	-0.284513842194578	0.949241503170796	-0.0015801213945527	-0.0142496115571114
11	-0.00627093323902097	0.0124255838533339	-0.133479802570561	0.981108499760249	-0.134029287355694	0.981104390779265	-0.00271418412155721	-0.0152253168668156
11.1	-0.0034763662217072	0.0140759555493725	0.020660572201887	0.990560377560698	0.0200272984291286	0.990644229813993	-0.00430499642102585	-0.0157552793275647
11.2	-1.6455745390066E-05	0.0144492820700211	0.174773168532625	0.975250767851474	0.174250822580403	0.975455910386523	-0.00567247932886572	-0.0159672433247682
11.3	0.00347693507930842	0.0140706959861873	0.324290375442985	0.935875175014857	0.323858620758795	0.936140288509724	-0.00678157468283356	-0.0156244493471117
11.4	0.00687443240899945	0.0124960771171279	0.465485144495858	0.873850382706896	0.465018684036837	0.874112901525954	-0.00734033033477054	-0.0149315115021791
11.5	0.0090386432149839	0.00989564511631525	0.595764572992796	0.791594202147217	0.595405022828707	0.792015962526619	-0.00795227842768704	-0.0155228895381352
11.6	0.0102638779074168	0.00813638597639385	0.712172719375251	0.688705304115387	0.71190584512006	0.689190241699193	-0.0101900247535993	-0.0150619176190204
11.7	0.0121119151380717	0.00618242974769411	0.810387876683511	0.569157616761582	0.810149098412682	0.569583598215832	-0.0118067277762162	-0.0136730230119412
11.8	0.0132646180562181	0.00330052277951081	0.888741938546424	0.435976259688963	0.888559297882831	0.436533078381469	-0.0132052386610567	-0.011828748000061
11.9	0.0141520462969865	0.000444243060394954	0.945740237510204	0.292762964158349	0.945704545477142	0.293311031220156	-0.0137701350172424	-0.00894052497090319
12	0.0132607920621719	-0.00429206913762739	0.980238719915692	0.141309908153929	0.980229605646524	0.14179315542554	-0.0124369119284119	-0.00778454572989151
12.1	0.00996899558746967	-0.00649003389314491	0.989163054487577	-0.013214736558499	0.989141740829858	-0.0127385097208056	-0.0130524170053688	-0.00709367012703119
12.2	0.00722796940922574	-0.00763921245325953	0.974582169132488	-0.166726434271069	0.974692837592559	-0.166287342846684	-0.0132923884937904	-0.00561992366784265
12.3	0.00466575307495035	-0.00803646411541479	0.936470852231113	-0.316114684389437	0.93666050109349	-0.315755897597681	-0.0131940217494116	-0.00420720253835455
12.4	0.00218038994115645	-0.00793254047467252	0.875742874898332	-0.458294293217251	0.875879804229581	-0.457918344608615	-0.0128869224837788	-0.00255159400193907
12.5	0.000562341537864978	-0.00809624399762833	0.792104825028028	-0.588582431371766	0.792569147363205	-0.5881926969698	-0.0111724553215579	-0.00167693016731496
12.6	-0.00261283043844375	-0.00760233454423787	0.690970492799629	-0.703351853745351	0.691321295477901	-0.703044463354062	-0.0109856439115497	-0.00202609377050992
