# GHZ S RI R 50
0.2	-0.000115859601128381	-0.000294190903662683	0.950046180091262	-0.307623770323764	0.949819828013179	-0.307765922764334	3.05100402828709E-05	-0.000120382155228231
0.3	-0.000429698228967346	-8.44777215679089E-05	0.890390097985805	-0.451443076122718	0.890252559553391	-0.451496440240373	-0.000256007308414523	-0.000282268077743247
0.4	-0.000473388415008784	0.000125514464343449	0.809178706883483	-0.584051143845304	0.809218972545914	-0.584190911836429	-0.000318803235987097	-0.000200993596667704
0.5	-0.000525410159437106	0.000654553054840964	0.708399373835955	-0.702922856366334	0.708288648437656	-0.703018920914696	-0.000144970167709608	4.35455445588783E-05
0.6	-0.000217722418057969	0.000566993359789027	0.590246550166858	-0.80415466170897	0.590056718157496	-0.804157655701094	4.83694984816787E-05	-0.000320280036218839
0.7	-0.000356201841277762	0.000791476082044404	0.458120921599686	-0.885798879706436	0.458046794645827	-0.88583334946934	-8.50974921354081E-05	-0.000614933551486395
0.8	-0.000257343050028174	0.000796424836823307	0.31488293312627	-0.946228989634242	0.314764157782291	-0.946142171789613	-0.000311575995524555	-0.000768665246311471
0.9	-0.0004638892324072	0.00110821701626039	0.163877267853636	-0.983539097754483	0.163727996150392	-0.983496200827963	-0.000765254534684672	-0.000930070506335883
1	-0.000386981486587877	0.00187076832823607	0.0089465719775182	-0.996511876533658	0.00882832186435269	-0.996482162161308	-0.00100248533101993	-0.000518228518336495
1.1	0.000754902443545177	0.00182456697070363	-0.145000153873756	-0.985837829548931	-0.145648693848647	-0.985802846359126	-0.000740500240193987	-0.00088012858491334
1.2	0.00130229036169836	0.000381769260676707	-0.297222500725369	-0.951230212236324	-0.297215509690783	-0.951285988592031	-0.000895046345626988	-0.00143877564520158
1.3	0.00154103919370818	-0.00165653518841616	-0.441373150475972	-0.893297043409408	-0.441465419005485	-0.893321547344316	-0.000474327783062306	-0.00143995124259238
1.4	0.00128510528220416	-0.00384678219800173	-0.574517830572616	-0.813707201011936	-0.574591733036458	-0.813607445377991	0.000281051151652175	-0.00171646671433166
1.5	0.00150110343599238	-0.00492604282575725	-0.69374892919799	-0.714620469666069	-0.693773576700636	-0.714548297785417	0.00156039609604825	-0.00242011559149034
1.6	0.000462889991353342	-0.00578806708012848	-0.796285855523872	-0.59859402185163	-0.796716193262114	-0.598092290066039	0.000644111930009973	-0.0031989527826663
1.7	-0.000155025453443627	-0.00516400891555343	-0.879512207816735	-0.467268024543194	-0.87981694244281	-0.46677686873385	2.08916881100423E-05	-0.00289157440063816
1.8	-0.000611114022696981	-0.004667531377706	-0.941398905687993	-0.32439561573671	-0.941414381593702	-0.324386118522663	-0.000614579698863094	-0.00287892155437351
1.9	-0.000768616488977769	-0.00376029207224888	-0.980312090970993	-0.174171881674556	-0.980356744694919	-0.174224706884995	-0.0011146534094299	-0.00259024915862998
2	0.000107272474328263	-0.00356665239504591	-0.995597712353765	-0.0201934773623298	-0.995691983219141	-0.0195421433051305	-0.00104933703198743	-0.00259783939678713
2.1	-0.000440852850533367	-0.00457803751277924	-0.986129572068885	0.136418355996135	-0.986230289083604	0.135933135378405	-0.0020591169584055	-0.00306709999647195
2.2	-0.00171793495346037	-0.00461866546111522	-0.952767285407678	0.287191603842973	-0.95280586673065	0.287325742794992	-0.00296700669201836	-0.00261716592539136
2.3	-0.00275513223449532	-0.00414800528503088	-0.896426558601456	0.431600795333728	-0.896262167145316	0.431689073226235	-0.00360325793569876	-0.00218540287555543
2.4	-0.00391710520748153	-0.00323459104048305	-0.817849701747643	0.566248872216914	-0.818142903181086	0.56578665247468	-0.00417623307890103	-0.00169265480459682
2.5	-0.00365355094474911	-0.00170926846775471	-0.719556959939379	0.686526658324122	-0.719861117520099	0.686146218959601	-0.00378702102596788	-0.00144481017603273
2.6	-0.00357979749851638	-0.0018868342130121	-0.60421882472763	0.789019034932223	-0.60413967251147	0.788959296991642	-0.00408299239382861	-0.00210687016878498
2.7	-0.0038737389309749	-0.0015063673657496	-0.474227196197681	0.872933737909732	-0.474197635846892	0.872947749342799	-0.00490309344126757	-0.00192392211015438
2.8	-0.00394023159897916	-0.00106626328090667	-0.33292853672829	0.935766347272533	-0.3328099152465	0.935850526676082	-0.00519006392669396	-0.00120270511096647
2.9	-0.00316406329053317	-0.00059841298611086	-0.183239783260055	0.97575942456549	-0.183235113601678	0.975814243593849	-0.0047977605279785	-0.00012976990804505
3	-0.00227914068022948	-0.000754455342850218	-0.0292690219452439	0.991509709038038	-0.0293330591994651	0.991581408409853	-0.00374933392838302	0.000604487471174919
3.1	-0.00161439808661734	-0.000841904348207988	0.123778148212531	0.983970568857357	0.124426511583583	0.984049495212565	-0.00276343542756104	0.0013045299958766
3.2	-0.000998853575602459	-0.00106439510318066	0.275672742295081	0.952491014674374	0.275662931671552	0.952530640875065	-0.00162091114341529	0.00155259760630824
3.3	-0.000120074722168799	-0.00140761507574972	0.420842431488414	0.897506217173067	0.420221069692291	0.897790029583353	-0.000298492300341952	0.00144408385662178
3.4	0.000566954107982923	-0.00184674460167971	0.55422988709472	0.821181610537499	0.554145458611338	0.821297142956596	0.00108244179586957	0.000868105715176571
3.5	0.00170481893904847	-0.00306833403956464	0.674333822963283	0.725514287060265	0.674348125562417	0.725540416355493	0.00212485450721519	-0.00062100357659954
3.6	0.00111068417620505	-0.00435328721584464	0.778628593353773	0.612380304340376	0.779049047288819	0.611984989018967	0.00187575190002832	-0.00175835805930957
3.7	0.000824371278995154	-0.00500921708282865	0.864408557583407	0.483137254530716	0.864416034628025	0.483263650997043	0.00191580115136652	-0.00247781077618431
3.8	0.00021710092427943	-0.00557611057114959	0.92845761619451	0.342919201412561	0.928486670876973	0.343102169203725	0.00159677507245261	-0.00350270152155102
3.9	3.17646413382853E-05	-0.0057864797513927	0.970241835753999	0.194262316767702	0.970145714256912	0.194849803561026	0.000738239133626028	-0.00457586867122794
4	0.000329932879530913	-0.00638112465983943	0.988863158438268	0.0418903061780899	0.988945235660271	0.0419329448960068	2.5372112706417E-05	-0.00581855574427041
4.1	-0.000557110782555873	-0.00793378790824818	0.982807282077789	-0.112536937743756	0.982745541878552	-0.11247274008855	-0.0022096657985149	-0.00694533448084789
4.2	-0.00232182257900447	-0.00842740532429832	0.952543066045989	-0.264069101688052	0.952738628317345	-0.263501856739442	-0.0043607425438906	-0.00678841517928082
4.3	-0.00380755523862189	-0.00868365848872967	0.900037166601953	-0.407842101622622	0.900038114306032	-0.407823621396713	-0.00628145828481631	-0.00643461002588106
4.4	-0.0056195508485743	-0.00822451857559471	0.82578323209296	-0.542411218186123	0.825703592227254	-0.542394994219753	-0.0082029876949809	-0.00551442587480901
4.5	-0.00616303081622758	-0.00747616694316685	0.730923234543606	-0.664144332879082	0.73080080362332	-0.663998133965577	-0.00933227790962897	-0.00449760863496351
4.6	-0.00731093688684744	-0.00771157480565988	0.618717714442258	-0.768581701033156	0.618704201792635	-0.768353095501044	-0.011188220094714	-0.00391905293895099
4.7	-0.00893235996968437	-0.00763549250707204	0.492010367678452	-0.854941110582551	0.492127933447608	-0.854697886243761	-0.0133182809504851	-0.00245304935212113
4.8	-0.0105950994998174	-0.00671476557810074	0.353139959771393	-0.920557371794787	0.353433166367525	-0.920370761415502	-0.0147108472560387	-0.000186267095105631
4.9	-0.0115375028971417	-0.00566685555436228	0.205786150768579	-0.963443109445093	0.20604496708362	-0.96339334932814	-0.01503829120336	0.00265173744485445
5	-0.0119699083241489	-0.00471293747968612	0.0545541362341295	-0.982519141349617	0.0547119546112656	-0.982392500729397	-0.0141318776229316	0.00540551267983902
5.1	-0.0124426312698688	-0.00401311112535867	-0.0975714448095001	-0.979270587439455	-0.0972518759641241	-0.979208994987074	-0.0125576234620504	0.00812189771487009
5.2	-0.0127203314400591	-0.00268391560350927	-0.248245154720895	-0.9523335466463	-0.247820261464729	-0.952455947766532	-0.0101350920579944	0.0105502180646511
5.3	-0.0125978493751552	-0.00152603236563633	-0.392719707771006	-0.902173354800988	-0.392433041851665	-0.902516625534204	-0.00705935980792476	0.0121996225792689
5.4	-0.0118518523502742	0.000134687343689471	-0.527485092156921	-0.830194867005507	-0.527350413236277	-0.830482955235379	-0.00381039424945443	0.0130223425096504
5.5	-0.0105754446796102	1.82729239037618E-05	-0.649271108980188	-0.73888286663587	-0.649221711310216	-0.739194979585143	-0.00105298321402149	0.0122233904649762
5.6	-0.0114712333064493	0.000610853017499879	-0.756258755924747	-0.629330186593211	-0.756272288924603	-0.629499655209011	0.000299578985269224	0.0123548562381299
5.7	-0.011852767627909	0.00210790905176024	-0.844573036234567	-0.504259317586189	-0.844549527145844	-0.504433506924749	0.00269315330356205	0.0126829119367862
5.8	-0.0117749544190667	0.00412461065904814	-0.912100928503053	-0.367203453756439	-0.912145621317425	-0.36749397150109	0.00525397934765376	0.0122278071953135
5.9	-0.0110783192398867	0.00629820290775355	-0.95790215854257	-0.221928705445731	-0.958021886791807	-0.221976415612908	0.0075647551609126	0.0112167487483741
6	-0.00866577695867967	0.00761615681294101	-0.981376476811482	-0.0706967491761904	-0.981373400840166	-0.0707651115688172	0.00955455625721684	0.00896760980472681
6.1	-0.00827677113612021	0.00741348675991523	-0.979912358918007	0.0825764075157979	-0.979915515671712	0.0824736011911865	0.00928209038589295	0.00695117649491728
6.2	-0.00808374643484722	0.00865348947261625	-0.954996905047452	0.233216716902404	-0.95504460161278	0.233035950669158	0.00951444652853001	0.00604422286344375
6.3	-0.00744777130560138	0.00981602863597412	-0.907453483929573	0.378170827814197	-0.907477539359543	0.378042801228149	0.0102884806728606	0.00467608638199897
6.4	-0.00631568424088287	0.0108495717774409	-0.838112200104916	0.514398374016257	-0.838103204022994	0.514185863214217	0.0109313553208255	0.00247346485856131
6.5	-0.00486983499969723	0.0110137846087679	-0.747614662886646	0.638327248348901	-0.747714476893564	0.638155690847016	0.0110731002383292	-0.000512451156792681
6.6	-0.00359570041636937	0.0110948074097168	-0.639685712782758	0.745722143775206	-0.639833092498522	0.745576709073247	0.0103045106968918	-0.00325924536286787
6.7	-0.00220772023911367	0.0109198150026121	-0.516708735774079	0.835817557718136	-0.516828879428377	0.83566091540092	0.00873086868393885	-0.00580321575316379
6.8	-0.000677012596073435	0.0106154461330354	-0.380933228485507	0.905886333588599	-0.381143050682566	0.905811114532246	0.0063656320313793	-0.007591518987693
6.9	0.000839355570512644	0.00977633747494843	-0.235712341648861	0.953887559622475	-0.235961732367293	0.953883122689633	0.00398111247492837	-0.0084514363865956
7	0.00213939501594542	0.00844246113045321	-0.0854390654690144	0.978232628541348	-0.0856957468843382	0.978201870079741	0.00147903798159933	-0.00899921216860734
7.1	0.00269088358328029	0.00728429174869957	0.0665399961921666	0.980211200455013	0.0663344821480237	0.980198308112729	-0.000911267616362175	-0.00845995527695403
7.2	0.00336798439472018	0.0061662908025472	0.217742098486204	0.958357525904937	0.217487854567576	0.958400243100107	-0.00264233995630835	-0.00741261466978989
7.3	0.00346860676365923	0.00479281718258812	0.363639910710592	0.913091955201818	0.363400450524151	0.913181154179847	-0.00413542319301001	-0.00607038725882745
7.4	0.00346647503373593	0.00371683705615541	0.500427542490482	0.845655152013825	0.500209539879865	0.845815148298939	-0.00532171421311218	-0.00439774723529986
7.5	0.00324623210168761	0.00226438699090002	0.625187336635046	0.758862511401444	0.625026937648129	0.75903265811155	-0.00591504779228298	-0.00261463962805939
7.6	0.00236976418884518	0.00120895055699633	0.736141228784062	0.653007861166314	0.735925621749384	0.653166902106836	-0.00596635859253908	-0.000761064002386912
7.7	0.00138680523115921	0.000903313189507514	0.828557483614538	0.530913569777271	0.828405759952067	0.531106950633491	-0.00528779155356954	0.00103352181992774
7.8	0.000826912228457042	0.00119403807620436	0.900997354474734	0.396156447038624	0.900875438446562	0.396376603298034	-0.00399920614236273	0.00221461206592818
7.9	0.000601067262549105	0.00211036504247902	0.951798955555209	0.252211405514661	0.951757054589274	0.25243599893512	-0.00259975622618601	0.00289874796140605
8	0.00225166902679984	0.00213950244400086	0.980449459549773	0.101288038091521	0.980517918697445	0.101580140777343	-0.00133953779119284	0.00244670606905701
8.1	0.00174656175332176	0.00107749855759304	0.984133275147347	-0.0524020349943368	0.984255543589792	-0.0521304239746964	-0.00205621722834429	0.0024233770562835
8.2	0.000984145260808797	0.00115931038659089	0.964272522454318	-0.204246671471877	0.964336393604204	-0.203950648261273	-0.00216246514618568	0.00346430514733279
8.3	7.63019933236523E-05	0.00183050416268337	0.921362855119984	-0.351443313014163	0.921498631613034	-0.351186571001305	-0.00164255311632862	0.00444295141319049
8.4	-0.000386013747639361	0.00335420344839718	0.856164636153345	-0.49073033120896	0.856375102386042	-0.490529102183258	-0.000631907424785521	0.0053480679107969
8.5	0.00108065050259118	0.00517085201114337	0.769101617653002	-0.618177161313521	0.769216698376933	-0.618050591959889	0.0014576822668637	0.00535721171824542
8.6	0.00247266860523174	0.00466179378919883	0.663921382893349	-0.72958449381059	0.664117575368949	-0.729397907018052	0.00219505217219346	0.00433646536985708
8.7	0.00288373533575591	0.00453366977329152	0.542934934000793	-0.823980664684196	0.543216084913929	-0.823869557058233	0.00295113223237256	0.00409785619755344
8.8	0.00358916795513928	0.00442965902236623	0.408561311126212	-0.898696879970594	0.408767179544711	-0.898641134022316	0.00385224776006348	0.00362466375332313
8.9	0.00433739782141687	0.00448339088930502	0.263688643719735	-0.951441941971495	0.263929830263173	-0.951300041403063	0.00512473606221825	0.00308356178883643
9	0.00641436879634905	0.00398651160720904	0.113077111577414	-0.980156367160948	0.113439186362094	-0.98012434479875	0.00691795461461344	0.00174591430223767
9.1	0.00811338889164524	0.00221155797230834	-0.0399374455050188	-0.986578657979347	-0.0395844356337512	-0.986590931413641	0.00802720070094664	-0.000390658442820492
9.2	0.00949033848900516	-0.000173214169166808	-0.192992166418403	-0.968715332533152	-0.19263524604557	-0.968783906284688	0.00864869311979539	-0.00271816470331844
9.3	0.0100015969081329	-0.00261437106653484	-0.34124369283305	-0.927079546495724	-0.340885451530362	-0.927141867844471	0.00836641462331319	-0.00472201686762432
9.4	0.010465791106088	-0.00487596680275012	-0.480703133616115	-0.862889301987345	-0.48037827051292	-0.863035431234877	0.00787027578539259	-0.00605745146243866
9.5	0.0104399565114858	-0.00857589376444076	-0.608725420529642	-0.778862058071716	-0.608517672264488	-0.778998355484563	0.00663508053049193	-0.00763424115424704
9.6	0.00766976525750939	-0.0115336841705422	-0.72332114690816	-0.674907872524242	-0.723046153499224	-0.675091703847257	0.00466012579534885	-0.00725151397901294
9.7	0.00472026386150918	-0.0126417442820574	-0.81954222371663	-0.554232639921716	-0.819293334312766	-0.554501586367311	0.00412552777518991	-0.00677546400128008
9.8	0.00172585710096717	-0.0129764946939714	-0.89583766438803	-0.420292740174915	-0.895626119807886	-0.420567665916922	0.00367855461880427	-0.00655806366658824
9.9	-0.000967422932846933	-0.011667063004297	-0.95066987478049	-0.276407925718034	-0.950554978152082	-0.276738214042598	0.00369422096089177	-0.00633871650702682
10	-0.00174234978859606	-0.0113442010852293	-0.983267865409882	-0.124773666561405	-0.983185352085895	-0.125154226425272	0.00365517959381669	-0.00738367102275888
10.1	-0.00485000631433534	-0.0112804283501381	-0.990275071189674	0.030234823206015	-0.990253333692875	0.02975406867979	0.00185339836849394	-0.00728618899023235
10.2	-0.00764444445469091	-0.0095667154431218	-0.973590745438111	0.18384169262725	-0.973574170519901	0.183389125673604	0.00145482910897285	-0.00643847833570903
10.3	-0.00994633123681986	-0.00685775647906158	-0.933333734502494	0.333239899557375	-0.933468341157053	0.332695713293198	0.00150292497149336	-0.00639725498169191
10.4	-0.0111505482478086	-0.00375284437456336	-0.870185615927669	0.474894956729213	-0.870451448854797	0.474355134822912	0.00175976909485797	-0.00715087401120828
10.5	-0.0106899670869824	-0.000800235334018291	-0.784657150122683	0.604681209838486	-0.78494129617297	0.604291898421631	0.00192256361295756	-0.00926305498892509
10.6	-0.0103969479441126	0.000631760609139285	-0.68101097438918	0.718454281954043	-0.681439210083113	0.718108367954961	-8.6777033924819E-06	-0.0114383264489999
10.7	-0.0104087770375147	0.00288711331305004	-0.561276279023218	0.815598734401107	-0.56168990860925	0.815308848218825	-0.00232487955418248	-0.0119952894354484
10.8	-0.0095172750940769	0.00520697139705778	-0.427422411554359	0.893019103263794	-0.427935689377089	0.892788914196877	-0.00413949242140576	-0.0116887809401612
10.9	-0.0078701888802446	0.00758883690451514	-0.282882883172547	0.948367158922372	-0.28337333910803	0.948316448790998	-0.00554513976751256	-0.0111886237557721
11	-0.00530173303196023	0.00876292325531789	-0.132405429939872	0.979859546299086	-0.132954151327388	0.979855940487608	-0.00658133052672802	-0.0108336865107452
11.1	-0.00280526024232784	0.0097859828929588	0.0212962129631114	0.988965792936464	0.0206640063640334	0.989049938923646	-0.00744377970559539	-0.0101359799978463
11.2	0.00014350315088239	0.00992329955775933	0.174977640057051	0.973585081100139	0.174456242048895	0.973790152655942	-0.00776845782432511	-0.0096173301218941
11.3	0.00312828328956675	0.00968846140940539	0.324130984074119	0.934222781937086	0.323700037246621	0.934487633711291	-0.00776246141123854	-0.00906058887767153
11.4	0.00637057088161579	0.0087321214113111	0.464984021322952	0.872189458549376	0.464518452255937	0.872451685728368	-0.00750458301772958	-0.0086623837820158
11.5	0.00960627399837689	0.00613290723027862	0.594674974352489	0.790040587670644	0.594316139567677	0.790461563782903	-0.00802343882975991	-0.00912190649536056
11.6	0.0106496903633087	0.00305995321484395	0.710785884626871	0.687635066325325	0.710519384017087	0.688119099292596	-0.00915939752059937	-0.00800574935448607
11.7	0.0114507181044939	0.000905251490896883	0.808883427901714	0.568422555041891	0.808644935155737	0.568847761719326	-0.00910172025858228	-0.00701170586994962
11.8	0.0117423211560464	-0.00140633925214128	0.887122218087442	0.435549760110368	0.886939694498256	0.436105594213361	-0.00905769348926704	-0.00660134079339477
11.9	0.0126400998710879	-0.00275343774650472	0.944045404012362	0.292714007038006	0.944009519302575	0.293261153414435	-0.00861887290742564	-0.00653588843588808
12	0.0134098099499319	-0.00607441678325209	0.978704025580316	0.141792795439291	0.978694584590843	0.142275328732934	-0.0095783180018564	-0.00782861657391259
12.1	0.0116908012318661	-0.0100590777012284	0.987871656946269	-0.0126312212759403	0.987850098702685	-0.0121556319928327	-0.012360726837416	-0.00786957357361944
12.2	0.0085559550263702	-0.0125541997211863	0.97331697575201	-0.166020867757927	0.973427277229451	-0.165582329005297	-0.0146780041680981	-0.0061204405910646
12.3	0.00503273211467288	-0.0135263954291416	0.935216501265396	-0.315136573413627	0.935405671306377	-0.314778230759896	-0.0162531532195371	-0.0036839437856586
12.4	0.00138664304994586	-0.013010624731195	0.874700809977521	-0.456923488821093	0.874837245169337	-0.456548031827502	-0.0168309300102117	-0.000650370604949276
12.5	-6.17933162063845E-05	-0.0115640201906152	0.791426513008132	-0.587133916692432	0.791889873276214	-0.586744381808241	-0.0159219120233459	0.00158508461292534
