# GHZ S RI R 50
0.2	-0.000212178183861172	-4.74619192712577E-05	0.949123112395382	-0.307872895153177	0.948896867760274	-0.308014815333185	-3.94217853094204E-05	9.63349862963864E-05
0.3	-0.000373706579735682	0.00018980209053199	0.889200438683628	-0.451559509883687	0.889063004874898	-0.451612731669346	-0.000166786487685096	-7.25911733241665E-05
0.4	-0.000231324802699656	0.000311139317406169	0.807725071165185	-0.583859845251967	0.80776518732407	-0.583999460548491	-5.39868316748176E-05	-0.000113707366527657
0.5	-0.000379376492126609	0.000502854513254455	0.706979603882683	-0.702172907971189	0.706869003892711	-0.702268772767311	1.61614004563623E-05	-0.000211574736901305
0.6	-0.000327250172744187	0.000627627705278596	0.589034629422418	-0.803240586406921	0.588845072804022	-0.80324349303737	-1.58644849144498E-05	-0.000395100040733615
0.7	-0.000359064311693906	0.000987061106138581	0.45694822701185	-0.884594265154474	0.456874202760219	-0.884628643017413	-4.71520755900547E-05	-0.000621261280726137
0.8	-0.000146063612055122	0.00104769892407404	0.313921655205559	-0.944650450385704	0.313803130419696	-0.944563740084459	-0.000204038181893787	-0.000785911726259085
0.9	-5.76602147062213E-05	0.00135442056652124	0.163358769518033	-0.981669061631217	0.163209795504992	-0.9816262171691	-0.000470533476710645	-0.000996653821323735
1	0.000108438211184503	0.00136397807258125	0.00884004748079942	-0.994785072456218	0.00872200509115649	-0.994755398790483	-0.000774532472590436	-0.00123248339885022
1.1	0.000357782168001218	0.0014648676898232	-0.145025390356077	-0.983917403979265	-0.145672685412376	-0.98388228922278	-0.00136261923777538	-0.00124590247167247
1.2	0.000806401811490461	0.000642641478042389	-0.296751789611956	-0.949150224534663	-0.296744823053258	-0.949205883117713	-0.0014856110511976	-0.00107352188332548
1.3	0.00126611556575179	-0.000806932213709463	-0.440385778740463	-0.891321569476404	-0.440477842504295	-0.891346020040594	-0.000639939192678505	-0.000476561947184398
1.4	0.00146869446311219	-0.00284842433204566	-0.573180342240598	-0.81202313529811	-0.573254097543494	-0.811923603697411	0.000745854674841333	-0.000746272249892016
1.5	0.00141524036457082	-0.0038180717166737	-0.692255793832627	-0.712917136002279	-0.692280377000751	-0.712845125204157	0.00190063741563309	-0.00154708345758785
1.6	0.00109437827076617	-0.00440996854399615	-0.794031007694086	-0.597089510105953	-0.794460252993421	-0.596589207215597	0.00162229594126198	-0.00244502962653047
1.7	0.00076068042504481	-0.00436421161609126	-0.876864568845621	-0.466402317781472	-0.877168699339002	-0.465912661538634	0.00100597879812159	-0.0028553608923227
1.8	0.000280834994175462	-0.00434698942906529	-0.938599939998651	-0.324117820467981	-0.938615379544309	-0.324108359461048	0.00010977626245276	-0.00328492522151047
1.9	-0.00013001980781601	-0.00408469072326952	-0.977411066529847	-0.174350847302039	-0.977455557266306	-0.174403553309551	-0.000805880781739416	-0.00346165993031316
2	-0.000541798838914122	-0.0038599424346287	-0.992278679790352	-0.0211112440535356	-0.992373282446742	-0.0204621615526153	-0.00190410699880516	-0.00321376464378818
2.1	-0.000843610189425744	-0.00377752339754864	-0.983241239089731	0.13435700956472	-0.983340835755483	0.13387315455744	-0.00253297286318352	-0.00272463763275117
2.2	-0.00162039191003245	-0.00380177535737954	-0.950496325657657	0.284560035589648	-0.95053504453821	0.284693706776161	-0.00306491860241241	-0.00234937618349821
2.3	-0.00237041752600608	-0.00349529717941321	-0.894723286917191	0.428516596961279	-0.894559551126738	0.428604957039485	-0.00358613987887683	-0.00202041154391694
2.4	-0.00332619933436609	-0.00305434871205077	-0.816741168042294	0.562657640128964	-0.817032419539209	0.562196109499764	-0.00409788416083454	-0.00176427860515579
2.5	-0.00393222670218748	-0.00201729625608107	-0.719665697376294	0.682451585057607	-0.71996786212046	0.682071267010118	-0.00442771791515144	-0.00157553073092657
2.6	-0.00412549717815535	-0.00120076812332538	-0.605323388189735	0.785448249476824	-0.605244225071002	0.785388884332114	-0.00453512347618625	-0.00119261366081751
2.7	-0.00390652785432653	-0.000463281423180812	-0.475952919651313	0.869655564466777	-0.475923463967676	0.869669638574451	-0.00458125204096763	-0.000866230094346906
2.8	-0.00353472829854843	-7.99586170404263E-05	-0.335384613018432	0.932816274109656	-0.335266505090681	0.93290068218799	-0.00435564752643142	-0.000455344163103718
2.9	-0.00258822233368437	0.000138278241269733	-0.186556562690651	0.973420645919924	-0.186552104789143	0.973475389198055	-0.00382172335555799	0.000172496792565695
3	-0.00171294352031955	-7.45601267197126E-06	-0.0329483078494871	0.990461395405169	-0.0330125525273978	0.990532787463804	-0.00280871435213236	0.000732296292262736
3.1	-0.000750543357374993	-0.000319689768086616	0.120294786460222	0.983463658603472	0.120942266763933	0.983544728488878	-0.00168536759876895	0.00104129130404527
3.2	-0.000214951112185538	-0.000874500075861317	0.272010238508778	0.952640093808341	0.272000294293578	0.952679649822677	-0.000822836281351405	0.000924128575009624
3.3	0.000488594845830749	-0.00150201412736116	0.417218676289195	0.898538456488111	0.41659662816263	0.898819764695434	0.000204702156462296	0.000596862638760308
3.4	0.000719549566821281	-0.00223109795198619	0.551079990392995	0.823120974345618	0.550995144097607	0.823236173774405	0.00111192600480978	-0.000142107453398325
3.5	0.00119470785511323	-0.00294334837923599	0.671899497572018	0.727606463463181	0.671913713757882	0.727632635779921	0.00166722537721397	-0.00111364225554772
3.6	0.000949014684890671	-0.00387732119846903	0.776152851990243	0.614930311613742	0.776574559712009	0.614536644143953	0.00173688925963276	-0.00211682613272475
3.7	0.000678400761935086	-0.00460549188458896	0.862495856154759	0.486396005399543	0.8625028504066	0.486522420216005	0.00161179057060126	-0.00294856410105692
3.8	9.88550217083345E-06	-0.00516867796997183	0.92734934957701	0.346569681475152	0.927377706854	0.346752802682088	0.00107834105507219	-0.00387382673742834
3.9	-0.000345938438445135	-0.00551209157879852	0.969885468893788	0.197924755653881	0.969787137802324	0.198512106234705	-1.9132381220716E-05	-0.00484100060758405
4	-0.000813218005203689	-0.00561234989868308	0.988794485727971	0.0458622798281359	0.988876400115695	0.0459052521629126	-0.00121726977784574	-0.00532136920035406
4.1	-0.0010359039839034	-0.00620279995429571	0.984058557471645	-0.108187847350739	0.983996480916346	-0.108123879689111	-0.00248445108440779	-0.00567552398505201
4.2	-0.00201041653302474	-0.00676835317860962	0.954939050720456	-0.260221741528063	0.955132371509936	-0.259652901268633	-0.00383525683098263	-0.0057901843601003
4.3	-0.00298668765607938	-0.0074516405873342	0.903198490741767	-0.404675444708388	0.903199361600664	-0.404656931054313	-0.00531641441217315	-0.00596376792189017
4.4	-0.00460995946126889	-0.00778440168996115	0.829470871528756	-0.539801838273593	0.829391029621826	-0.539785926209315	-0.0071921988805048	-0.00579600902048111
4.5	-0.00608776564541953	-0.00767066202880238	0.73570649512096	-0.662180632530622	0.735583097700822	-0.662034683978253	-0.00917863448420665	-0.00513462224344347
4.6	-0.00761853989395121	-0.00723361875012311	0.623828990479082	-0.768278856573429	0.623814470674139	-0.768049620206684	-0.0110456769056603	-0.00393382547564306
4.7	-0.00905574495605078	-0.00694012535607531	0.496893450575155	-0.855750322650453	0.497010446169885	-0.855505868469023	-0.0128230717780784	-0.00251559137788746
4.8	-0.0105829439348779	-0.00601840970678815	0.357803519006288	-0.922315314054981	0.358097005488359	-0.922126969284002	-0.0140593746397102	-0.000519703048449001
4.9	-0.0115095467033863	-0.00511299995295628	0.210284303007895	-0.966282034268328	0.210543903297895	-0.966231086604679	-0.0144800993401304	0.00194653889502288
5	-0.0121451635689502	-0.00400372670639984	0.0580943232529914	-0.986924190163861	0.0582524550249712	-0.986796430514503	-0.0138708317524355	0.00465958103126077
5.1	-0.0123085800454095	-0.00321660642121678	-0.0954329927279355	-0.983979141314115	-0.095112133670769	-0.983916426311168	-0.012309425717237	0.00719227987999499
5.2	-0.012520465770997	-0.00210534170844691	-0.247018614824514	-0.957340351786108	-0.246591458746073	-0.957462259336298	-0.0103040239245023	0.00946233745547202
5.3	-0.0125529775256594	-0.00118709836314271	-0.392579278968833	-0.90748990550561	-0.392290423937053	-0.907834201601462	-0.00770083379692588	0.0112429350617429
5.4	-0.0124260940933531	0.000268061939204957	-0.528793079015675	-0.835592373025886	-0.528657155807572	-0.835881755862733	-0.00500538841516597	0.0123937320239707
5.5	-0.0118502251243141	0.00136766679259508	-0.651928648550289	-0.743266569634655	-0.651878712671677	-0.74358023906228	-0.00233592336969643	0.0129372927390474
5.6	-0.0116808040847073	0.00242087937289192	-0.759262784003954	-0.633171063756232	-0.759276204982989	-0.633341367488109	0.0001594615182299	0.0130518385299679
5.7	-0.0117155865367825	0.0036444406839216	-0.848435542717283	-0.507631274178441	-0.848411750965079	-0.507806335055482	0.00261347803059986	0.0130154083853515
5.8	-0.0115171027431048	0.00544288492338343	-0.916816358269437	-0.369657798305158	-0.916861139137733	-0.369949902835936	0.00506742188904168	0.0125376785289765
5.9	-0.0110160665786369	0.00719060242025058	-0.963052068340122	-0.222999162336798	-0.96317244264095	-0.223047113210909	0.00716276822758546	0.0115849136304136
6	-0.00956215068644281	0.00927797897734877	-0.986118424676151	-0.0709244802722059	-0.986115341713346	-0.0709931729280237	0.00891305113985013	0.0105684989198351
6.1	-0.00783816635684828	0.00999995373231968	-0.985150591673904	0.083118839857522	-0.985153775881884	0.0830154832452227	0.010700947784896	0.0089394482504021
6.2	-0.0066598097025056	0.0105021241599717	-0.960114042256389	0.235179462008282	-0.960162130063055	0.234997729583565	0.0119814638712383	0.00664299895805372
6.3	-0.00595171267189851	0.0106806501117793	-0.911849888157501	0.381318193446342	-0.91187423067994	0.381189510396083	0.0125524251135425	0.00382500312671053
6.4	-0.00536877827184764	0.0110951878762276	-0.84152473144036	0.518129218005859	-0.841515992314475	0.517915644205157	0.0122046494342011	0.000855637635025945
6.5	-0.00461473741779936	0.0114466799599613	-0.750838150959419	0.642509110114838	-0.7509386793288	0.642336761293285	0.0113463210135997	-0.00187631644640656
6.6	-0.00342426834377492	0.0118157320539294	-0.641830439725471	0.751089977098903	-0.64197891645617	0.750944012659504	0.0101701738861305	-0.00420520083184085
6.7	-0.00206020791330133	0.0117990614176603	-0.517474453051813	0.84146348905448	-0.517595602570458	0.841306300365332	0.0084387764999705	-0.00625972584856458
6.8	-0.000499710905615387	0.0115419340957139	-0.380574110851846	0.911482280052841	-0.380785196109774	0.911407210647646	0.00622248522121028	-0.0077329232940667
6.9	0.000900796296598482	0.0107084518751837	-0.234505891316304	0.959491256803006	-0.234756600710101	0.959487435086076	0.00398026443505396	-0.00850198599495325
7	0.00228145619019512	0.00964405806722538	-0.0826120614133682	0.984177017660353	-0.0828703309336354	0.984146952780297	0.00178574784829519	-0.00895184847182608
7.1	0.0030044801673602	0.00830037900599376	0.0709621356582598	0.98495796253528	0.0707555146135183	0.984945859795634	-0.000463743165761159	-0.00878971314540295
7.2	0.00360266659868021	0.00706027698418299	0.222970982821782	0.962003188514151	0.222715706036059	0.962047220730362	-0.00231658637629124	-0.00795844003781495
7.3	0.00362625675864831	0.00560887589246758	0.369593087532579	0.915687663007309	0.369352917948509	0.915778394272984	-0.00393048202301721	-0.0067875710493846
7.4	0.00343986447062308	0.00440809847837194	0.507245419260026	0.847021082439065	0.507027227638535	0.84718298289039	-0.00534996905217638	-0.00532077765208675
7.5	0.00295759865150945	0.00317228573271692	0.632305448175146	0.75790305833684	0.63214548790456	0.758074855899335	-0.00619069464562023	-0.00344598388113899
7.6	0.00227112805626105	0.00209226784889834	0.742329380701555	0.650691168438385	0.742114040012782	0.650851988574199	-0.00633270824906662	-0.00187102729478221
7.7	0.00106575581973618	0.00163746179108665	0.834267196964595	0.527519243625499	0.834116181407214	0.527714124928605	-0.00632222733089137	-0.000243914905855262
7.8	0.000203934254108768	0.00190897462370633	0.90607624584126	0.391462495868045	0.905955406335842	0.391684054958448	-0.00571973431781907	0.00127574321454771
7.9	-0.000553277909449836	0.00271623290068233	0.955628611552939	0.246052149061155	0.955588201966423	0.246277522112129	-0.00486260584620212	0.00272589330469943
8	-0.000210357451046837	0.0041247739236322	0.982185057217836	0.0947955937580246	0.982255556638758	0.095087549419497	-0.00423251877301171	0.00416638585673651
8.1	0.00044027916035643	0.0046201022045689	0.984937643449621	-0.0589848325276085	0.985061854830768	-0.0587137138998979	-0.00277399399497038	0.00538233759511358
8.2	0.00107398876708605	0.00499596063232269	0.963543835390769	-0.211135392893848	0.963609822164872	-0.210839601557205	-0.0012468663515327	0.00612138592113702
8.3	0.001474652332916	0.00524600430279339	0.91883441390039	-0.357986394803376	0.918972012482148	-0.357730626557782	0.000515809263023746	0.00618188189411273
8.4	0.00188533846456108	0.00536781970761731	0.852089741496241	-0.49603929058146	0.852301369219042	-0.495839658638974	0.00205689340261052	0.00544629850410471
8.5	0.00224038442840833	0.00595533874081168	0.76487702167928	-0.622288324100563	0.764992769264978	-0.622162529143457	0.00302837390768814	0.00449322835417274
8.6	0.00332736955784103	0.0058587704787763	0.658747217649999	-0.733275558017162	0.658944454195803	-0.733090368751135	0.00385801891655219	0.00344945606235987
8.7	0.00382451587864609	0.00562076589678604	0.536946369550222	-0.826361705196033	0.537227858704517	-0.826252542740031	0.00442103581523202	0.00243166355849585
8.8	0.00461811680687922	0.0052987251132524	0.402352705032402	-0.899617349929137	0.402558553032976	-0.899562959834518	0.00471143013404483	0.00132507621965503
8.9	0.00534413834883885	0.00479059000947628	0.257857833006996	-0.951261669592314	0.258099397358079	-0.951121378703401	0.00503451665892989	0.000288594496429062
9	0.00654184536800463	0.00395797762937657	0.106853392616805	-0.979487231349338	0.107215159899444	-0.97945749443681	0.00534485787378567	-0.000731984878006701
9.1	0.00769826709182692	0.00266201351248735	-0.0461529259131029	-0.984066111536654	-0.0458008021597845	-0.984080613600102	0.00570744034834544	-0.0017499529208246
9.2	0.00888669816623537	0.000913701629677933	-0.198409137180262	-0.96495206004532	-0.198053587909343	-0.965022636454485	0.00622406726839772	-0.00270326034736873
9.3	0.00968268304870848	-0.00111202729970725	-0.34586104864809	-0.922426688554919	-0.345504187214427	-0.922490989218955	0.00672917247457674	-0.00369911644867997
9.4	0.0100195581495473	-0.00362652204258935	-0.484799220950982	-0.857393873895842	-0.484476206264644	-0.857541644218859	0.00688010641531497	-0.00492680889065616
9.5	0.00963077143443402	-0.0061000555524219	-0.611652553394191	-0.771563044567807	-0.611446572721574	-0.771700226730314	0.00650855418055304	-0.00568519624862185
9.6	0.00796841254308349	-0.00892654213210411	-0.723997058065916	-0.667291397428722	-0.723724492064656	-0.667476031003307	0.00574804744021167	-0.00634635053555583
9.7	0.00538221970192082	-0.0103551944657949	-0.818658706035203	-0.546710182297383	-0.818412620107461	-0.546979227209033	0.00504181213060779	-0.00668667919160688
9.8	0.0026685924250067	-0.0111246064634869	-0.893415176022206	-0.4128774776067	-0.89320635272563	-0.413152134118411	0.00432895394793539	-0.00691646241924768
9.9	-0.000311696596247831	-0.0107057650371475	-0.946296436777415	-0.269188591397298	-0.946184166629965	-0.269517469145175	0.0036587493558511	-0.00706766056942233
10	-0.00237054481432704	-0.00968933819637824	-0.976573117358051	-0.119325766649806	-0.976492965491644	-0.119703892995143	0.00293975792854071	-0.00684987037656087
10.1	-0.0045745051503534	-0.00900304210087304	-0.983004380425423	0.0338006724555629	-0.982984637175478	0.0333233084583791	0.00245491959825957	-0.00671044658000573
10.2	-0.00695657741421671	-0.00774571004900193	-0.965625833778639	0.185747003664144	-0.96561091411054	0.18529779411465	0.00211061880408045	-0.0066670363509476
10.3	-0.00932357248750318	-0.00557283984820145	-0.925009863572636	0.33310096776139	-0.925144864204004	0.332561474049333	0.00159906835916266	-0.00704694333500457
10.4	-0.0110775068780132	-0.00296420947752724	-0.862225241345073	0.472314677226092	-0.862489712278682	0.471779748588557	0.000943865987505112	-0.00769684214694071
10.5	-0.0118469607954746	0.000586221677037918	-0.778666872769035	0.600528130172255	-0.778949074934216	0.600141784975362	0.000288403593968965	-0.00831455921778849
10.6	-0.0111425011899061	0.00339905721759552	-0.675816060926946	0.713903667153183	-0.676241545531706	0.713560432803279	-0.000343651575317129	-0.00901741703728699
10.7	-0.0100290047448809	0.00594158301328749	-0.55695484174361	0.810003312679054	-0.557365635761416	0.809715655524399	-0.000934405857611662	-0.00965044518524015
10.8	-0.00839888353129686	0.00769930668747538	-0.424511244448561	0.886506398415445	-0.425020781922309	0.886277771201242	-0.00173493015457065	-0.0104214980673371
10.9	-0.00670809692611623	0.00947516354767332	-0.281854528966572	0.941693288706111	-0.28234162253164	0.941642464365253	-0.00302978505859142	-0.0109767673036257
11	-0.0042540237925319	0.01052259919211	-0.132055180693003	0.973802265344862	-0.132600543147848	0.973798424100759	-0.00415721898850204	-0.0112403224195975
11.1	-0.001694869736358	0.0112188014825525	0.0205210416180457	0.982280473017726	0.0198930636631512	0.982363645748758	-0.00521820073329175	-0.0113744569959432
11.2	0.00114602802279826	0.0110485883528005	0.17256253760035	0.967209676709505	0.172044413263147	0.967412700366406	-0.0060487014189117	-0.0114484696896331
11.3	0.00388681725494732	0.010385216831147	0.320434842848072	0.928721604507356	0.320006236696604	0.928984003814427	-0.00669336623198496	-0.0114009131898235
11.4	0.00635580325918763	0.00902033785766197	0.460760402697188	0.867650662952993	0.460297233827264	0.867910550583075	-0.00749899591098753	-0.0111737427100648
11.5	0.00891127981334744	0.0073681791359311	0.589441947949454	0.785423711043545	0.589084995853015	0.785841267333387	-0.00838345815219319	-0.0106742556644327
11.6	0.0103703458050441	0.00440103460060707	0.704039388242484	0.684619088564479	0.703773524389507	0.685099042072109	-0.00944046257418254	-0.0100879735739212
11.7	0.0109601520052654	0.00204891799952775	0.801761144983397	0.567072207099963	0.80152295922213	0.567493852213691	-0.0103806668709152	-0.00927946332725141
11.8	0.0108172964881168	-0.000396433131707515	0.879941753857967	0.435574386364779	0.879758626409548	0.43612601289555	-0.0114381157485652	-0.00847272026064866
11.9	0.0101456168362671	-0.00187480712028707	0.936501186772797	0.293856897764166	0.936463710254234	0.294400121810935	-0.0128534761865133	-0.00720599139435956
12	0.00970889530097291	-0.0030072629416071	0.97080557702052	0.145497394133319	0.970793864047867	0.145976326660362	-0.0138595994067073	-0.00536965426126319
12.1	0.00922114916132879	-0.00462681369263269	0.981624328881104	-0.00694146847863509	0.981600208217565	-0.00646904376207653	-0.0144046215493613	-0.0033458983488632
12.2	0.00806210432924374	-0.00616301500489918	0.968561474301347	-0.159085280423317	0.96866844039962	-0.158648667258071	-0.0142817404011599	-0.00112514300071002
12.3	0.00684816415159875	-0.00733400250183814	0.932128388120905	-0.307173059990885	0.932314127622215	-0.30681544576046	-0.0133719379349643	0.000619782374990694
12.4	0.00495406493984659	-0.00865497399530246	0.87363131648307	-0.447976894120528	0.873764219339301	-0.447602345920431	-0.0123291591566956	0.00151438782540898
12.5	0.00296460395671317	-0.00901624664362704	0.793527268414271	-0.578530461900634	0.793985785594538	-0.578138448858588	-0.0117245030082616	0.00202073215556806
