# GHZ S RI R 50
0.2	-0.000134756095242516	-0.000174924356120551	0.949847233077253	-0.307680311495426	0.949620903571616	-0.307822413388098	9.25440641760705E-05	-9.18924612172692E-05
0.3	-0.000415406395283649	7.91659586005398E-05	0.890130685548227	-0.451464953523785	0.889993170315794	-0.45151828695175	-0.000139155716290628	-0.00031593278763092
0.4	-0.000408130631734369	0.000300726366099136	0.808870198155836	-0.583996328026038	0.808910433367316	-0.584136061980104	-0.000182692403376456	-0.000326725872630758
0.5	-0.000493378652463341	0.000774900241523701	0.708119669369609	-0.70276243781763	0.70800897053366	-0.702858463152297	-6.38937810028453E-05	-0.000153526259161997
0.6	-0.000259899460519476	0.000779793232924046	0.589994496871376	-0.803967238797917	0.589804721720169	-0.80397021432478	0.00014728625768678	-0.000524266036009666
0.7	-0.000378491076101522	0.00110511583524652	0.457884396406911	-0.885543500826879	0.457810291183624	-0.885577952096707	2.11830922008821E-05	-0.000923874128864911
0.8	-0.000211997239751104	0.00120243349646487	0.31470308990691	-0.945904116415669	0.314584363965355	-0.945817322242655	-0.00027517977320346	-0.00119049510830493
0.9	-0.000243132573853363	0.00154915312864923	0.163791493910507	-0.98318003798676	0.16364227844083	-0.983137153070816	-0.00088431078543889	-0.00145418984488641
1	-6.03815847983999E-05	0.00204416149222505	0.00890384033251632	-0.996185210797594	0.00878563021090134	-0.996155501451695	-0.00149675531483913	-0.000990256447744062
1.1	0.000830608478098257	0.00189355185938656	-0.145003645029121	-0.985448866624947	-0.145651932761841	-0.985413857837597	-0.00137204333774352	-0.000851653521546452
1.2	0.001166603603833	0.000565249404866168	-0.297123229627852	-0.950831786413626	-0.297116242814028	-0.950887539995639	-0.0013386072156242	-0.000958191413621586
1.3	0.00130262936048478	-0.00116894796128891	-0.441188842346953	-0.892928692689942	-0.441281072682398	-0.892953186687351	-0.000408726535608551	-0.000606040741763042
1.4	0.00115987869058722	-0.0031344967413562	-0.574285733802622	-0.813378905206388	-0.574359606460218	-0.813279189855311	0.000984963046253714	-0.00106702977253456
1.5	0.00130631253076891	-0.00404167172049978	-0.6934352212464	-0.71426397618567	-0.693459855323487	-0.714191838100308	0.00265052693508542	-0.00224797782352275
1.6	0.000484384551710745	-0.0046671646149041	-0.795830927368039	-0.598351389770489	-0.796261085029239	-0.59784994887381	0.00171646286951543	-0.00392595459201425
1.7	0.000124696115827263	-0.00405250331260197	-0.879030658590641	-0.467151982192922	-0.879335307314937	-0.466661100735655	0.000516918335838393	-0.00407218566866267
1.8	-0.000126483611518708	-0.00371261926500677	-0.940911024919392	-0.324369429229095	-0.940926494798718	-0.324359938588065	-0.000642546262240519	-0.00411327318601704
1.9	-0.000251259393331928	-0.00314224976379848	-0.979788835451889	-0.174220219905937	-0.979833459063818	-0.174273024477026	-0.0016032897907779	-0.00361544287534582
2	0.000210095518050741	-0.00305749520313639	-0.995030977561549	-0.0204438186542191	-0.995125366486783	-0.0197928766799161	-0.00157248280057002	-0.00304808642020943
2.1	-0.00039140959640121	-0.00376054955783088	-0.985712439445876	0.136028121791751	-0.985812948699912	0.135543095295415	-0.00222280933326142	-0.0036230853140104
2.2	-0.00148578082676235	-0.00368727640777522	-0.95244568281245	0.286734994984802	-0.952484293512243	0.286869061307788	-0.00331899199379418	-0.00333902374391759
2.3	-0.00229257333121185	-0.00329641972773318	-0.896204480852679	0.431069932897069	-0.896040194406874	0.43115823571413	-0.00424375493980752	-0.00280806697945063
2.4	-0.0033083915556297	-0.00273865399648987	-0.817768420858869	0.565628001081243	-0.818061282730704	0.565165839793647	-0.00511323330473225	-0.0019574555908705
2.5	-0.00344855991470422	-0.00160754084169841	-0.719735213966017	0.685939854989283	-0.720039077625988	0.685559353765227	-0.00466355806140768	-0.000817878056664115
2.6	-0.0037759569699085	-0.00158303353450646	-0.604457769084595	0.788550028479519	-0.604378606411325	0.788490342009712	-0.00396990461581959	-0.00112316864905351
2.7	-0.00415969600423601	-0.000923801534507388	-0.47456447487371	0.872498379989771	-0.474534928224454	0.872512403300887	-0.00409291206182043	-0.00131140779017288
2.8	-0.00417261837885179	-0.000284416810386865	-0.333395487269718	0.935413691021829	-0.33327693407547	0.935497922189158	-0.00410365479926316	-0.00115792113159793
2.9	-0.00333553807992877	0.000281166195246776	-0.183826001522895	0.975591150838374	-0.183821365655361	0.97564596956007	-0.00374530382123278	-0.000548799044359076
3	-0.00243775920456106	0.000290771475910611	-0.0297587455571327	0.991554042054923	-0.0298228218912033	0.991625714151386	-0.0027525775783335	-0.000208370134589648
3.1	-0.00161740531141458	0.000353110844942615	0.123291307439797	0.984044932680256	0.123939640141566	0.984124181930522	-0.00211077768000764	6.71382658053522E-05
3.2	-0.00083285029730279	0.000146667292024684	0.275206327192172	0.952711051825978	0.275196495410694	0.952750676252144	-0.00137934234688587	0.000286572554212104
3.3	0.000161646005566432	-0.000297403862516673	0.42047717074917	0.897856507276907	0.419855570089014	0.898140065575932	-0.000301742773598124	0.000271261084598945
3.4	0.000769267255835831	-0.000909514057498813	0.554036994138546	0.821577699147969	0.553952502387506	0.821693224760669	0.000945028514078337	-0.000104138080884424
3.5	0.00167139594575275	-0.00199690860013998	0.674158336558657	0.725804210254343	0.674172631901662	0.725830346706266	0.00227619801462499	-0.0014510372116543
3.6	0.00115307096447329	-0.00307948634395658	0.77846260107562	0.612820645206346	0.778883294249442	0.612425463783206	0.00200630741885168	-0.00304114246508477
3.7	0.00102048898497626	-0.00369317127745245	0.864391043809843	0.483616346481232	0.864398468034234	0.483742774053066	0.00164362526216189	-0.0038396443450968
3.8	0.000546887563659039	-0.0043641495066266	0.928551510031981	0.343370764886206	0.928580499600439	0.343553789361073	0.000984148464722295	-0.00467566664879721
3.9	0.000328458588143151	-0.00485530405133999	0.970367699520456	0.194675180822095	0.970271332475801	0.195262752088018	-0.000122770020984484	-0.00528755819874301
4	0.000201786233117788	-0.005500954977682	0.98907959278869	0.042465097881724	0.9891616656154	0.0425077938269201	-0.000403595394849261	-0.00575244428155653
4.1	-0.000819761156058523	-0.00676292847735378	0.983324387030963	-0.112078527398772	0.983262584648462	-0.112014331885865	-0.00183868928934904	-0.00715549810806078
4.2	-0.00250058380764636	-0.00709037550903552	0.953154650907367	-0.263787427479549	0.953350065360443	-0.263219801478975	-0.00385705523053697	-0.00744640620768746
4.3	-0.00387547510824748	-0.00735713632473317	0.900704856091795	-0.407702002895695	0.900705796777224	-0.407683511989412	-0.00589646759072435	-0.00741358173892206
4.4	-0.00568293795191302	-0.00709384960893154	0.826535018747903	-0.542377010119756	0.826455322492459	-0.542360811713745	-0.00824467022856349	-0.00655961298189473
4.5	-0.00665824719895089	-0.00644962636891562	0.731829080943047	-0.664455631095682	0.731706484879672	-0.66430934889711	-0.00953989674454801	-0.00478417767066405
4.6	-0.00806239542426444	-0.00626044026239927	0.619347377023509	-0.769173062843984	0.619333824929408	-0.768944260731926	-0.0104938472402045	-0.00394061227676155
4.7	-0.00957959846307519	-0.00579934671673029	0.492473146354195	-0.85560176975264	0.492590790232248	-0.855358338768979	-0.0119840802021923	-0.00290474078202141
4.8	-0.0110138943062444	-0.00468534331546669	0.353491943336552	-0.921300916804135	0.353785382073828	-0.921114132636438	-0.0130777417603184	-0.00131249353520836
4.9	-0.0117553611371388	-0.00360084341416572	0.206009679213756	-0.964358972530222	0.206268741716967	-0.964309157646421	-0.0135181783843925	0.000835789948215616
5	-0.0121055778770172	-0.00253255474691331	0.0543505086172028	-0.983499244884921	0.0545085152886458	-0.983372521098452	-0.0128306777756762	0.00304917813223678
5.1	-0.0122652550933618	-0.00167131689600007	-0.0978906396487168	-0.98004999369687	-0.0975707936387571	-0.979988428770481	-0.0119540065828279	0.00507543605401763
5.2	-0.0121391525770538	-0.000467663865838169	-0.248696880348931	-0.95310668009979	-0.24827164501597	-0.953229292961339	-0.0106169912677931	0.00753106748747837
5.3	-0.0118169213245977	0.000284998293856347	-0.393388988587182	-0.90288285609983	-0.393102170606303	-0.903226543264726	-0.00834213608526786	0.00986884080676554
5.4	-0.011356106265714	0.00145253511616131	-0.528406673544166	-0.830691303310326	-0.528272019428885	-0.830979729075054	-0.00523302550405043	0.0117985322830219
5.5	-0.0106850937884205	0.00153596887986608	-0.650108018154938	-0.739022059273085	-0.650058757822232	-0.73933440765438	-0.00128863244042813	0.0115921919573292
5.6	-0.0116057834907242	0.00253299320643409	-0.757106948360875	-0.629516916190971	-0.75712056069751	-0.62968651219903	0.000243900576600317	0.0106937615101149
5.7	-0.0117918278249419	0.0041978770017281	-0.845567067494607	-0.504265851301351	-0.845543627162589	-0.504440204428746	0.00190812056548078	0.0109144497182532
5.8	-0.0115543105196098	0.00612803788308618	-0.91312935703188	-0.366927055642429	-0.913174277747536	-0.367217795683645	0.00387225344545999	0.0110094824129996
5.9	-0.010984611625838	0.00800294815073596	-0.958765623294798	-0.221366887430005	-0.958885474531518	-0.22141454192205	0.00595547181654908	0.0112636252782609
6	-0.0091508631262964	0.00956659321802279	-0.98212328316963	-0.0701898848641734	-0.982120243824161	-0.0702582982791691	0.0095989605537249	0.0107223271287252
6.1	-0.00860192561305978	0.00995970918707811	-0.98070897263686	0.0834008195384534	-0.980712211060569	0.0832979253514724	0.0116697606870489	0.00769859894358433
6.2	-0.00792939204223778	0.011322586734052	-0.955520103821552	0.234264714547146	-0.955568001526848	0.234083852472473	0.0125915513113568	0.00500800080151582
6.3	-0.00696956880773655	0.0122486147477094	-0.907684382149072	0.37927393870603	-0.907708574240682	0.379145851844891	0.0128724842693525	0.00203465013027996
6.4	-0.00577821504174678	0.0129799164912649	-0.838171132594709	0.515415466411162	-0.838162311852257	0.515202822142153	0.012269034520848	-0.000889283557335919
6.5	-0.00442988143808687	0.0130742447750873	-0.7476444133667	0.639563176200598	-0.747744471815061	0.639391568165953	0.0113693337514546	-0.00372097053036344
6.6	-0.00306946517707802	0.0131101493344641	-0.63921067076069	0.746964702661844	-0.639358318678622	0.74681934957092	0.00975758526051623	-0.00601980959275406
6.7	-0.00165285698322125	0.0127420374277999	-0.516012964057021	0.836843956591432	-0.516133350104818	0.836687371761279	0.00789841565479506	-0.00772116248816989
6.8	-0.00028872864434335	0.012212391351065	-0.380122092712769	0.906772962630564	-0.380332105827082	0.906697938101207	0.00581298889653372	-0.00892854294017041
6.9	0.000858254877384244	0.0113188950432245	-0.23475926259112	0.954769114785079	-0.235008817632347	0.954764963527421	0.00389524758202183	-0.00958876487842964
7	0.0018666341687511	0.0102366264419929	-0.0839891455366293	0.978882413909688	-0.0842460102051341	0.978852031463677	0.00187377382205462	-0.0104171702803711
7.1	0.00231079259097239	0.00934161213725154	0.0679401243784024	0.980378357996286	0.0677345374305222	0.980365752054506	-0.000637697433250886	-0.0102776531331863
7.2	0.00295880787997442	0.00848886386721446	0.219136802021228	0.958328954611617	0.218882544759306	0.958372037493911	-0.00250070323181029	-0.0093261919585281
7.3	0.00312766720917143	0.00738416334972058	0.365098931484412	0.912805456171519	0.364859537257821	0.912895036055419	-0.00405283544472196	-0.00807446214721176
7.4	0.00326402542577145	0.00650212852319668	0.501943910508577	0.844933571411466	0.501726146655466	0.845093963374157	-0.00527961347426734	-0.00649935991703977
7.5	0.00322580006967192	0.00526709203409678	0.626199419178127	0.757626073624362	0.626039342112662	0.757796422245128	-0.00569789928374795	-0.00499875862989014
7.6	0.00268584572356139	0.00429523601907102	0.736859532458714	0.65191251026928	0.73664417642517	0.6520718045572	-0.00627663234111229	-0.00394328159362305
7.7	0.00203093632502188	0.00389557916085263	0.829162909447384	0.529711302388164	0.829011470312174	0.529904862386984	-0.00673091324983424	-0.00219227806649785
7.8	0.00169675733564644	0.00381592625342917	0.901394728352168	0.394778866794066	0.901273153797689	0.394999156410929	-0.00638509489783664	-0.000249513159349909
7.9	0.00123432939072552	0.00400825872951826	0.951775957049765	0.250727383136514	0.95173439906596	0.250951945573094	-0.00533477950221733	0.00200440894973416
8	0.00199272822535679	0.00404597305656443	0.980219218037816	0.100147155620541	0.980287982432068	0.100439078512914	-0.00271391164483295	0.00360795207407241
8.1	0.000991615880089992	0.00351746585846583	0.983871721387276	-0.0537612219453775	0.983994344283543	-0.0534898331036766	-0.00111891760989153	0.00296194262321948
8.2	0.000277086932639392	0.00420570144418048	0.963565124198784	-0.205622358833832	0.963629417188229	-0.205326554557496	-0.000429813652802362	0.00285720415652738
8.3	-0.000246588134494092	0.00521149843979373	0.920259113980958	-0.352549370603321	0.920395174232157	-0.352292990909566	0.000285531166936275	0.0027075313602134
8.4	-0.000288938293868476	0.00652538003469051	0.854953038175386	-0.49136943261356	0.855163583927273	-0.491168599885161	0.000711158717513397	0.00271249835500906
8.5	0.000802890768827401	0.00805934250812951	0.768017361933501	-0.618842513386316	0.768132546356732	-0.618716138679048	0.0024592583207632	0.0032394517170021
8.6	0.00188117145498746	0.0080191511308859	0.662423374199065	-0.729955372302835	0.662619677484567	-0.729769194328429	0.00409419995277726	0.00134511907235355
8.7	0.00255106635254384	0.00859521090058574	0.541482106978444	-0.82388121766335	0.541763136912322	-0.823770539451108	0.00428614251663869	-0.000254357931865676
8.8	0.00408321105662038	0.00887230858854518	0.407322552005519	-0.89829939092431	0.407528292445567	-0.89824389521796	0.00389626289841358	-0.00160507059298159
8.9	0.00577186812717692	0.00857268872578656	0.262665066848097	-0.951029183067707	0.26290621536755	-0.950887592992181	0.00330452244956224	-0.00229348955257649
9	0.00806278952064704	0.0073525345762257	0.111817305808726	-0.979513967552531	0.112179131661195	-0.979482402830177	0.00348173781286301	-0.00238565024876299
9.1	0.00967652544404644	0.00524316902219408	-0.0407467907322078	-0.985602182862603	-0.0403941285138514	-0.985614747860051	0.00387422273016606	-0.00294992084840223
9.2	0.0110718334527722	0.00265951723622677	-0.193601763853701	-0.967830828669284	-0.193245167450954	-0.967899628987453	0.00473996698939714	-0.00323701190491323
9.3	0.0115682796661119	-0.000204311804332773	-0.341858529905881	-0.926182444589803	-0.341500572926225	-0.926245047816086	0.00597295320299591	-0.00384491764161348
9.4	0.0114024558444953	-0.00309597377703522	-0.481378448550771	-0.861688811363369	-0.481053996076622	-0.86183522016985	0.00725301376631328	-0.00472517056106827
9.5	0.0103811561192769	-0.00634042023451981	-0.608766953186759	-0.777275104341724	-0.608559601601075	-0.777411444939382	0.0086009916781332	-0.00712936015232746
9.6	0.00741840064922169	-0.00848642731308611	-0.723069224493654	-0.673676775675285	-0.72279465093027	-0.67386061903025	0.00669942292240146	-0.00944051965938704
9.7	0.00489189095790659	-0.0090954508782228	-0.819168205366703	-0.55300918514478	-0.818919784734479	-0.553278063300814	0.00496124929158225	-0.00989265197209586
9.8	0.00246147689568907	-0.00953386826155717	-0.895181195163266	-0.419045310966422	-0.894970127114583	-0.419320106262616	0.00343823342982832	-0.0097477056917183
9.9	-0.000140953989998127	-0.00897406000388781	-0.949497230825572	-0.275311183563482	-0.949382742496239	-0.275641078368397	0.00246333070185486	-0.00864005913592348
10	-0.00167910703802343	-0.00879044915393024	-0.982007545230016	-0.124421527359186	-0.981925212869824	-0.12480160605438	0.00359944126454269	-0.00812057192823674
10.1	-0.00502573109865106	-0.00831216663235637	-0.989146160593524	0.0305717843415235	-0.989124627744367	0.0300915641791524	0.00284856296179853	-0.00943461985828711
10.2	-0.00756466205608943	-0.00636709076050727	-0.972276313969987	0.183879868641201	-0.972259889078416	0.18342788365086	0.00165513274749612	-0.00944148823087955
10.3	-0.00956862256823737	-0.00390545483805162	-0.932074833627292	0.332791256109561	-0.932209259225209	0.332247803758326	0.000558064719768711	-0.00937534833053224
10.4	-0.0109047421747769	-0.00140161084044341	-0.869404439454754	0.473987788199577	-0.86966974219142	0.473448463131117	-0.000390965707684006	-0.00904043205962926
10.5	-0.0112986966778163	0.00145466947030041	-0.7844570788253	0.604215926745739	-0.784741001166388	0.603826718563422	8.00461665379105E-05	-0.00868839981908323
10.6	-0.011374212808008	0.00354690487435792	-0.680509398617383	0.718048611592258	-0.680937387426106	0.717702957835499	0.000377421666864698	-0.0099235317144845
10.7	-0.0111322294257636	0.0062758016970683	-0.560863157403901	0.815009622788036	-0.561276488314548	0.814719950011821	9.50142024312114E-05	-0.0111268838763465
10.8	-0.0100065857449316	0.00863696877551446	-0.427237583429996	0.892373743670474	-0.427750492069011	0.89214365058629	-0.000702493318524979	-0.0123798985342033
10.9	-0.00844740292530415	0.0110231986369508	-0.282863071325927	0.947968932392399	-0.283353330447586	0.947918195144445	-0.00198867223197148	-0.0132852555824592
11	-0.00599849599354279	0.0124724872044843	-0.131982908060307	0.979296234203539	-0.132531289497338	0.979292821160698	-0.00310753907673502	-0.014120482418594
11.1	-0.00338485523763597	0.0138993891815193	0.0212023757243819	0.988146693891433	0.0205706873227003	0.988230721355062	-0.00472708009332157	-0.0146137947860036
11.2	-7.07318472417011E-05	0.0142851800544504	0.174661423149949	0.973034536961994	0.1741402959027	0.973239371861768	-0.00602662120464987	-0.014686953200276
11.3	0.00330499340103896	0.0139278071478945	0.323852552198101	0.933875952524962	0.32342174793363	0.934140627000882	-0.00702516813752056	-0.0142921482296874
11.4	0.0065149307336888	0.0126552931424056	0.464895645660972	0.871738455319609	0.464430319238744	0.872000629094303	-0.00764727915320175	-0.0134160462607682
11.5	0.00946340280547564	0.0103609853448827	0.594006174488414	0.789417387927997	0.59364759841507	0.789837922934623	-0.00757050932558207	-0.0136927846594568
11.6	0.0106965408981742	0.0076805074657767	0.710153879736961	0.687616078719881	0.70988729669093	0.688099768173514	-0.00963798537851878	-0.0139265858332096
11.7	0.012004590519467	0.00555161935414316	0.808471275469923	0.568454571100075	0.80823274644217	0.568879577183194	-0.0114450556373938	-0.0127459773708083
11.8	0.0126500850585551	0.002782822410788	0.886728095588445	0.435503579714565	0.886545566719134	0.43605917898465	-0.0130653809481699	-0.0110599167149576
11.9	0.012823715822281	0.000579441654551476	0.943319725187527	0.292749583009666	0.943283727480974	0.293296342498941	-0.0141406876984785	-0.00805541666332018
12	0.0129274624978237	-0.00250847867987584	0.978218163079619	0.142517859726124	0.978208341561216	0.14300020161681	-0.012395070899764	-0.00583808261250173
12.1	0.0109716688725809	-0.00556991364031666	0.987757975614258	-0.0121472421039509	0.987736187712567	-0.0116717210402051	-0.0121147612478764	-0.00581826869476047
12.2	0.00842653218092903	-0.00757909362119002	0.97318699835528	-0.165461839449244	0.973297039962117	-0.16502334022403	-0.0123857802948874	-0.00501501269117313
12.3	0.00559270369776284	-0.00872325303367175	0.935286554374239	-0.314375644743602	0.935475420605697	-0.31401722369588	-0.0126655851247262	-0.0041562338707472
12.4	0.00226920969951264	-0.00899743007035848	0.875321182568438	-0.456030951095166	0.875457226384074	-0.455655293034048	-0.0131788346686684	-0.00276150772366283
12.5	0.000110161521403566	-0.00815821141528835	0.792533183522681	-0.587089179660333	0.792996674331052	-0.586698977043284	-0.0122037554635006	-0.000880505533400331
12.6	-0.0023499795249802	-0.00779216559594769	0.691118239805197	-0.701836934002267	0.691468330993223	-0.70152943300038	-0.0113984570292741	-0.00102667274076789
