# GHZ S RI R 50
0.2	-0.000349979615404738	-5.43131413498227E-06	0.948738869466664	-0.307898674726071	0.948512685551012	-0.308040511610245	-0.000187082765999271	0.000149158904138097
0.3	-0.000461601267198294	0.000249650654567647	0.888758944354305	-0.451518196189754	0.888621558669551	-0.451571373497726	-0.000267193445721151	1.11207596598491E-05
0.4	-0.000249198695614217	0.000357584356754693	0.807225842055344	-0.583715999875344	0.807265913901079	-0.583855553768827	-8.04571007823937E-05	-3.08113227639562E-05
0.5	-0.00036627474025687	0.000426621766811473	0.706485085901981	-0.701828149914094	0.706374541833833	-0.701923946050393	2.31083861953779E-05	-0.000249301757616464
0.6	-0.000409497588716083	0.000575509438695169	0.588673427709519	-0.802824148001427	0.588483975521569	-0.802827044461819	-0.000115289286303435	-0.000396550509118709
0.7	-0.000389115257529257	0.000961909137533384	0.456625465814916	-0.884111439664257	0.456551482226283	-0.884145792754233	-9.29473566419507E-05	-0.000570569913942306
0.8	-0.000142293457893372	0.000988146338054726	0.313680062259396	-0.944060555606424	0.313561616973151	-0.943973895553918	-0.00019916264192711	-0.000744674756468223
0.9	-3.0987787844336E-05	0.00126501201096572	0.163270159005156	-0.980988717723322	0.163121286599327	-0.980945906412629	-0.000402457964718533	-0.000968394624110277
1	0.000113362811624851	0.00109473604032223	0.00893406391972348	-0.994159632005529	0.00881609268300429	-0.994129988785233	-0.000669273297265613	-0.00142239848178492
1.1	-3.89164530611759E-05	0.00134335863457198	-0.144915443982268	-0.983278899052789	-0.14556231802341	-0.983243817363404	-0.00166967849772639	-0.00135991819689484
1.2	0.000366396778123475	0.00099052980598917	-0.2964755341784	-0.948457850896304	-0.296468569626323	-0.948513467483282	-0.00188372609813447	-0.000762639833635146
1.3	0.000976531422981988	-7.68171767076046E-05	-0.439914608070784	-0.890681078565944	-0.440006595916184	-0.890705522723174	-0.000962212099721533	0.00020680011720387
1.4	0.00137813252954002	-0.00201473352062024	-0.572564558790551	-0.811518801821327	-0.572638278416577	-0.811419362795293	0.000558100423669814	8.90533707802092E-05
1.5	0.00129799199871295	-0.00304528522849059	-0.691605483873513	-0.712481127521112	-0.691630059888145	-0.71240917625885	0.00163686668327502	-0.000690042341297567
1.6	0.00129233626579638	-0.00366830024526241	-0.793134242122539	-0.596733220610579	-0.793563213239665	-0.596233496338067	0.0016906525148613	-0.00148806032335427
1.7	0.00110351949193545	-0.00400787084329819	-0.875845734742133	-0.46633238453737	-0.87614978517588	-0.465843315570308	0.00132066551315543	-0.0022279925325142
1.8	0.000595493293792548	-0.00428624229662975	-0.937593380550924	-0.324314702422171	-0.937608811206943	-0.32430525787994	0.000484976791767099	-0.00296478376972286
1.9	8.99599176064917E-05	-0.00430143826436784	-0.97647628273891	-0.174740003535901	-0.976520706246374	-0.174792688847365	-0.000465995347588728	-0.00348350446157401
2	-0.000730672595423585	-0.00418590623277046	-0.991302673627389	-0.0217009833088846	-0.991397583638213	-0.0210525889387425	-0.00201870766167725	-0.00342686654826193
2.1	-0.000995491328111442	-0.0037989505180163	-0.982471827083366	0.133395457320107	-0.982570920457519	0.132911952313186	-0.00266050258288771	-0.0025828715605021
2.2	-0.00165678054146942	-0.00391133224498117	-0.950016372716525	0.283472325725659	-0.950055183318407	0.283605857646895	-0.00303324970070508	-0.00226153756028782
2.3	-0.00244269178262317	-0.00369325776135106	-0.89447355126278	0.427357153644857	-0.894310018833989	0.427445603841612	-0.0035282081170163	-0.00204121337440205
2.4	-0.00345911230413333	-0.00331520780819347	-0.816706879954069	0.561408494737278	-0.816997445404604	0.560947010655045	-0.0040481454094889	-0.00193133747195044
2.5	-0.00435940269774708	-0.00231914520666816	-0.720035427129343	0.681078399579492	-0.720336906077793	0.680697959898976	-0.0047264113686889	-0.0019345823325169
2.6	-0.00462987115929534	-0.00106215752504252	-0.606077126364307	0.784342227107693	-0.605997920286461	0.784282988408624	-0.00507603748982299	-0.00113081112674189
2.7	-0.00420179124779385	-0.000140684154894923	-0.476875716442545	0.868755189522088	-0.476846288689092	0.86876929559141	-0.00500545714079912	-0.00054468153543868
2.8	-0.00365275238123349	0.000292040893571131	-0.33649695945967	0.932102503408301	-0.336378996411358	0.932187039821848	-0.00462929938115182	5.38498919780143E-06
2.9	-0.00258405182217981	0.00047974887716017	-0.187888889105721	0.972966798653542	-0.187884509067905	0.973021537427533	-0.00396472014021256	0.000667290587895322
3	-0.0016405226571965	0.000348630020585396	-0.0343603641203159	0.990510617577901	-0.0344247165763985	0.990581925174184	-0.00287575445965914	0.00130811871485533
3.1	-0.000503972037932616	-4.44468626523458E-05	0.119098508252245	0.983744173616039	0.119745975655748	0.983826052634728	-0.00151349969687679	0.0016134921027661
3.2	6.39702674444865E-05	-0.000726584027620937	0.270855374033086	0.953113315997199	0.270845378908702	0.953152865068352	-0.000556211031876289	0.00136767546708892
3.3	0.000785490031895461	-0.00144513429706855	0.416158196140221	0.899282708880876	0.415535642466735	0.899563281193995	0.000532036303014292	0.000926830212261295
3.4	0.000998237486008929	-0.00227714083700984	0.550249782695731	0.82414506003765	0.550164756584251	0.824260196828093	0.00142761574974573	4.16949400360811E-05
3.5	0.00140782053395028	-0.00291173539281206	0.671436418416395	0.728646973305368	0.671450613420413	0.728673172537347	0.00185485617439151	-0.000853519953359557
3.6	0.00144577708250496	-0.00388372005292894	0.775721771518574	0.616004211750328	0.776144060411651	0.615610885958635	0.00221933084686648	-0.00181541768902094
3.7	0.00126290414929896	-0.00488901854982129	0.862301507274316	0.487646075347195	0.862308353468348	0.487772555311148	0.00224816422828529	-0.00290838457599801
3.8	0.000566920234739743	-0.00571879811940025	0.92748596900416	0.347847669958633	0.927514130174489	0.34803093051199	0.00174502014807838	-0.00413419543394289
3.9	7.20524157270304E-05	-0.00637361154736164	0.970310069251963	0.199059842918038	0.970211064750686	0.199647472974495	0.000535357891670562	-0.00550242441051139
4	-0.000845792987567934	-0.00660281550557862	0.989240494461219	0.046903961073311	0.989322405435979	0.0469470392451984	-0.00121644140512445	-0.00621268165535621
4.1	-0.00119377708391082	-0.00704518216866455	0.984831349663812	-0.107067829501012	0.984769155223279	-0.10700389521861	-0.00272190987258648	-0.00635037748923582
4.2	-0.00235711867678922	-0.00763474178983652	0.956013427727434	-0.259329313441556	0.956206247954928	-0.258759788932619	-0.00426710508496803	-0.00641542408858139
4.3	-0.00356858194020414	-0.00818213312061146	0.904441104921292	-0.404040664086286	0.904441956209204	-0.404022133118363	-0.00595847171023685	-0.00641269647115289
4.4	-0.00532090202238057	-0.00829426288304566	0.830809110320013	-0.539383577376959	0.830729178956113	-0.539367738119185	-0.00790902965534967	-0.00604016835342448
4.5	-0.00698372701439365	-0.00789627851561205	0.737333873764925	-0.661954775388831	0.737210159107701	-0.661808827417871	-0.0101144052038115	-0.00520139296415039
4.6	-0.00828405904848011	-0.00687637678400395	0.625532602340365	-0.768687444680307	0.62551781544456	-0.768457901726659	-0.0118934605890978	-0.00339945689469755
4.7	-0.00921165563207244	-0.00643874543811516	0.498368135009966	-0.85656688818233	0.498485087897301	-0.856321974331178	-0.0132275910697157	-0.00173802603601828
4.8	-0.0103388935298445	-0.00564613483022426	0.359051483748427	-0.923418361397482	0.359345263662995	-0.923229508102047	-0.0140762950898498	0.000236375606363614
4.9	-0.0110343313012402	-0.00500739608429963	0.21133566866938	-0.967658035435982	0.211595642758572	-0.967606814112542	-0.0142293921991207	0.00252891859648841
5	-0.0116298225647357	-0.00413103838301293	0.0587464953635896	-0.988747559099843	0.0589048541234649	-0.98861947228194	-0.0135393690906134	0.00509755057091685
5.1	-0.0117382075099218	-0.00362668142720993	-0.0954190403017225	-0.985758259294555	-0.0950976187237848	-0.98569537179396	-0.0117937384908754	0.00745291882243984
5.2	-0.0121503419631945	-0.00280130665065531	-0.247347176798878	-0.958998377437746	-0.246919279789199	-0.959120451545263	-0.00980406781043737	0.00942173672416789
5.3	-0.0124671378384847	-0.00199548328113368	-0.393247564296493	-0.909057788205173	-0.392958208173627	-0.909402675094989	-0.00735710350616182	0.0109604897752771
5.4	-0.0126508848386655	-0.000542072564784616	-0.52987640300633	-0.837021427259664	-0.529740278437107	-0.83731135380796	-0.00498198585097707	0.0119161932118833
5.5	-0.0123192328578392	0.000957716524089497	-0.653429858191107	-0.744188586048379	-0.653380002468201	-0.744502815765005	-0.00276323361646207	0.0128071165333999
5.6	-0.0117759715296886	0.00205574716414769	-0.760680733600371	-0.633702451517123	-0.760694260113808	-0.633872994701547	8.10191054915469E-05	0.0131325470228442
5.7	-0.0118613852847822	0.00305478764221223	-0.849938211274662	-0.507919059774924	-0.849914477815715	-0.508094387782776	0.00259723519188907	0.0129052108183803
5.8	-0.0118737360490483	0.00479870846232206	-0.91838426664817	-0.369579827628883	-0.91842930669334	-0.369872323424981	0.00493712464693766	0.012289512374604
5.9	-0.0116267298878988	0.00659963476528145	-0.964520362445713	-0.222453539584734	-0.964640937795048	-0.22250144882591	0.0067922080281068	0.0111915280230834
6	-0.0105370985391727	0.00918348846048575	-0.987122613807822	-0.0701503877213405	-0.987119586539443	-0.0702191487553862	0.00790200287737064	0.0104891944828554
6.1	-0.00825070400704689	0.0104728314924783	-0.98610120044663	0.0838398838571843	-0.986104454645344	0.0837364239369959	0.00999227845829451	0.00962047551660194
6.2	-0.00653664147681545	0.0108974239712177	-0.960981119827347	0.236105909230377	-0.961029386809785	0.23592401518734	0.0117867673614559	0.0074671493361796
6.3	-0.00546911134293863	0.010829464334946	-0.9125197469528	0.382418310243834	-0.912544213622821	0.38228951009621	0.0127970571125141	0.00455740733482338
6.4	-0.00474242486803169	0.0108089465925788	-0.84193958934989	0.519291016630275	-0.841931008488291	0.519077228006803	0.0127449806574651	0.00120253707980223
6.5	-0.00415222912926529	0.0108221361079612	-0.751266769378605	0.643672871747513	-0.751367513431792	0.643500395741202	0.011835477840226	-0.00189409559503409
6.6	-0.00319637933956933	0.0109869084778875	-0.641990115250191	0.752656054483996	-0.642138918863619	0.752510033444108	0.0105286593392944	-0.00449563123303759
6.7	-0.00213528448460362	0.0109568807672757	-0.517137006053553	0.843062492213361	-0.517258479950595	0.842905252865389	0.00852139069017201	-0.00668804250744885
6.8	-0.000770504363086219	0.0108220469866925	-0.379852133187302	0.912938204105046	-0.380063539373866	0.912863315960998	0.00604755962243991	-0.00813141830103091
6.9	0.000517868404127133	0.0101416473090811	-0.233540790090854	0.960777697112221	-0.23379176331889	0.960774186900814	0.00358665531235685	-0.00877242541309576
7	0.00192635584761305	0.00928958353565945	-0.0812347644668137	0.985468676523383	-0.0814933855161622	0.985438963099618	0.00132011936567751	-0.00894125632933434
7.1	0.00273402138863129	0.00797891265979555	0.0728262918154097	0.985678893833107	0.0726194701382565	0.985667158820942	-0.000850302077512644	-0.00865361745893508
7.2	0.00334920995722136	0.00681484228834292	0.224883495917756	0.962173285836374	0.224628146032317	0.962217816386844	-0.00267279669691327	-0.00769261628130313
7.3	0.00345766908995294	0.0054538536460803	0.371466233786815	0.915415976853226	0.371226123906986	0.915507196583014	-0.00418394792723697	-0.00637940402105339
7.4	0.00338608644890344	0.00427306229251557	0.509083377584972	0.846349739031161	0.508865419699848	0.846512124585659	-0.00544789227906712	-0.00484604322163965
7.5	0.00301418684362188	0.00308205094650458	0.634006061616691	0.756528354505875	0.633846476426134	0.756700512307518	-0.00616512461476497	-0.00285471625180942
7.6	0.00259279065745733	0.00186857344795809	0.743333433528745	0.648988520603726	0.743118489378088	0.649149704591775	-0.00595329959111885	-0.00129932385358068
7.7	0.00141319541735526	0.00117522495496065	0.834838837710919	0.525777453102791	0.834688241634174	0.525972517987166	-0.00571305175958941	6.52373741967254E-05
7.8	0.000524232503063314	0.00125071051565121	0.90626862526149	0.389661048798317	0.906148239944317	0.389882698953795	-0.00499203986579936	0.00124822181285539
7.9	-0.00037620742828531	0.00184747334461182	0.955384370255941	0.244189203651845	0.955344387505972	0.244414487977561	-0.00429749679055763	0.00219228345479445
8	-0.000280192678596691	0.00325760743712163	0.98127869444853	0.093238799181307	0.981349551453778	0.0935303391694473	-0.00414591672616248	0.00340185467829596
8.1	0.000536333451786667	0.00381447828903948	0.98397630485156	-0.0600665434133545	0.984100716055468	-0.0597958138569867	-0.00286132671337305	0.00480796309696844
8.2	0.00105237224804862	0.0038737246254188	0.962520268817194	-0.212078884898348	0.96258654427973	-0.211783409134074	-0.00155065071048249	0.00543609341435661
8.3	0.00111448264607944	0.00405954927730689	0.917639575934631	-0.358773886416456	0.917777361881324	-0.358518495698463	-0.000110158570536605	0.005608835302408
8.4	0.00125294288327647	0.00428451731193549	0.850692680418538	-0.496517275259145	0.850904326557435	-0.49631807862048	0.00127536976797553	0.00506037947955773
8.5	0.00117588828140092	0.00518655633752471	0.763664033547636	-0.622412738778854	0.763779789872977	-0.622287155032613	0.00180661634677021	0.00433262717994472
8.6	0.00251725319258523	0.00575347913171126	0.657428196356589	-0.733453648917224	0.657625489735025	-0.733268820520579	0.00275322066086349	0.00411658309854834
8.7	0.00342868837622347	0.00558735550366097	0.535434019794397	-0.826199806503558	0.535715365509328	-0.826091087393546	0.00382664109386282	0.00341208738425511
8.8	0.00443665833826502	0.00512593967468063	0.400886979872819	-0.89902124554646	0.401092649627692	-0.898967147155421	0.00458635574136268	0.00231687119441479
8.9	0.00516700288593094	0.00441027277210863	0.256674701010996	-0.950343493543147	0.256916100642383	-0.950203593861718	0.00524757443627182	0.00104918780367615
9	0.00609639587115734	0.0035483855232712	0.105762292387089	-0.978581340926751	0.106123715345121	-0.978551996945544	0.00551455193368072	-0.000231968938205354
9.1	0.00719637022459311	0.00247533883879711	-0.0471961393926388	-0.982677748642095	-0.0468445101682054	-0.982692626728741	0.00590037241740112	-0.00125570713081582
9.2	0.0084550930369299	0.000923053675205303	-0.199013619130431	-0.963279316938295	-0.198658683817961	-0.963350119976889	0.0064634777436912	-0.00228467792481411
9.3	0.00948700722218637	-0.00101449291488883	-0.346041437370281	-0.920680054441211	-0.34568519648679	-0.920744535821484	0.00702004970074492	-0.00341442077784532
9.4	0.00998804431719114	-0.00366380187224912	-0.484680810710687	-0.855677200039204	-0.484358416518848	-0.855824980741004	0.00702942232073417	-0.00490267363469846
9.5	0.00971289042749108	-0.00596741496260913	-0.611190953717312	-0.769576829316313	-0.61098548021288	-0.769713937145664	0.00636718882321542	-0.00533804759686817
9.6	0.008550235683014	-0.00918910896167676	-0.722739502504442	-0.665520368831704	-0.722467609204093	-0.665704728485946	0.00607469206072793	-0.00598539180712396
9.7	0.00584471740425899	-0.0111053564239951	-0.817024555006633	-0.545422589285261	-0.816779032209292	-0.545691108113784	0.00544069730946668	-0.0066487485063532
9.8	0.00288270998942217	-0.0121266318682563	-0.891574496777077	-0.412024115371317	-0.8913661046527	-0.412298206155776	0.00467114748098085	-0.00713927169443678
9.9	-0.000424901401275714	-0.0118714420091809	-0.944275939486354	-0.268702204011864	-0.944163877823479	-0.269030377900236	0.00377856815365428	-0.00764158489521381
10	-0.0029591787299897	-0.0104653106170828	-0.974264537264733	-0.119536685993304	-0.974184381906131	-0.119913901597354	0.00235071365418187	-0.0072287634350539
10.1	-0.00479100379606291	-0.00950891735340981	-0.981160316990469	0.0329153033375588	-0.98114021264862	0.0324388650507964	0.00208587854756788	-0.00659370592781974
10.2	-0.00709628233037082	-0.00838000167370547	-0.964147696447423	0.18465474193861	-0.964132439478104	0.184206301771685	0.00194789415597132	-0.00654414681613385
10.3	-0.00950660753906318	-0.00625642103389556	-0.923754151277759	0.331825704479526	-0.923888505397557	0.331286989809125	0.00157160177243459	-0.00700224986896585
10.4	-0.0113793165224333	-0.00368265177725693	-0.861178632442782	0.47072673043266	-0.861442167022019	0.470192476924899	0.000931908671871897	-0.00788432562652727
10.5	-0.012507251721393	0.000199882300490076	-0.778273981063611	0.598709120122005	-0.778555303548242	0.598322989066732	-0.00018253161897184	-0.00858222818089398
10.6	-0.0114816862044408	0.00345121068348307	-0.675681650527179	0.71235798529302	-0.676106272417379	0.712014757466	-0.000839105764291673	-0.00887846842818971
10.7	-0.0098982296242661	0.00592606896257445	-0.556979444396245	0.808377977283379	-0.557389409177411	0.808090314668871	-0.00116190790936275	-0.00936698439179157
10.8	-0.00801152264360774	0.00742671435638345	-0.424892176270759	0.884795335574033	-0.425400747225363	0.884566467856821	-0.00180663152441905	-0.0102004745133104
10.9	-0.00630561468629521	0.00892904859879735	-0.282746412256179	0.940104315773511	-0.283232810505263	0.940052907745749	-0.00310220026858887	-0.0108420623344126
11	-0.00389257358370543	0.00987968328475738	-0.133093817623542	0.972700005852038	-0.1336386467834	0.972695514970184	-0.00427823163266972	-0.0110324607621712
11.1	-0.00135394647450358	0.0103729799671294	0.0193942787118865	0.981113845452763	0.0187669680026949	0.981196212995884	-0.00525070812066273	-0.0111723489863825
11.2	0.00131918187751093	0.0100792286056872	0.171042789860631	0.966247354780841	0.170525031656714	0.966449427649029	-0.00607746632378883	-0.0112747832071401
11.3	0.00388799262106691	0.00939317205879163	0.318670716606481	0.928184890275809	0.318242184165255	0.928446349225736	-0.00673958506571933	-0.0112564654881785
11.4	0.00614406858126344	0.00806469117813812	0.459028507783026	0.867584692320433	0.458565352886563	0.867843643090779	-0.00765750453513683	-0.0110863228965889
11.5	0.00865362362599015	0.00678727715175576	0.587755649220117	0.785404444340171	0.587398502073444	0.785821077637466	-0.00867225706714292	-0.0102007545054323
11.6	0.0104545042080117	0.00370290760285836	0.702056733298809	0.685119900873114	0.701790308725458	0.685598858911623	-0.00925039404728269	-0.00955089801192417
11.7	0.0109472828413923	0.00114953695514706	0.800008193675102	0.568167081523823	0.799769383275386	0.568587921295649	-0.0100157280955731	-0.00897790738137505
11.8	0.0106430044560556	-0.00129195115107298	0.878582389434067	0.437015071300202	0.878398305781909	0.437566019158462	-0.0110134961871667	-0.00839734178663518
11.9	0.00979265677035286	-0.00263358324219588	0.935514085152844	0.295409940143682	0.935475643165796	0.295952832420262	-0.0124614869846786	-0.00736276888530183
12	0.00946999828931883	-0.00327253298263928	0.969894068284958	0.147433315352352	0.969881362654351	0.14791192363171	-0.0137911451953468	-0.00550638669882769
12.1	0.00997531216988905	-0.00498028816749294	0.981436090346593	-0.00478322932705432	0.981410936688052	-0.00431095553345506	-0.013771093484341	-0.00344425863322307
12.2	0.00905839731229266	-0.00743669344214063	0.968830066068523	-0.157101012579422	0.968936135661198	-0.156664206444289	-0.013584840480272	-0.00196673838717742
12.3	0.00731586807975608	-0.00934525079443994	0.932675213990596	-0.305294289529042	0.932860227951821	-0.304936330230734	-0.0132753323908759	-0.000788623982734543
12.4	0.00456409016868384	-0.0108347315665122	0.874487036330367	-0.446031665881813	0.87461911282363	-0.445656878639768	-0.0130581410359672	2.91616409868095E-05
12.5	0.00177416678970549	-0.0106756412050371	0.795203077554721	-0.576707131274687	0.795660743223069	-0.576313857605526	-0.0133815738716662	0.00104924474063811
