# GHZ S RI R 50
0.2	-0.00018556326347396	0.00010699629935335	0.948748420824832	-0.307980079157951	0.948522218559718	-0.308121904017766	-1.5501528898109E-05	0.000253634943133088
0.3	-0.00025082000473937	0.000354245959434282	0.888707981224054	-0.451609775743671	0.88857059049772	-0.451662938406661	-4.74192586372731E-05	9.83671432835303E-05
0.4	1.52910236242186E-06	0.000421656261936229	0.807119491320106	-0.583770740362874	0.807159546045106	-0.583910290967041	0.000176404340860496	6.8468609342403E-06
0.5	-0.000180074631443481	0.000462998730242835	0.706411871026453	-0.701850169952263	0.70630132453547	-0.701945955121181	0.000213479806197908	-0.000240747665645765
0.6	-0.000170156196380868	0.000670264743868075	0.588534922035973	-0.802866993074399	0.588345478461648	-0.802869863316638	0.000136191368305703	-0.000338278575104423
0.7	-0.00012509382651839	0.0010150634030052	0.456459494497769	-0.884082317090068	0.45638551386926	-0.884116656683743	0.000181989444310398	-0.000571813454027529
0.8	0.000120658107754087	0.0010298362783112	0.313530835619973	-0.94397343894011	0.313412415727777	-0.943886776594691	6.26627800504722E-05	-0.000775259837176636
0.9	0.000269625394703358	0.00127642420725173	0.163164849895378	-0.980873330475137	0.163016000780234	-0.980830512091539	-0.00013200919171344	-0.00104124840213673
1	0.000300516657170959	0.000995542142944354	0.00880439923195383	-0.994052866312847	0.00868644464657043	-0.994023211040702	-0.000554549541982345	-0.00157745518479886
1.1	8.2018638637355E-05	0.00137976734165787	-0.145004478852866	-0.98307370439719	-0.1456512250508	-0.983038552615833	-0.00161208890706069	-0.00132597367977346
1.2	0.000409606896252077	0.00107921013362594	-0.296492112494864	-0.948256056979816	-0.296485153509271	-0.948311663598668	-0.00186845124564784	-0.000640199027904951
1.3	0.000947365039704431	0.000258415143967345	-0.439897020279369	-0.890494807096021	-0.439988993577552	-0.890519240775661	-0.000962001727259687	0.000580659579235264
1.4	0.00150638896972882	-0.00149141491401755	-0.572542484361376	-0.811337412472489	-0.572616183374317	-0.81123798313807	0.000764488656541026	0.000611212692013036
1.5	0.00161226421903111	-0.00249223981790299	-0.691524154282752	-0.712234657741047	-0.691548716301912	-0.712162720596509	0.00205897804439709	-0.000199079166221529
1.6	0.0017623838059367	-0.00336409511219942	-0.792974225780548	-0.5965677066414	-0.793403080466439	-0.596068081268224	0.00225626660545703	-0.00134693474342281
1.7	0.00148881761314533	-0.0038503486122767	-0.875692736875359	-0.466190243065805	-0.875996699050182	-0.465701257183607	0.00172640916246732	-0.00227096200846633
1.8	0.000930656174884572	-0.00419486643046014	-0.937415285601674	-0.324169123301507	-0.937430712138225	-0.324159679590458	0.000776296424105828	-0.00306396917298557
1.9	0.00033752885736436	-0.00428285863521421	-0.976230599244251	-0.174595998938335	-0.976275016012378	-0.174648665660624	-0.000305305647561402	-0.00360847653533526
2	-0.000582342295633592	-0.00402020350895377	-0.990990566339373	-0.0216777130100329	-0.991085435691915	-0.0210295214566862	-0.00192382093335733	-0.00334503932991215
2.1	-0.00070083769908615	-0.00368506291617359	-0.982213638718505	0.133397891637354	-0.982312724675292	0.132914514941258	-0.0023828820022251	-0.00259001835882995
2.2	-0.00142194164095354	-0.00385623043129116	-0.949707888835379	0.283442387499109	-0.949746679517294	0.283575880778797	-0.00284809233601838	-0.00235266370644388
2.3	-0.00223697289843843	-0.00363574878551066	-0.894140423207573	0.427240439458215	-0.893976945250925	0.427328852026393	-0.00341802223537875	-0.00211478660931945
2.4	-0.00329569027215195	-0.00329364456520249	-0.816399369228637	0.561177337110345	-0.816689814405587	0.560716027226432	-0.00401823483797874	-0.00198074923295946
2.5	-0.00434000376298794	-0.00217363567910047	-0.719838098596102	0.680827607037298	-0.720139463635693	0.680447274361983	-0.00480243738786378	-0.00174853880094949
2.6	-0.00446404183918268	-0.00080357187777493	-0.605829105195654	0.784051376581264	-0.605749930730815	0.783992159235524	-0.004886222061399	-0.000817271557157268
2.7	-0.00396493891903014	8.78526483822791E-05	-0.476698576732644	0.868348873808681	-0.476669162658144	0.86836297479809	-0.00467617765906082	-0.00031523929133247
2.8	-0.0034139623550984	0.000478242323026892	-0.336434805443844	0.931643601133857	-0.336316904589887	0.93172811052347	-0.00427794196044216	0.000126797633134356
2.9	-0.00238719673369804	0.000687997477629921	-0.187944568189818	0.97251847716396	-0.187940197761323	0.972573192828616	-0.0036609834653701	0.000760478859168696
3	-0.00139036787194407	0.000626989449119885	-0.0344214103200913	0.990056795394312	-0.0344857389818068	0.990128065531792	-0.00252547111411993	0.00142255113100107
3.1	-0.000214124405835762	0.000197969313933089	0.118844598032399	0.98320895089186	0.119491682809038	0.983290906156337	-0.00117219204356361	0.00164481241168673
3.2	0.000377090662316745	-0.000498237864485219	0.270437567726775	0.952686815880781	0.270427566506447	0.952726341141346	-0.00023784917067369	0.00137865654967143
3.3	0.00111914899623949	-0.00125624482700552	0.415657019976102	0.898979151287431	0.415034678935184	0.899259380338398	0.000839431882964957	0.000915408175226731
3.4	0.00130109610404385	-0.00212518534956528	0.549719598068041	0.823937401253623	0.549634574200628	0.824052455833479	0.00169943548572858	2.63762981161433E-05
3.5	0.00175670754089114	-0.00272801643462648	0.67077050061039	0.728490866249082	0.670784677353638	0.728517056014038	0.0022188459672406	-0.000835419644163296
3.6	0.0017747615489203	-0.0038501749184495	0.775023464856988	0.616124395372492	0.775445762286058	0.615731482301062	0.00255512099350909	-0.00200463292662262
3.7	0.00147464590116301	-0.00486876993910644	0.861689338029657	0.48790540454434	0.861696114128715	0.488031836416004	0.00241882102661926	-0.00312183291902934
3.8	0.000702250372654623	-0.00566961946018788	0.926930412157499	0.348211196657309	0.92695846310524	0.348394399815162	0.00179821732377941	-0.00429328699219188
3.9	0.00011152317976898	-0.00627185857732695	0.969785778720859	0.199540683179294	0.969686473947287	0.200128008258822	0.000474385907476689	-0.00554437642265674
4	-0.000802691934277864	-0.00627124124485962	0.988855008894418	0.0476277728864586	0.988936858614515	0.0476708971077448	-0.00119793910115399	-0.00595228244102573
4.1	-0.000972102583846988	-0.00672982387596966	0.984704904303009	-0.106371149145594	0.984642678663869	-0.106307270461185	-0.00244256702792094	-0.00615735200855693
4.2	-0.00208017666857992	-0.00734110607773116	0.955982599622369	-0.258647166302151	0.956175005413327	-0.258077634995335	-0.00392896362315323	-0.00629813691028072
4.3	-0.00320045060589186	-0.00794412439747852	0.904526094596578	-0.403336282284938	0.904526933024532	-0.403317754657259	-0.00554865470298524	-0.00637724477252559
4.4	-0.00492706267927588	-0.00821891958431508	0.831068582344884	-0.538653193415036	0.830988653457313	-0.538637417871344	-0.00751164292847882	-0.00615641919386044
4.5	-0.00671515785984835	-0.00786687148785192	0.737815763521576	-0.661394756577552	0.737691942006651	-0.661248903116022	-0.0098186314965609	-0.00528731053896055
4.6	-0.00802462532923634	-0.0069380643591992	0.625982700864498	-0.768206394022764	0.625967764108815	-0.767976881425806	-0.0115078317814791	-0.0035938129689805
4.7	-0.00912415145946235	-0.0065350713372878	0.498948670690487	-0.856110083806585	0.499065430649648	-0.855865109051586	-0.0129676164181689	-0.00203845782749
4.8	-0.0103725068733758	-0.00565578982965399	0.359773651807664	-0.923086284243075	0.360067266313862	-0.922897204791175	-0.0139305953531306	-5.33767579120636E-05
4.9	-0.0111209468150256	-0.00491399289204245	0.21214095102568	-0.967544227285429	0.212400899089764	-0.967492789950716	-0.0141659504488141	0.00227825400408071
5	-0.0116896047375283	-0.00392451260834875	0.0594335524125001	-0.988762112304133	0.0595918314302858	-0.988633908822282	-0.0134768682639121	0.00490222827046361
5.1	-0.011801252826148	-0.00341547924707873	-0.0945954989462158	-0.985828431489131	-0.0942741329306086	-0.985765276360829	-0.0118274880086311	0.00718854236198532
5.2	-0.0122584360268133	-0.00250799519077603	-0.2465071293905	-0.959326055230924	-0.246079075586729	-0.959447755787514	-0.0100154835108966	0.00925565529851237
5.3	-0.0125852425381482	-0.00157823361137248	-0.392515199783523	-0.9095975466411	-0.392225475207509	-0.909942245808317	-0.00766679469393716	0.0110174588408995
5.4	-0.0127314629905506	5.79196683412044E-05	-0.529309888328114	-0.837672305200844	-0.529173487848279	-0.837962190403925	-0.00523996125986889	0.0122983663153515
5.5	-0.012044855734519	0.00172792753617654	-0.652845753591187	-0.744901829710797	-0.652795601697849	-0.745216061415154	-0.00251071614539546	0.0133948199960297
5.6	-0.0113642977500716	0.0025322356105495	-0.760292071886997	-0.634727502334625	-0.760305424752746	-0.634898121254266	0.000490384545106617	0.0133060608084588
5.7	-0.0114668412529748	0.00345513398207841	-0.849856669287675	-0.509009729705283	-0.849832750870078	-0.509185120951559	0.00291268316400523	0.0129802338238691
5.8	-0.0114505181851826	0.005092721748571	-0.918550123705603	-0.370650789605698	-0.918594913633804	-0.370943491411322	0.00521795370559908	0.0123162121807555
5.9	-0.0113146099043406	0.00676142072139398	-0.96486829764612	-0.223490485999001	-0.964988897514171	-0.22353853655461	0.00695619071236487	0.0112244619127264
6	-0.0102501640468309	0.00949203506467351	-0.987803436646365	-0.0712694300737418	-0.987800332846598	-0.0713382406137648	0.0082432222772104	0.0108005884300947
6.1	-0.00792807272656752	0.0105700474673089	-0.987153030940613	0.0830805302517293	-0.987156199960349	0.0829769646512181	0.0105670392581752	0.00957424854094253
6.2	-0.00638707218511408	0.0109926201144644	-0.96210225993717	0.235664391194929	-0.96215044691454	0.235482282375897	0.0122072834428841	0.00724811209565257
6.3	-0.00538380797934267	0.0109904847550072	-0.913663699614735	0.382219001935136	-0.913688108995433	0.38209005895733	0.0130868570046345	0.00428269057831461
6.4	-0.00470336606058759	0.0110469907589751	-0.843136621304747	0.519290460830815	-0.843127895711978	0.519076457501667	0.0128762622200729	0.00096444218026942
6.5	-0.00408633991931583	0.0111827126322751	-0.752489454383131	0.644107048777588	-0.752590240582197	0.643934314186074	0.0119129217933937	-0.00199881589289407
6.6	-0.00309535080259015	0.0114066398474596	-0.642890460842722	0.75326941522922	-0.643039380218057	0.753123195889924	0.0105552097234327	-0.00450258157868809
6.7	-0.00194589250154653	0.0114654536673228	-0.517940332980385	0.843750598094553	-0.518061878880317	0.843593158802824	0.00860735318658522	-0.00651742457632971
6.8	-0.00044686436491951	0.0113281995266865	-0.380568901982418	0.913788153738739	-0.380780509455333	0.913713113639021	0.00630419447228631	-0.00789679974799826
6.9	0.000923100816446488	0.0105865722432457	-0.234076428852614	0.961864766630322	-0.23432770140704	0.961861185294741	0.00399421978304729	-0.00858485164417373
7	0.00241340593359411	0.00960948945127222	-0.0813509357765288	0.986569732200697	-0.0816098455831062	0.986539978911561	0.00186688310521088	-0.0089253000222363
7.1	0.00313942280364073	0.00817136982277472	0.0727508439953337	0.98670312537232	0.0725438115178846	0.986691346776002	-0.000387600792144488	-0.00881950231812369
7.2	0.00368508239970868	0.00696390233537961	0.224997842741759	0.963313151823166	0.224742192615665	0.96335769531395	-0.00229088297531505	-0.00793237501456885
7.3	0.00371294326807169	0.00556498483754545	0.371881631434415	0.916569021912106	0.371641219422828	0.916660342904265	-0.00389552152764452	-0.006686064476834
7.4	0.00352992579276339	0.00440848052392189	0.509828018674316	0.847335941117008	0.509609810930565	0.84749855736406	-0.00529841839821985	-0.00515799347003594
7.5	0.00316616484222777	0.00329992756543466	0.63475578057571	0.757274792694357	0.63459604163398	0.757447149653725	-0.00601058310422662	-0.00311992676212003
7.6	0.00270246877424309	0.00201291240785962	0.744330052932546	0.64977049764769	0.744114844071297	0.649931902735871	-0.00589710187448284	-0.00171161369543822
7.7	0.00140348395112414	0.00133922855222251	0.836097936401485	0.526266883136507	0.835947188669845	0.526462249439436	-0.00592092070903028	-0.000317472571039283
7.8	0.000384942240725737	0.00148939476514286	0.907612170232044	0.389796700963732	0.907491718989362	0.390018690041396	-0.005429547943621	0.00104227780435213
7.9	-0.000706424300086429	0.00227651673143794	0.95664221973672	0.244023804535784	0.956602297005892	0.244249377049294	-0.00491920605697307	0.00240095292290165
8	-0.000422267806484953	0.00420855528630804	0.982610565761453	0.0929887755677704	0.98268162725846	0.093280673772756	-0.00440085126523881	0.00428408332866365
8.1	0.000785427191893785	0.00468508662959296	0.985330069648596	-0.0608546350452733	0.985454850819379	-0.0605836100764836	-0.00245970380816307	0.00551359729190768
8.2	0.0014683370405135	0.00464312634605645	0.963543393864189	-0.213206017454904	0.963610016811123	-0.212910228657086	-0.000920364139574416	0.00588449819777909
8.3	0.00167367231622703	0.00467209141491996	0.918326333484869	-0.36004795902459	0.918464516510226	-0.359792413231142	0.000646739521064471	0.00577081261293156
8.4	0.00178224235942918	0.00465004054133098	0.851160126602527	-0.497828510282656	0.851372182877736	-0.497629291032785	0.00191408311807058	0.00491387751594245
8.5	0.0015846563701063	0.00565861425549469	0.763894068104815	-0.624040395191874	0.764010108509609	-0.623914788802133	0.00232854777650322	0.00435816575775354
8.6	0.00309467665343477	0.00605242455342162	0.657068853879296	-0.734996799738904	0.657266572872598	-0.734812060631056	0.0035435358578491	0.0038478702525147
8.7	0.00387191156271207	0.00575327166231952	0.534810389683436	-0.827538302038592	0.535092097638946	-0.827429853918198	0.00440982828334207	0.00283356090183458
8.8	0.00478823147947265	0.00530292328060551	0.400048417184151	-0.9002242436011	0.400254314164553	-0.900170365981689	0.0048896741418589	0.00164141560888357
8.9	0.00547325942178831	0.00459759811428294	0.255559886180428	-0.95146551045826	0.255801674690948	-0.951325833813544	0.00525933313977309	0.000403159749358028
9	0.00639387555932997	0.00380961959888575	0.104177529574959	-0.979281461369478	0.104539194812725	-0.979252707885172	0.00535304948223168	-0.000628272909019352
9.1	0.00746166795814337	0.00268002916360433	-0.0486526945830074	-0.982905390130183	-0.0483009809520748	-0.982920788805594	0.00565282150251958	-0.00153596081423885
9.2	0.00860683757544134	0.00122765591719447	-0.200455247681852	-0.963306217727012	-0.200100298844999	-0.963377551139887	0.00612533050379038	-0.00226736810859572
9.3	0.00968371469660275	-0.000565449744140013	-0.347532801946214	-0.920441666647189	-0.347176548863556	-0.920506703805303	0.00686291369802839	-0.00309299310724565
9.4	0.0102487070623936	-0.00316117554958027	-0.4861953012676	-0.855014103290591	-0.485873098667294	-0.85516244860607	0.0071515413914147	-0.00444261793070173
9.5	0.0102545131543703	-0.00548464318020667	-0.612257733892736	-0.768524761132319	-0.612052501771101	-0.768662158026964	0.007084025437628	-0.00500110617459899
9.6	0.0088861760282466	-0.00907286229087633	-0.723676376949542	-0.664493764858986	-0.723404746142258	-0.664678507934453	0.00660941155274886	-0.00632284780319874
9.7	0.00593747147644738	-0.0108953540604372	-0.817832167248641	-0.54412588911014	-0.817587073822691	-0.544394776354691	0.00559131876176025	-0.00701824705659756
9.8	0.00288906735119475	-0.0118108609175078	-0.892062827407051	-0.410475539961513	-0.891854928460154	-0.41074991491161	0.00459430472887792	-0.00740122768464719
9.9	-0.00056776209860521	-0.0114061215921218	-0.944271279715787	-0.267075300144735	-0.944159792004586	-0.267403502230098	0.00345824134286814	-0.00761543357590522
10	-0.00285866180139937	-0.0095888302205183	-0.974061508583705	-0.118167228493709	-0.973981896180844	-0.118544411549599	0.00243984384943945	-0.00664597174565147
10.1	-0.00447147747599023	-0.00889776619942156	-0.980713151951803	0.0345002277357241	-0.980693831692851	0.0340239477998807	0.00250472593181241	-0.00643782141251937
10.2	-0.00683320757843741	-0.0078071545922584	-0.963193596631828	0.186117863423746	-0.963179088370584	0.185669700457365	0.00221338235428864	-0.00652271377941948
10.3	-0.00922446492800794	-0.00567464322550591	-0.922443318911071	0.332943583352384	-0.92257837654211	0.332405542992522	0.00172353471193768	-0.0069453314209015
10.4	-0.011110658074872	-0.00310271598591181	-0.859780076264234	0.471424987096661	-0.86004406996297	0.470891563945738	0.000973482713749328	-0.00767484496515073
10.5	-0.0120583456703606	0.000882563280216785	-0.776818513630675	0.599398245885599	-0.777100189770227	0.599012814034548	0.000120109855759196	-0.00793445853700037
10.6	-0.010811883596927	0.00397897711255268	-0.673846676238742	0.71258946396669	-0.674271345707304	0.712247263567996	-5.23827156844367E-05	-0.00838245057836061
10.7	-0.00922419794514575	0.00626754832752711	-0.555195218732488	0.808102070418641	-0.555605050520349	0.807815319231974	-0.000239357925108273	-0.00923437738566644
10.8	-0.00749757539435524	0.00754976954894497	-0.423275503700433	0.884160685994741	-0.423783691356929	0.883932727627096	-0.00097548972071248	-0.0104169331644451
10.9	-0.00603358276003135	0.00902775408402581	-0.281259030602444	0.939276198358422	-0.281744885782731	0.939225441835439	-0.00249479225944343	-0.0111930683445325
11	-0.00372713847787962	0.0100671473795443	-0.131536077411152	0.971350967467884	-0.132080053863095	0.971347238661921	-0.00377112665475715	-0.0114147359137795
11.1	-0.00133108426681377	0.0106383047316899	0.0203365738353123	0.979343941611389	0.0197104644440084	0.979426786802446	-0.00495039264677598	-0.0116094706727793
11.2	0.0012958640589444	0.0105053798802613	0.171561235154225	0.964431231876117	0.171044543177137	0.964633391482516	-0.00593099637291698	-0.0116227805089944
11.3	0.00387109784930568	0.00993601133013126	0.318866816604471	0.926310799853643	0.318439241915926	0.926572150253497	-0.00669710325201236	-0.0114999236963229
11.4	0.00612782454020148	0.00877652464500022	0.458896755173585	0.86554291282465	0.458434702140713	0.865801766827583	-0.00768124183517105	-0.0110912420372031
11.5	0.00900362847515578	0.00762873259463258	0.58681536786833	0.783373453386276	0.586459214934961	0.783789325747457	-0.00823135904859979	-0.0100814877792539
11.6	0.0108289970293147	0.00426320815264033	0.700831281117465	0.683602266532268	0.700565495056038	0.684080341363923	-0.00887863019475633	-0.00987773595252051
11.7	0.0112837560266373	0.00166237183206173	0.798567895974867	0.566845083852355	0.798329662252422	0.567265151036739	-0.00988121704796302	-0.00934453238142597
11.8	0.0109565326830511	-0.000907569812608443	0.876812036299083	0.435938546947104	0.876628438438323	0.436488368562102	-0.0110687506783164	-0.00874930249833799
11.9	0.00994203376194571	-0.00235760020817798	0.933302665746249	0.294803919374291	0.933264264838351	0.295345540282246	-0.0127868286146598	-0.00753042861960455
12	0.00952692840236226	-0.00271559588703133	0.96783802083481	0.147645439110039	0.967825088073843	0.148123064562905	-0.013897638199714	-0.00508723411706162
12.1	0.00987637879734256	-0.00464665369135192	0.979567581238624	-0.00439290670985438	0.979542292081028	-0.00392154271802618	-0.0137378230484931	-0.00334830876113534
12.2	0.00869111763333084	-0.00678994423856971	0.966978802393415	-0.156308417696283	0.967084444472603	-0.155872428768571	-0.0137039982892725	-0.00168837626787233
12.3	0.00708496548031534	-0.00833276158318221	0.931034408589076	-0.304036048276078	0.931218804779403	-0.303678671336322	-0.0132136714427313	-0.000270844698868248
12.4	0.00455802514589986	-0.00973070562149633	0.873330168376306	-0.444384996457035	0.873461646195597	-0.444010761677383	-0.0128095519013849	0.000567024560689725
12.5	0.00201313046979244	-0.00933354237827584	0.79444543349524	-0.57526959392991	0.794902132384982	-0.574876568747984	-0.012818616445987	0.00184590143757676
12.6	0.000468045208607543	-0.00948520752469052	0.695141434491375	-0.691633806582623	0.695486815223243	-0.69132413057594	-0.0119423366223609	0.00277823462590358
