# GHZ S RI R 50
0.2	-0.000201821402375903	-0.000262847030140328	0.949926196910967	-0.307608167256351	0.949699868647706	-0.307750297750489	-4.26638429952579E-05	-0.000103414717047222
0.3	-0.000493727324063506	-2.76383943760589E-05	0.890277119154647	-0.451402355208816	0.89013959635239	-0.451455710920525	-0.00030379555866846	-0.00025662476591608
0.4	-0.000516801299719191	0.000201891137449282	0.809083262850094	-0.583999502702312	0.809123522210707	-0.584139256185543	-0.000350934318222059	-0.000172213463216084
0.5	-0.000497788024581891	0.000735428407587437	0.708278877538893	-0.702867633650791	0.708168161547348	-0.702963681152686	-0.000109555380222365	7.41171732551124E-05
0.6	-0.000195019404581377	0.000583571352209849	0.590153916872137	-0.804048790722796	0.589964111496516	-0.804051782000656	9.3409623067446E-05	-0.000369743490394505
0.7	-0.000340778386926963	0.000798643640044412	0.458053349526824	-0.885694595094479	0.4579792313435	-0.885729059675693	-4.93535184790439E-05	-0.000706378080178468
0.8	-0.000254402550059357	0.000769811299344462	0.314826275432968	-0.946125101563265	0.314707515781376	-0.946038291351516	-0.000310036968498653	-0.000926359748253641
0.9	-0.000547268159082986	0.00104953888842729	0.163814210432671	-0.983437022877624	0.163664957307084	-0.983394123916884	-0.000902298022563796	-0.00114135217923439
1	-0.000603417574556712	0.00192610687612357	0.00888276555966797	-0.996361254612176	0.00876453524292149	-0.996331537324464	-0.0013485836292274	-0.00056459947325362
1.1	0.000410711403894028	0.00205854371745349	-0.14502937485707	-0.985684078345935	-0.145677816795113	-0.985649066947794	-0.00119547976818667	-0.000652144510238915
1.2	0.000888725901670141	0.00109055744967502	-0.297238923303776	-0.951057688939157	-0.297231937138425	-0.951113456806095	-0.00135300404111092	-0.000684832177878733
1.3	0.00138022620885846	-0.000443263962214314	-0.441365272997823	-0.893099295303313	-0.441457526754281	-0.893123787324078	-0.000582162938219864	-0.00017548359054735
1.4	0.00148231714523812	-0.00254392003104627	-0.574467597090223	-0.813469768061987	-0.574541473389234	-0.813370027634617	0.000612208706479977	-0.000426428069378421
1.5	0.0019050297870754	-0.00390427074973104	-0.693592078715101	-0.714392530072211	-0.693616716090064	-0.714320376815868	0.0021754569692325	-0.00151075712609252
1.6	0.000810325872429548	-0.00514582742559784	-0.796094365584539	-0.598407545303698	-0.796524571638528	-0.597905932370744	0.00115914683238181	-0.00284792891053999
1.7	0.000103276955867615	-0.00476414447899185	-0.87926353746456	-0.46710314241937	-0.87956816692015	-0.466612124225898	0.000315377796674999	-0.00285566242127095
1.8	-0.000486381502581397	-0.00444543707090429	-0.941078680431154	-0.324274221228284	-0.941094150887469	-0.324264727144369	-0.000569524701591107	-0.00300580637619893
1.9	-0.000826806152499167	-0.00358306625152506	-0.979908529758401	-0.174151677727988	-0.97995316279679	-0.174204483970062	-0.00133141651056588	-0.00267563897689745
2	2.61456583000427E-05	-0.00330328141452104	-0.99522102139835	-0.0203386568422236	-0.995315356808495	-0.0196875816768714	-0.00122973119540004	-0.00248847413255917
2.1	-0.000562456546951692	-0.00434279107060754	-0.985796953096409	0.136198688375558	-0.985897549882419	0.135713625590887	-0.00221554093346607	-0.00305061151736993
2.2	-0.00185340380583825	-0.00433187684483926	-0.952499049802884	0.286867920705313	-0.952537648891063	0.287002003414527	-0.00319632840815952	-0.00259206391432986
2.3	-0.00288751399691713	-0.00383942420672054	-0.896267071650461	0.431199433929941	-0.896102758661955	0.43128773193803	-0.00391132654970885	-0.0021087901024051
2.4	-0.00410395207477703	-0.00287901054939857	-0.817847243609833	0.565814012451953	-0.818140206008529	0.565351803701832	-0.00461011934790589	-0.00145539144570747
2.5	-0.00380696351280015	-0.00111981414137838	-0.719674193377828	0.686196815748175	-0.719978185016991	0.685816333302723	-0.00411310935191379	-0.000768781136762482
2.6	-0.00353736831671466	-0.00121913553634143	-0.604362035626455	0.788702657448563	-0.604282878084713	0.788642953754396	-0.00399006794025974	-0.00132688778427432
2.7	-0.00368244639002185	-0.000824469646378293	-0.474459519069944	0.872658087858559	-0.47442996735688	0.872672107439924	-0.00453376445710669	-0.00123451701968694
2.8	-0.00364821201714344	-0.00040593612254263	-0.333232383306876	0.935574228063125	-0.333113800986835	0.935658442650171	-0.00468401366809461	-0.000658931848394528
2.9	-0.00278878274681792	3.96200951266452E-05	-0.183558303282827	0.975702635331876	-0.183553651458432	0.975757456053398	-0.00422484060047416	0.000301449607033404
3	-0.00181543054706463	-0.000193582143630826	-0.0294993007571206	0.991478768849031	-0.029563353147002	0.99155045155983	-0.00309848908573442	0.000869054666083965
3.1	-0.00115604529334457	-0.00039010034411428	0.123488755548994	0.983979107078601	0.124137077914227	0.984058219649645	-0.00219637908096964	0.001364291405713
3.2	-0.000515699383529507	-0.000688509074747159	0.275423286963605	0.95258438169533	0.27541346552761	0.952624006082046	-0.00112198204537437	0.00153007546051784
3.3	0.000341900435248316	-0.00116748318524227	0.420660112433415	0.897633193701482	0.420038664396062	0.897916879603255	0.000120307426461669	0.00131623026985017
3.4	0.000927634767568827	-0.00170833326528035	0.554102843620307	0.82126169189453	0.554018398032522	0.82137721097459	0.00139009608997566	0.000698038513670254
3.5	0.00203041989418345	-0.00300227826934032	0.674080193308014	0.725581291583815	0.674094488019073	0.72560742096017	0.00247948348819084	-0.000860670265841262
3.6	0.00123560724297513	-0.00440170099476628	0.778410132951409	0.612583154797711	0.778830684753984	0.612187982954895	0.00201347443135331	-0.00221657599166538
3.7	0.00075757027855942	-0.00501498654669593	0.864229532346937	0.483367951662273	0.864236972208276	0.483494344727706	0.00177369592072507	-0.00291226634856491
3.8	-4.67162503526098E-06	-0.00547640065441179	0.928284998615506	0.343195182553181	0.928313992437075	0.343378147442673	0.00122449437118216	-0.00378525323751067
3.9	-0.000310119106793297	-0.00547855192741754	0.970062391541536	0.194651038373659	0.969966032507211	0.195238425562116	0.000211364962388684	-0.00453352017690569
4	0.000154628794429385	-0.00574830335460506	0.988894860637816	0.042482813742	0.988976917120957	0.0425255038839951	-0.00020090559409434	-0.00532071777748889
4.1	-0.0004468759982198	-0.00732251570991412	0.983070032125447	-0.112055930062634	0.983008246095902	-0.111991750711348	-0.00200456929514544	-0.00655874333769343
4.2	-0.0019981106227699	-0.00795320903679783	0.952922128882649	-0.263675037660075	0.953117466559314	-0.263107548337758	-0.00393690024815197	-0.00663431934801516
4.3	-0.00341165214051565	-0.00848763072218546	0.900527662203033	-0.407547931098939	0.900528601415288	-0.407529444336027	-0.00581717536952291	-0.00660458489335298
4.4	-0.00541820438356957	-0.00826629480696228	0.826412565231821	-0.542245551302037	0.826332882342705	-0.542229359199721	-0.00800237956350659	-0.00590360026757761
4.5	-0.00617758924146184	-0.00737842658351853	0.731592524435762	-0.664334855585896	0.731469970461448	-0.664188602688505	-0.00930836764053979	-0.00461120247716259
4.6	-0.00724460484368776	-0.00754451885624677	0.619164576062601	-0.768877735465946	0.619151018772222	-0.76864901379861	-0.0108971511240361	-0.00398322572989335
4.7	-0.00878249022296265	-0.00749116023010175	0.492389455160114	-0.855284696332655	0.492507040198467	-0.855041333199368	-0.0128603253178564	-0.00267104571920962
4.8	-0.0104074247663212	-0.00669164324089144	0.353462096311427	-0.920987079061954	0.353755428734179	-0.920800327235083	-0.0142068415631619	-0.000658556514385456
4.9	-0.0114399368986464	-0.00576982083266014	0.20598028032647	-0.964019005702773	0.20623925174032	-0.963969196819409	-0.0146730911723227	0.00194072238441073
5	-0.0119938468757101	-0.00484464943080605	0.0544574575842084	-0.983018670135104	0.0546153710799802	-0.982891985938562	-0.0139317055778377	0.00456227214056118
5.1	-0.0126730457100197	-0.00414863102830578	-0.0976272277468088	-0.979684261925915	-0.0973075225265751	-0.979622648068571	-0.0127230515300342	0.00713982054562371
5.2	-0.0131480897266164	-0.0026787770563816	-0.248389342446357	-0.952786810786318	-0.247964247254849	-0.952909281857346	-0.0107306681113957	0.00973434728776314
5.3	-0.0131609251316642	-0.00130607050167964	-0.393002146748171	-0.902589224702709	-0.392715369324037	-0.90293269488287	-0.00794522243335369	0.0117708772220546
5.4	-0.012467719606397	0.000644826724473368	-0.527881244129611	-0.830447903490432	-0.527746565047206	-0.830736143705878	-0.00472477080144993	0.0131352516097442
5.5	-0.0109098052223519	0.000719165830487703	-0.649485854408259	-0.739030082617362	-0.649436464389732	-0.739342278864571	-0.00140491036017279	0.0125879922260758
5.6	-0.0118806024414551	0.00119586984790652	-0.756575878159957	-0.629617522709998	-0.756589413874475	-0.629787065230209	-9.19616558419166E-05	0.0123799565959726
5.7	-0.0123536466010934	0.00283814713196057	-0.84501359293874	-0.504473100397837	-0.844990079571827	-0.504647377187813	0.00207247423298132	0.0128097676611174
5.8	-0.012290249533518	0.00509226008291073	-0.912594514247387	-0.367295755811145	-0.912639258478716	-0.367586414646784	0.00450409019067374	0.0126884608837551
5.9	-0.0115201130347747	0.00766895472650988	-0.958351326426492	-0.221943123688653	-0.958471112480523	-0.221990844759321	0.00687200030402321	0.0123165949259352
6	-0.00836682429652858	0.0095131513127422	-0.982008242856459	-0.0707757817156897	-0.982005162459265	-0.0708441883247081	0.00995203148043162	0.0108217123538607
6.1	-0.00707014597478825	0.00884496881101143	-0.980639533933617	0.0828856641175559	-0.980642718839243	0.0827827799271382	0.0109274750277439	0.00807511566673026
6.2	-0.00651080465379246	0.00927380412598119	-0.955542882727381	0.233747003473721	-0.955590682022854	0.23356613512462	0.0115440467601566	0.00605160829395168
6.3	-0.00610292245787346	0.00964781556669497	-0.907798472226562	0.378784794889787	-0.90782259775957	0.378656706598033	0.0119646312931754	0.00368800991356144
6.4	-0.00556607835012992	0.0104132500801866	-0.838373713564794	0.515002770065665	-0.838364794328128	0.514790139250996	0.0118051255379816	0.00115376889268433
6.5	-0.00453154522835596	0.0107725013419425	-0.747757654286729	0.639191083643583	-0.747857634750257	0.639019466514888	0.0113856273321825	-0.00160696465495307
6.6	-0.00344593886921563	0.011104472233707	-0.639450945084359	0.746467018176519	-0.639598484861579	0.746321621852025	0.0102759048439538	-0.00402413843479529
6.7	-0.00204621408737196	0.0111325001826558	-0.516405655632056	0.836410400916141	-0.516525932270017	0.836253773225261	0.00866256851949611	-0.00619782317983152
6.8	-0.000470074500027576	0.0108566528191813	-0.380598255958374	0.906445744022109	-0.380808200790107	0.906370607647135	0.00641220278882468	-0.0078281483778938
6.9	0.00101770903817394	0.010002964432545	-0.235237997760502	0.954524725775256	-0.235487519380864	0.95452044223312	0.00412659618567929	-0.00866119751449396
7	0.00228366443040446	0.00860600784800996	-0.0845988885732133	0.978617947200467	-0.0848556784961837	0.978587406560219	0.00170846053159129	-0.00934903340887141
7.1	0.00266259949092003	0.00744216571441192	0.0672403041738577	0.980350329271515	0.067034742134314	0.98033757867584	-0.000851829253472802	-0.00891718345475886
7.2	0.00325166381400196	0.00640023143927184	0.21847455221051	0.958443473997302	0.21822027485692	0.958486381736419	-0.00268760890583332	-0.00785052354292179
7.3	0.00331820781127984	0.00507981497900195	0.364463472864369	0.913027742813155	0.364224024574458	0.913117156227975	-0.00423711857505511	-0.00650885090328895
7.4	0.00328943717607784	0.0040125840130049	0.501288348088617	0.845264616967819	0.501070475788784	0.845424838384177	-0.00546284739284681	-0.00486649006187713
7.5	0.0030994784323921	0.0024784222404805	0.625612960313971	0.758262410358203	0.625452715613956	0.758432639590005	-0.00602211418391949	-0.00325021884599329
7.6	0.0019632812569823	0.0012114174907679	0.736548705943945	0.652600666011414	0.736333184261388	0.652759838535838	-0.00649309358840593	-0.00172834601683734
7.7	0.00054114029806825	0.00100621942484611	0.828990669399875	0.530397301085216	0.828839063795478	0.530590801934814	-0.006466063666896	0.000146637928826694
7.8	-0.000358272561197623	0.0016210498513724	0.90134465248704	0.395480300590836	0.90122290050573	0.395700561073723	-0.00570979911492931	0.00182571100020827
7.9	-0.000764970007629853	0.00304412526335488	0.95188089212208	0.251465429355441	0.951839165181786	0.251690028835694	-0.00445659267096905	0.00347483129452154
8	0.00122145023316941	0.00406252207975765	0.980563277407503	0.100703467937107	0.980631916032987	0.100995545172868	-0.00259330257659783	0.0042374838099321
8.1	0.00147855175307772	0.00307259671988255	0.984170241317835	-0.0533355743327743	0.984292776876298	-0.0530640548708703	-0.00204031943521772	0.00411814216110358
8.2	0.00133826779842633	0.00309706477201306	0.963883609870333	-0.205204753525999	0.963947774927833	-0.204908850915883	-0.00141656469913394	0.00482414829350493
8.3	0.000997090211249553	0.00336156781659197	0.92065339718648	-0.35214737354029	0.920789354059776	-0.351890864171499	-0.000360038332901541	0.00516286244309726
8.4	0.000660786023338468	0.00421235086799993	0.85545616778179	-0.49107133806368	0.855666671259492	-0.490870338034346	0.000614143929120657	0.00528329136396298
8.5	0.00197301646280206	0.00582472584592735	0.768439086495991	-0.618628790460709	0.768554238385743	-0.618502340524559	0.0025516176549145	0.00521642015604885
8.6	0.00335548558290011	0.00486082643281075	0.662989399396513	-0.729714604121258	0.663185633196623	-0.729528272286291	0.00347182218014015	0.00352987937092435
8.7	0.00344066675501063	0.00450916048421085	0.542143826334835	-0.823818289433665	0.542424878916848	-0.823707408847889	0.00377155795116245	0.00274983147427924
8.8	0.00389117242045162	0.00433127924640819	0.407963773077032	-0.898434872407359	0.40816956477952	-0.898379244716414	0.00408469166642655	0.00199856226022136
8.9	0.0042965580915272	0.00432232840189044	0.263163784493877	-0.951290672059235	0.263404968071131	-0.95114892627891	0.00457018172608736	0.00142368868888491
9	0.00593827258732919	0.00410463829025897	0.112318060477657	-0.97974549765466	0.11267997651194	-0.979713750789988	0.00563766586989228	0.000676510632402572
9.1	0.00738414642120655	0.0028160991141044	-0.040302961504611	-0.986031162106081	-0.0399501467357333	-0.986043567453173	0.00639330699967675	-0.000672173116356005
9.2	0.00893550099944284	0.00107714749023942	-0.19331447317889	-0.9683019768524	-0.192957704137404	-0.968370670267367	0.00722732351212464	-0.00200313814317447
9.3	0.00997623718568222	-0.00113490503340663	-0.341671983650401	-0.926634929167733	-0.341313875126381	-0.926697434944671	0.00771048344207184	-0.00348989899175688
9.4	0.0107119288916108	-0.00354084369909163	-0.481202217452104	-0.862120647483376	-0.480877615213115	-0.862266979665384	0.00785614673970963	-0.00478914489411494
9.5	0.0110754002481844	-0.00744116776937864	-0.608669900003422	-0.777890294419751	-0.608462396298948	-0.77802659794531	0.00759083847412759	-0.00677017089801621
9.6	0.00799278831754713	-0.010851765426746	-0.723212749966669	-0.674201268452593	-0.722937994697724	-0.674385118430717	0.00534837132609574	-0.007394205680347
9.7	0.00481220589389902	-0.0118796728277609	-0.819369297089111	-0.553423533143446	-0.819120713455462	-0.553692461652666	0.00432728780486872	-0.00706677010162819
9.8	0.00173193882469635	-0.0121725267517479	-0.895404587048763	-0.419393850315605	-0.895193382762377	-0.419668695733675	0.00353513223631154	-0.00680520413148745
9.9	-0.00118638743438513	-0.0107201959674961	-0.949774584071116	-0.275657965355203	-0.949659968302234	-0.275987951637402	0.00315444442941719	-0.00619194290336083
10	-0.00160126485108379	-0.00994136827325587	-0.982404994777893	-0.124573798706726	-0.98232258917727	-0.12495402770674	0.00377373078843576	-0.00650988659292108
10.1	-0.00447141576126964	-0.0102841364481063	-0.989367352523497	0.0304947430249624	-0.989345774187538	0.0300144185695093	0.00241705403740386	-0.00710377842732864
10.2	-0.00738183812781083	-0.00874583474911212	-0.972473721551406	0.183735950227346	-0.972457212499881	0.183283891811884	0.00173526736134383	-0.00660509817176421
10.3	-0.00992121927069962	-0.00611517731406958	-0.932344261305872	0.33262031273913	-0.932478575378787	0.332076718438642	0.00131542298228907	-0.0065940752769815
10.4	-0.0115382572221874	-0.00277200360137526	-0.869767462457057	0.473925088421088	-0.870032717902641	0.473385544761958	0.00099599719852093	-0.00683325690830942
10.5	-0.011048041040649	0.00107496833453085	-0.784676699776626	0.604217808469906	-0.784960620247466	0.603828493409887	0.00139159793347688	-0.00765565886705082
10.6	-0.00989954348076446	0.00293789595261941	-0.680832010943405	0.717989116136728	-0.681259980981193	0.717643280882753	0.000721357206224725	-0.0093756090626892
10.7	-0.00898966209694203	0.00491381454430549	-0.561237139474863	0.815082290525479	-0.561650505862167	0.814792426611805	-0.000403623816588793	-0.0103932698737737
10.8	-0.00768059016269042	0.00646462162002253	-0.427547382347157	0.892583563948002	-0.428060414585325	0.892353297826965	-0.00168419828326006	-0.011106032403918
10.9	-0.00612874037357118	0.00818705674540893	-0.282999823218813	0.94821514309047	-0.283490215577148	0.948164361681069	-0.00315516039139833	-0.0114862067980318
11	-0.00376254383709972	0.00889052608861192	-0.132145351314332	0.979433393962057	-0.132693819765643	0.979429901195428	-0.00439905259498731	-0.0118232845152847
11.1	-0.00167536183266515	0.00957802688901261	0.0211035014577137	0.988404303266497	0.0204716409081663	0.988488285747534	-0.00580044686689809	-0.0117088492242369
11.2	0.000910056936307595	0.00956712447835585	0.174688439097197	0.973237115122433	0.17416720231487	0.973441987486625	-0.00670010291277136	-0.0114730643899918
11.3	0.00350455661715598	0.00921023536559321	0.323920601440878	0.933962365894349	0.323489761509502	0.934227083886935	-0.00730723962102118	-0.0110517424782812
11.4	0.00626812495952124	0.00833810085195043	0.464859800144511	0.871716686416197	0.464394485042888	0.87197884054732	-0.00766820294680197	-0.0104326064521243
11.5	0.00946001545344825	0.00588958903865614	0.593933828521966	0.789552713494159	0.593575169748011	0.78997322549813	-0.00806581596318067	-0.0107545605721879
11.6	0.0099676995434711	0.00263063927745719	0.710168132007569	0.687636421238957	0.709901540085523	0.688120121358245	-0.00992842930338129	-0.0101074603291188
11.7	0.0101900190079025	0.000733732587727471	0.808379240648228	0.56841632542123	0.808140725791036	0.568841284439596	-0.0108251275152184	-0.00881792989702369
11.8	0.00993406661227166	-0.00114722361741427	0.886521739180375	0.435518413663553	0.886339184672681	0.436073893166949	-0.0116288872927954	-0.0076934432713983
11.9	0.00978131339485721	-0.00152449734615981	0.94308279513286	0.292910673915387	0.943046679885728	0.29345732640063	-0.0123860643425094	-0.00599457015197164
12	0.0114683004758508	-0.00329186437607395	0.978083369820883	0.142637805166984	0.978073482060287	0.143120089035288	-0.0118592919281774	-0.00534184919434025
12.1	0.010544793217904	-0.00644726431989425	0.987529775761071	-0.011900240229041	0.987507875424482	-0.0114248358640246	-0.0133621701944932	-0.0046318042262019
12.2	0.00875060708388464	-0.00856145857837554	0.973087329776679	-0.165071768268339	0.973197189749266	-0.164633300742383	-0.0140828179065078	-0.00273383658577114
12.3	0.00668481248420388	-0.00997249898942754	0.935384145627511	-0.313985185129676	0.935572860015008	-0.313626698890805	-0.0141047036126061	-0.000988686686674384
12.4	0.00387565521997973	-0.0106621870242791	0.875557292414537	-0.455828636346532	0.875693242388666	-0.455452894403256	-0.0139143236320845	0.000695818932244322
12.5	0.00248587548880887	-0.0102585379160913	0.792584167313741	-0.586993472536662	0.793047608170531	-0.586603225850311	-0.0127692316586682	0.00195640995485562
