# GHZ S RI R 50
0.2	-0.000237093392764361	-0.000109999118266272	0.949428442093136	-0.307742619181284	0.949202171744031	-0.307884624411404	-8.90241467552229E-05	6.16268071077632E-05
0.3	-0.00042412068049457	0.000151165027074651	0.889632474951712	-0.451473087425279	0.889495008002032	-0.451526365255689	-0.000248380213101548	-5.08837588611199E-05
0.4	-0.000299859450110531	0.00033520021095091	0.808275386393828	-0.583907117831365	0.808315561413361	-0.584046788046901	-0.000143834232006187	2.32800799834562E-06
0.5	-0.000294532868335106	0.000636018622110774	0.70748524302635	-0.702428902931813	0.707374599998526	-0.702524838981189	8.65116491947563E-05	1.82931419973857E-05
0.6	-0.000121336035298072	0.000595762744344483	0.589506383390353	-0.80353662933628	0.589316728852942	-0.803539576544962	0.000147391363863803	-0.000300111410658492
0.7	-0.000164335910729207	0.000850914931804145	0.457413545422549	-0.885030992272135	0.457339483808096	-0.885065406722868	0.000108841955345562	-0.000568031568482131
0.8	-5.11595740568308E-06	0.000805705207309477	0.314294746552924	-0.945241213248872	0.314176126411215	-0.94515446381615	-5.99114387137798E-05	-0.000776056892367927
0.9	-0.000135069175978903	0.0010769153409816	0.163547803365958	-0.98236022041494	0.163398719527983	-0.982317356173492	-0.000443743941811728	-0.000980551149488781
1	-9.08579918467221E-05	0.00146141024120239	0.00891241776834546	-0.995410520025542	0.00879429912623629	-0.995380835591981	-0.00072311158047561	-0.00093941885191882
1.1	0.000266239703409654	0.00166758864223413	-0.145011852001313	-0.984659875254213	-0.145659628101469	-0.98462481380101	-0.0012388235883263	-0.00103326450112678
1.2	0.000570270621097738	0.00113836847224515	-0.296942516295103	-0.949929742514502	-0.29693554126286	-0.949985445566065	-0.00162664928442678	-0.000676884288373775
1.3	0.000926799965777144	9.47906602877104E-05	-0.440758316153662	-0.892047192763952	-0.440850455725025	-0.892071662226841	-0.00107283564465938	0.00031196148397533
1.4	0.00112714262559919	-0.00160991987656108	-0.573657073620234	-0.812649250178695	-0.573730884412387	-0.812549637730083	0.000150151161284729	0.000508695066577221
1.5	0.00145186918751496	-0.00277297580411432	-0.692821786967231	-0.713598522429143	-0.692846396933859	-0.713526449350903	0.00155242664935065	-0.000285314989977179
1.6	0.00107102618687929	-0.00378630438697632	-0.79488556313937	-0.59763830119204	-0.795315208264401	-0.597137455889534	0.00127634834702425	-0.00125575192454257
1.7	0.00077059689395581	-0.0039532611162513	-0.877829024492056	-0.466731998982782	-0.878133383331963	-0.466241797082501	0.000949200580867279	-0.0017436069712271
1.8	0.00029818287654223	-0.00409096485863353	-0.939629387018286	-0.324265428994826	-0.939644840564004	-0.324255955227497	0.000283556570016531	-0.00235838319595584
1.9	-2.52392239957536E-05	-0.00380708400953883	-0.978533505734799	-0.174346696861429	-0.978578056634944	-0.174399452488234	-0.000393919192224877	-0.0026797100175062
2	1.64379930967476E-06	-0.00389081750437981	-0.993583415705104	-0.0207484741810444	-0.993677886613284	-0.0200985064257863	-0.00116937108696406	-0.00294915739809156
2.1	-0.000564958725749318	-0.00428691963219554	-0.984344314501923	0.135122676273452	-0.984444328308856	0.134638298994352	-0.00218906224257146	-0.00281159294011491
2.2	-0.00159382157744818	-0.00438707005833632	-0.951400813291139	0.285549742185553	-0.951439484261864	0.285683595226521	-0.0028588200472909	-0.0024266207897928
2.3	-0.00257541503666627	-0.00405293315473348	-0.895416913589503	0.429710449364839	-0.895252920205898	0.429798782828326	-0.00345203918777586	-0.00212536609340385
2.4	-0.003719428299817	-0.00335578859691794	-0.817180587044982	0.564076447154833	-0.81747260887386	0.563614643468262	-0.00401859467190383	-0.00182863211975598
2.5	-0.00403713629332628	-0.00210385047635681	-0.719595955464931	0.683987077275538	-0.719898872333182	0.68360672755344	-0.00419868361022459	-0.00181950637574339
2.6	-0.00432312379313289	-0.00149163084140761	-0.604969828142132	0.786807775967583	-0.604890662716467	0.786748270675175	-0.00482102875649896	-0.00168941537459487
2.7	-0.00435020645189697	-0.000587916473983726	-0.475344778074062	0.870960749703529	-0.475315280552777	0.870974801451187	-0.00535355041679909	-0.00100065331536717
2.8	-0.00404797835552605	0.000138825683640298	-0.334466708393704	0.934008868921178	-0.334348395818565	0.934093195119395	-0.00526598283532302	-1.32747827223064E-05
2.9	-0.00292549369210973	0.0006667454606747	-0.185295227887196	0.974357177822539	-0.185290688736983	0.974411952418906	-0.00452916707637551	0.0010999486870529
3	-0.00179739431453354	0.000581033711096886	-0.0316223318968543	0.990953739707705	-0.0316865089525459	0.991025251009975	-0.00324054733767757	0.00188972034779442
3.1	-0.000673531550828373	0.000330339530201673	0.121664324902854	0.98381819756248	0.122312251564538	0.983898449610432	-0.00180321140028573	0.00242678307795287
3.2	0.000135334114792551	-0.000242837540053725	0.273500065196423	0.952694405655447	0.273490172958857	0.952733994318277	-0.000489978563019564	0.00231084435605805
3.3	0.00107887437285936	-0.000944669595069533	0.418698240653863	0.898227456316248	0.418076396639241	0.898509786220069	0.000887528992720883	0.00184913599646661
3.4	0.00163812574318525	-0.00178992875073501	0.552371310455331	0.822481838513826	0.552286614259556	0.822597182093375	0.00213842492820999	0.000878244585046248
3.5	0.00239860489701094	-0.00298705570859787	0.67304612833403	0.726932765065528	0.673060382920642	0.726958926207764	0.00281625621581142	-0.000584631145341669
3.6	0.00207020045801883	-0.00424551493941282	0.777319531972049	0.613932692803592	0.777740766404644	0.613538266530316	0.00283043001137651	-0.00171014305690184
3.7	0.00180628036776895	-0.0052558247948978	0.863417364317677	0.485110454171447	0.863424560525007	0.485236879737519	0.00287963137046157	-0.00278490234210614
3.8	0.00107749032861203	-0.00612452607152939	0.927983529735421	0.345107278560621	0.928012183817393	0.345290369357928	0.00242962466135797	-0.0041031318844568
3.9	0.000659510896980232	-0.00671563308887732	0.970273436737362	0.196379538069364	0.970176042959588	0.196967088981937	0.00133536716233217	-0.00554183299547939
4	0.000178504464483143	-0.00738269919665268	0.988966760626352	0.0440115139554657	0.989048762766517	0.0440543363844609	-0.000138464361568565	-0.00684111949406515
4.1	-0.000761148336269513	-0.00841034229327966	0.983571819788311	-0.110099309090256	0.983509886678443	-0.110035236718944	-0.00240768972049117	-0.00745572829815238
4.2	-0.00245525794557205	-0.00888662017165471	0.953998067707872	-0.261907196744118	0.954192374503427	-0.261338989533256	-0.00448939074085331	-0.00729348972885688
4.3	-0.00399198224052337	-0.00913401678803824	0.901937952030088	-0.406092413252555	0.901938856215804	-0.406073911872856	-0.00646624284925884	-0.00693804396560599
4.4	-0.00582667407712204	-0.00871909431527368	0.827949286897708	-0.541010113385778	0.827869524334334	-0.540994062575182	-0.00841956363997805	-0.00605945973303239
4.5	-0.00682991925595662	-0.00803876745472597	0.733716540426209	-0.66298920178225	0.733593544870469	-0.66284315068168	-0.0100084943760725	-0.00509447249588167
4.6	-0.00805838190868742	-0.00752796469477171	0.621856938899489	-0.768495896261085	0.621842821163639	-0.768266884349263	-0.0119204615042768	-0.00377164131673944
4.7	-0.00923777119670106	-0.00715467479454335	0.494957215034052	-0.855617127205313	0.495074479180759	-0.855373131736081	-0.0136004165612398	-0.0020256239914068
4.8	-0.0105230140165381	-0.00624118906038216	0.355874844906657	-0.921817911171905	0.356168294957057	-0.921630267567439	-0.0146173705599764	0.000221399138979126
4.9	-0.011237410531038	-0.00538559050957385	0.208374663657324	-0.96529618240807	0.208633989797806	-0.965245740109539	-0.0147276582227683	0.00285778967567706
5	-0.0117172068187749	-0.0045189455820556	0.0566401230780233	-0.985386419796202	0.0567981715650542	-0.985259087314554	-0.0138718074909698	0.00552488554920282
5.1	-0.0119965196734319	-0.00390727834252004	-0.0965471477330241	-0.982355476731786	-0.0962266979852644	-0.982293268221768	-0.0121167387540548	0.00814040511125849
5.2	-0.0123304247444813	-0.00285884872774419	-0.247839617380403	-0.955461633665579	-0.247413314509856	-0.955583888458358	-0.00977773471410879	0.0102979669734767
5.3	-0.0124352111234236	-0.00191613660718769	-0.39296262356802	-0.905396902198005	-0.392674697114583	-0.905740927955143	-0.00694190096020492	0.0117641380852992
5.4	-0.0121609323619568	-0.000437206226090278	-0.528581840802089	-0.833449050835209	-0.528446465217368	-0.833738003624822	-0.00414840956270954	0.0124452795229147
5.5	-0.0115674376327377	0.000156810217867119	-0.65135635562201	-0.741462567737909	-0.651306748170057	-0.74177572553374	-0.00201445440915807	0.0123626436217724
5.6	-0.0117816264071555	0.0012178024643686	-0.7584543766839	-0.631308653015624	-0.758467930186527	-0.631478631986101	3.02331157040158E-05	0.0129208481061854
5.7	-0.0119249873083033	0.00249824575630496	-0.847148556990513	-0.505898135648987	-0.84712495950337	-0.506072863379101	0.00264681038020337	0.0130256339726409
5.8	-0.0118299681690096	0.0043709560197806	-0.915095328091866	-0.368252745590253	-0.915140207683091	-0.368544193401245	0.0052214868191114	0.0124318865858785
5.9	-0.0112415928175665	0.00630967736846647	-0.961091700412392	-0.222087420591757	-0.961211838669573	-0.222135214584406	0.00743046083556063	0.0112007731688633
6	-0.00955904465235408	0.00799589807482829	-0.984049258733835	-0.0702151886608766	-0.984046221075914	-0.0702837361596791	0.00872782013022173	0.00933861570701826
6.1	-0.00842549117528643	0.00870307708803342	-0.982677120523509	0.0832270181782285	-0.982680329667691	0.0831239192218872	0.00925390057645867	0.00819489827629215
6.2	-0.0073856499551155	0.00973005363172207	-0.957741367413366	0.234550188224128	-0.957789327100238	0.234368904600986	0.0103408795825075	0.00701387486127252
6.3	-0.00629892544710284	0.0104028872354073	-0.909831156625587	0.380150233924238	-0.909855403229723	0.380021844519539	0.0115301918455498	0.00510822622195357
6.4	-0.00506478374262166	0.0108413681746402	-0.839900295775453	0.51673602009951	-0.839891503017474	0.516522905942167	0.0122360536178889	0.0022925052751609
6.5	-0.00390425718504714	0.01066913476888	-0.749303252678475	0.640745983629337	-0.749403486225988	0.640574003286226	0.0120694174775661	-0.00102472593065161
6.6	-0.00282467138064392	0.0105594294064411	-0.640927813032888	0.748977403427371	-0.641075858897666	0.748831659697945	0.011074543761627	-0.00397066505061524
6.7	-0.00178441819045094	0.0102741605113057	-0.517026857540165	0.839352441367717	-0.517147642476522	0.839195487187301	0.00912480236468424	-0.0066073644559434
6.8	-0.000581124529243687	0.0100316124928108	-0.380455660318344	0.909365814106214	-0.380666264781104	0.909290745620085	0.00642381583861972	-0.00831071789866025
6.9	0.00063824927393007	0.00935515858834079	-0.234687862233022	0.957233739708765	-0.234938023216103	0.957229745337464	0.00374891590467709	-0.00899487435291818
7	0.00184492186007337	0.00842283091172609	-0.083574106779752	0.981846144276059	-0.0838317548287491	0.981815845922038	0.00115927773199623	-0.00914858133424927
7.1	0.00254551509593301	0.00736810658682653	0.0695959783257719	0.983088236317804	0.0693897830730367	0.983075900601954	-0.00109955621540197	-0.00850401463016248
7.2	0.00324245579842601	0.00633440526453188	0.221290106478838	0.960368229342871	0.221035282982319	0.960411845729425	-0.0028175801188271	-0.00736329777138762
7.3	0.00342375887691142	0.00504955424365613	0.367521177675612	0.914345169123459	0.36728136912213	0.914435369653752	-0.00423246372991575	-0.00592480649585374
7.4	0.0034960608169187	0.00395090799467859	0.504694061162508	0.846175647504207	0.504476031817157	0.846336826312982	-0.00533280157086742	-0.00426765312185327
7.5	0.00322688091637046	0.00259855005907767	0.629762643143129	0.757958465467262	0.629602593947069	0.758129664724601	-0.00595877628835054	-0.00236843657104188
7.6	0.00266058598521272	0.00154005580047606	0.739939364362146	0.65104764647564	0.739724064153014	0.65120780994048	-0.0057303774526092	-0.000520380624878519
7.7	0.00172137835316066	0.000961694067005587	0.831839362051697	0.52838089883204	0.831688190023609	0.528575155968385	-0.00500214294841031	0.000986914848164057
7.8	0.00112114177747571	0.00101076251281771	0.9037888736089	0.392967559586082	0.903667704320949	0.393188501109472	-0.00377461729993618	0.00194208774136067
7.9	0.000705752915408419	0.0015448144022032	0.953854727288844	0.248235537474652	0.953813781827968	0.248460537824479	-0.00258319198721097	0.00230706551275349
8	0.00142959120423949	0.0017238019973835	0.981057308986563	0.0970778298287842	0.981127039681477	0.097369688273054	-0.0021986515956336	0.00201507983709187
8.1	0.00116819964732042	0.0014435761437088	0.984144211623102	-0.0562679026286455	0.984267570687035	-0.0559967108127831	-0.00256703361024046	0.00276877554550328
8.2	0.000790054844394051	0.00157022157158677	0.963613813843166	-0.208181887014269	0.96367889327228	-0.207886070749274	-0.00228098229509265	0.00380227422804557
8.3	0.000130106274974165	0.00218536678670142	0.919796926227602	-0.355252712332518	0.919933760178595	-0.354996564687732	-0.00152346811305005	0.00468512721641952
8.4	-7.39720923199622E-05	0.00339835293778938	0.853633231202081	-0.493950712109283	0.853844397002126	-0.493750468728592	-0.000285016805237136	0.00525810711002717
8.5	0.000740385625713465	0.00482560488367951	0.766442641550419	-0.620489570999659	0.766558094381164	-0.620363486158475	0.00114059606750122	0.00490402523184283
8.6	0.00203254347036682	0.00513862072684704	0.660870160663127	-0.731818786344756	0.661066984647104	-0.731633023330495	0.00181603364443327	0.00468331969509244
8.7	0.002904022825342	0.00524617789547627	0.539250205462493	-0.825521793103748	0.539531587308189	-0.825411887103367	0.00301040775558497	0.00462516367137589
8.8	0.00401521143446125	0.00510688315577167	0.404622432192673	-0.899294645717123	0.404828290599507	-0.899239760434669	0.00427011148935557	0.00408241786744945
8.9	0.00506241101763097	0.00485422509992944	0.259984318790364	-0.951194185514564	0.26022570887773	-0.951053317339264	0.00577191144989256	0.00323484566091578
9	0.00688266386379465	0.00401899201994848	0.10935472720785	-0.979738939504214	0.109716611739293	-0.979708283889119	0.00726689581958309	0.00160727043555568
9.1	0.00845761510709198	0.00233862318068715	-0.0439086046953661	-0.985062896725154	-0.0435561289398731	-0.985076593891754	0.00823959133696909	-0.000386222539074836
9.2	0.00974331022270562	-3.17097067349896E-05	-0.196451095995711	-0.966255904248195	-0.196095071894043	-0.966325756924375	0.00877665270694971	-0.00264559149790349
9.3	0.0101969574035034	-0.00249494714165468	-0.344067921275931	-0.924013079501053	-0.343710603836784	-0.924076626089369	0.00846992583896542	-0.00463106804245352
9.4	0.0103714971358393	-0.00499737114288895	-0.4830489773171	-0.859440936828323	-0.482725281011585	-0.859588015235986	0.00772138348242358	-0.00617153013911708
9.5	0.00980954600764968	-0.00793782241701975	-0.610586464053489	-0.774393736197671	-0.610379796465613	-0.774530592601499	0.00606827632271829	-0.0070084436497123
9.6	0.00785069387718876	-0.0106398656939164	-0.723624862696292	-0.670068017584075	-0.723351421444145	-0.670252317800082	0.00492681003267695	-0.00646424938490575
9.7	0.00512778652714479	-0.0120858426124926	-0.818770932261208	-0.549624568120567	-0.818523773163225	-0.549893490678214	0.00458467636533376	-0.00637462582840601
9.8	0.00220288429669141	-0.0126944188296173	-0.894184434103434	-0.41593807695195	-0.893974505079243	-0.416212765629388	0.00416913940526753	-0.0064449718831685
9.9	-0.000611217233202423	-0.0118568538391892	-0.948056660568756	-0.272233709153884	-0.947943284118306	-0.272563152021442	0.00399755616576087	-0.00668481767429915
10	-0.00234937233026208	-0.0112180928594133	-0.979181702998271	-0.121490775065474	-0.979100614385308	-0.121869848141218	0.00301896175273763	-0.0073650178411589
10.1	-0.00487240562793198	-0.0103775229412134	-0.985948342974753	0.0321289086079016	-0.985927681793755	0.0316501801205339	0.00182460714881713	-0.00651810753008547
10.2	-0.00716259950815486	-0.00879459704116456	-0.969110948927561	0.184877168752694	-0.969095288838251	0.184426493785948	0.00190248376982458	-0.00582085975934955
10.3	-0.00920394755980864	-0.00632867454635219	-0.928669186599919	0.333331360548553	-0.92880410928542	0.332789794280596	0.00216946883822181	-0.00600790487363329
10.4	-0.0103374082952426	-0.00360550858036364	-0.865477589450134	0.473736866090137	-0.865742839961489	0.473199928809158	0.00246165208172085	-0.00708630027311108
10.5	-0.0105193312949964	-0.000745704144476305	-0.780956383597822	0.602272000677525	-0.781239404815822	0.601884519677024	0.00211331204753652	-0.00928509396662673
10.6	-0.00998894581609952	0.00127105712802195	-0.677949735853609	0.715915717501951	-0.678376429693753	0.715571388685554	0.000413546957740104	-0.0107733787502083
10.7	-0.00948262452558734	0.00355724116436415	-0.558600509024972	0.812480222515303	-0.559012559532883	0.812191714833022	-0.00133571446686024	-0.0113297210059336
10.8	-0.00825738102065932	0.00550382703976358	-0.425487504868402	0.889266480823844	-0.425998624027665	0.889037337840283	-0.0027912011525269	-0.0114311860806361
10.9	-0.00668516497401325	0.00746678401636686	-0.282115450647148	0.944325695288846	-0.282603857205682	0.944274986771304	-0.00427965684240203	-0.0113790502770011
11	-0.00434656932624648	0.00850102554960591	-0.132294216337017	0.97640059494994	-0.132841026033106	0.976396805783124	-0.00553913346602944	-0.0111996778738003
11.1	-0.00192248003034376	0.00931144143479672	0.021046881821312	0.985168317695541	0.0204170907664264	0.985252033236878	-0.00648534282233267	-0.0107339531834535
11.2	0.0007771557383186	0.00928307952831185	0.173745587928217	0.969807989337229	0.173226151387118	0.970011958047398	-0.0070628887076793	-0.0103976013073313
11.3	0.00349660582014487	0.00890244791044945	0.322031297496549	0.930929434129446	0.321601764394486	0.931192874189945	-0.00731688404127773	-0.0100116340981433
11.4	0.00627770705232656	0.00780926527827846	0.462487660098175	0.869637502713118	0.462023439031264	0.869898348748189	-0.00754430550755147	-0.0097438454808051
11.5	0.00893848333627566	0.00590572579821313	0.591955736730133	0.787454042162737	0.591597982602428	0.787873218380727	-0.00860547124480784	-0.00948410203225021
11.6	0.0104599233694841	0.0031134599261208	0.707001868627007	0.685743649384389	0.706735832881505	0.686225364946239	-0.00926192025026166	-0.00817104798628869
11.7	0.0112881200462019	0.000788103441464557	0.804814223574421	0.567631924289792	0.804575915605257	0.568055095172444	-0.00923586378523991	-0.00737485337145896
11.8	0.0114676658541661	-0.00159322896545727	0.883136206753439	0.435643017510735	0.882953301293613	0.436196522446319	-0.00936156441374502	-0.0070345237589462
11.9	0.0117242439903471	-0.00310926114201041	0.940121818348373	0.293353073742386	0.94008508167397	0.293898185972904	-0.00955546200829451	-0.00694714144848086
12	0.01197084212923	-0.00569383616784233	0.974356177888047	0.143535326407873	0.974345629942623	0.14401585963275	-0.0109679747549129	-0.00753812891467784
12.1	0.0111285239785483	-0.00861608401399593	0.984404286912868	-0.00958590218651533	0.984381360648336	-0.00911206614254695	-0.0128435792458151	-0.00653813408775299
12.2	0.00887491132478104	-0.0113079308367317	0.97072680179285	-0.16240284663926	0.97083535946175	-0.161965362350774	-0.0142546189793822	-0.00502678626213948
12.3	0.0057932053411773	-0.0127670026378686	0.933406075364889	-0.31105461746148	0.933593472031149	-0.310696740399131	-0.0153829707036699	-0.00312107196703945
12.4	0.00226428312994524	-0.0129180010484714	0.87370653153194	-0.452240112161146	0.873841140909769	-0.451865305211181	-0.0158600368736938	-0.000792880845675705
12.5	3.89638823065303E-06	-0.0118838107566651	0.792233687535791	-0.582088151132571	0.792694147048112	-0.581697416778497	-0.0157852120257638	0.00103696123077025
