# GHZ S RI R 50
0.2	-0.000444722599124981	7.48478443993203E-05	0.948679843079188	-0.307873736305213	0.948453674423386	-0.308015565357886	-0.000204368355384994	0.000142590953355559
0.3	-0.000538508346198283	0.000422811898932888	0.888707358379629	-0.45148311953572	0.888569981646775	-0.451536294631611	-0.000246205446220149	-4.40712238913963E-06
0.4	-0.000238431151380791	0.000609881296904369	0.807158947337039	-0.583675051475527	0.807199015198889	-0.583814594653747	-2.38404652209259E-06	-6.59958361350417E-05
0.5	-0.000262681355561176	0.00059046688058307	0.706406927915654	-0.701692842443701	0.706296404531783	-0.70178862861227	0.000173374482769902	-0.000388083705499639
0.6	-0.000432156450293736	0.000773972637015347	0.588714487030811	-0.802684462144434	0.588525052007401	-0.802687380365835	-3.16211259630841E-06	-0.000595904344893538
0.7	-0.000375300289463161	0.00130160806598733	0.456685574099751	-0.884011928216705	0.456611598469964	-0.88404628656987	4.35902250224774E-05	-0.00082508000607132
0.8	-2.31026388440594E-05	0.0014417913396359	0.313749266023799	-0.943959624273865	0.313630821071198	-0.943872982271013	-8.85366431084383E-05	-0.00108095719587402
0.9	0.000337240752089623	0.00185209342321887	0.163392868714559	-0.980853828975441	0.16324400707306	-0.980811043960875	-0.000358380316584541	-0.00130203700473723
1	0.00100755507310217	0.00133894027698637	0.00921291298459477	-0.99413411424323	0.00909493619193919	-0.994104504832504	-0.000556786780322381	-0.00179520065847905
1.1	0.000522216100415522	0.00103722940125715	-0.144755253928755	-0.983391216136968	-0.145402191241867	-0.983356245172218	-0.0017833949867833	-0.00170760258400908
1.2	0.000530886092485999	0.000577134583371729	-0.296351681687368	-0.94855593151338	-0.296344708473583	-0.94861155025295	-0.00202026495314623	-0.000890343296463444
1.3	0.000490151879940638	-0.000403480083442627	-0.439778292152335	-0.890812543544482	-0.439870280875933	-0.890837005837681	-0.00116850290208959	0.000220485629532772
1.4	0.000362359073451255	-0.00176588831587391	-0.572441843669949	-0.811767756890258	-0.572515597546791	-0.811668322689111	0.000329451481127856	0.000291337464191183
1.5	-0.000102119909851376	-0.00225143727944358	-0.691752149302993	-0.712781166786705	-0.691776740682639	-0.712709195106292	0.00145541337014661	-0.000577147670655462
1.6	0.000339855485638262	-0.00180351837969457	-0.793269361641758	-0.596794445926297	-0.793698379056488	-0.596294634814067	0.00175039506141337	-0.00137914572233361
1.7	0.00106353907284862	-0.00207948572056382	-0.875907269588131	-0.466414855558507	-0.876211370158723	-0.465925754178863	0.00149754545008925	-0.00248137744117477
1.8	0.00118087700384319	-0.00265646325600604	-0.937696548275958	-0.324437878854431	-0.937711981852503	-0.324428434303407	0.000584266470991708	-0.00342040229945312
1.9	0.00118450094690935	-0.00330144935744959	-0.976709735651999	-0.174798521833961	-0.97675416902449	-0.174851220647823	-0.000327357605221018	-0.00405013062720637
2	-0.000218111011166694	-0.00418517386272629	-0.991379305516814	-0.0214979368574007	-0.991474088576246	-0.0208494757265449	-0.00210142841129378	-0.0043412096497199
2.1	-0.00103231732523176	-0.00310213350064566	-0.982410787034116	0.133346009989274	-0.982509853810023	0.132862533627666	-0.00289685958917601	-0.00319472153093224
2.2	-0.00124064421664508	-0.00297032924637061	-0.950099443427422	0.28338954385038	-0.950138270103849	0.283523079259913	-0.00316756630487308	-0.00289809181877106
2.3	-0.0015795595911723	-0.0029132516700732	-0.894601993529694	0.427366246212716	-0.894438445546515	0.42745471487578	-0.00371002230112696	-0.00267332053443953
2.4	-0.00209287784864898	-0.00309410471546951	-0.816707854108408	0.561498578071255	-0.816998469069829	0.561037091459073	-0.00414943116929289	-0.00244315658970241
2.5	-0.003386761492681	-0.00359508141376122	-0.719988699639738	0.680837808723221	-0.720290063187796	0.680457402157325	-0.00477760626405429	-0.00272017428630573
2.6	-0.00530971587820211	-0.00225589567459225	-0.606396967291916	0.784246099349318	-0.606317732991394	0.784186878414885	-0.00546303882287958	-0.00169156629350082
2.7	-0.00558014072381729	-0.000401810874435875	-0.477124082495184	0.868856994946936	-0.477094650920039	0.868871108972059	-0.00535236765293368	-0.00078850292318009
2.8	-0.00499440817300225	0.000984334428993726	-0.336647683869211	0.932218901280077	-0.336529710404461	0.932303463543157	-0.00473153350999878	-2.51314094519217E-06
2.9	-0.00351771485694868	0.00168506448159623	-0.188088598991549	0.972969671178339	-0.188084229569423	0.97302441304776	-0.00373333017076437	0.000637889446516781
3	-0.0023717495822437	0.00192627845819122	-0.034865297332853	0.990829428448495	-0.0349297071172115	0.990900728172547	-0.0025029088583271	0.00111686043272577
3.1	-0.000531598516302262	0.00187023544634145	0.119055982657155	0.984306785605547	0.119703802593234	0.984388782115574	-0.000914753228807418	0.00122747074165555
3.2	0.000586625808450346	0.000942499298514846	0.27095594493068	0.953515275852126	0.270945945106496	0.953554841320115	5.18111883225715E-05	0.000676917271650075
3.3	0.00159447315586961	-0.000147751960337968	0.416249676926758	0.899650751521619	0.41562686900937	0.899931384337186	0.00108186163916854	4.508293825905E-05
3.4	0.00185099217106817	-0.00154963986214187	0.550372310933272	0.824697834631559	0.550287215714756	0.824813015149499	0.00196877412668496	-0.00105925908046407
3.5	0.00142804752907437	-0.00239384830350931	0.672182900575797	0.729204000209212	0.67219711322829	0.729230221195979	0.00205901504888022	-0.00215592830709977
3.6	0.0015872730471776	-0.00259858940615924	0.776398179478785	0.615957857506223	0.776820500465184	0.615564138027683	0.00245337633313911	-0.0029690972883026
3.7	0.00189163543241943	-0.0036342018401383	0.862810519987232	0.487555921416851	0.862817410947552	0.487682450009973	0.00244074932287532	-0.00421295687870634
3.8	0.00152922626630987	-0.0047376390560859	0.928035638501444	0.347726256188855	0.928063869833385	0.347909595350423	0.00181613172919903	-0.00543647845643689
3.9	0.00132018258631844	-0.00606177951180779	0.971024834699357	0.198692449313463	0.970926066321578	0.199280501285234	0.000681400400425078	-0.00676438035570092
4	-0.000604985126363981	-0.00734124591828046	0.989479660604851	0.0459673992052143	0.989561628853748	0.0460104075297483	-0.00125788978239906	-0.00772588874409375
4.1	-0.001875315370184	-0.00684631627835621	0.984691565427866	-0.107528461618564	0.98462940712095	-0.107464503389505	-0.00278908719462546	-0.00746913904245392
4.2	-0.00285540063146068	-0.0068747842239823	0.956000632765665	-0.25972612802708	0.956193692931648	-0.259156626088482	-0.00410119010910841	-0.00755936085927091
4.3	-0.0037562213787623	-0.00716345105371346	0.904361323593021	-0.404568769274168	0.904362184632335	-0.404550236080407	-0.00570721937216842	-0.00760122620777402
4.4	-0.00485224508840774	-0.00737894270187269	0.830345269287187	-0.539959832378341	0.830265355761303	-0.539943934939592	-0.00741592384535309	-0.00720178485873185
4.5	-0.00659046494818308	-0.00833499604803137	0.736718741680869	-0.661770570927105	0.736595139871699	-0.661624674308081	-0.00942824117125741	-0.00688302478868039
4.6	-0.00928531754718893	-0.00720068675601016	0.625525596592423	-0.768630646970375	0.625510803370201	-0.768401115698935	-0.0114922909429234	-0.00512583943042332
4.7	-0.0107446131929315	-0.00606591356065163	0.498250379184324	-0.856725359527481	0.498367386092752	-0.856480447877184	-0.0128391046116015	-0.00354557281813821
4.8	-0.0120438237081455	-0.00450655495870561	0.358779108987941	-0.923497246282176	0.35907293526759	-0.923308481536745	-0.0137866140988499	-0.00164194593233636
4.9	-0.0125268216740284	-0.00318843767520878	0.211181927085254	-0.967429215747551	0.211441839125192	-0.96737803428417	-0.0140237997261002	0.000620837885515172
5	-0.0130357986684099	-0.00171329528895305	0.0591438022897075	-0.988975977372091	0.0593021517480638	-0.988847796771583	-0.0135486853585635	0.00314125875499995
5.1	-0.0121829873949948	-0.000274278913306459	-0.0957189131907172	-0.986268347672365	-0.0953973016229429	-0.986205507018481	-0.0118165004148435	0.00562522223519712
5.2	-0.0112137278445416	0.000361046752741503	-0.247795636513777	-0.95916722327216	-0.247367668797066	-0.959289500733057	-0.00987186017417719	0.00754504343480872
5.3	-0.0106199115884561	9.31814170259954E-05	-0.393580432072615	-0.909108854098893	-0.393291122951581	-0.909453886652542	-0.00748199985830246	0.00905193912172487
5.4	-0.0109789831119846	-0.000163841132124742	-0.530163514803502	-0.837318665370178	-0.530027359059701	-0.837608721860156	-0.00514732578579051	0.00983024395724308
5.5	-0.013099558427316	0.0010112113085979	-0.654566613804357	-0.744399216066187	-0.654516939231841	-0.744713770019076	-0.00366766862852474	0.0107715859683895
5.6	-0.0123531794982458	0.00421640601956875	-0.761509007784956	-0.632999803791166	-0.761522721118971	-0.633170364587127	-0.000431788152141908	0.0118328829580772
5.7	-0.0112452986268333	0.00539392555896149	-0.85035043915425	-0.507194022295196	-0.850326853746944	-0.507369367175796	0.00239428675144637	0.0115219702155575
5.8	-0.0103327021950917	0.00655821900511436	-0.918696590870627	-0.368913213074773	-0.918741849908459	-0.369205687593629	0.0049246851329525	0.0109417840704411
5.9	-0.00946554877922111	0.00671572479844904	-0.96497740108686	-0.221561777367561	-0.965098053228934	-0.22160958019068	0.00730953818787684	0.00970959311279234
6	-0.0108079594838825	0.00708189320600235	-0.986774388663362	-0.0685763380668312	-0.986771470090801	-0.0686450721469765	0.00812298626190542	0.00817479942392461
6.1	-0.0107513604517632	0.0103768355989095	-0.985195189092111	0.0845363307605593	-0.985198521121024	0.0844329614131066	0.0100557975983693	0.0077921578102674
6.2	-0.00904684974240462	0.0125183155582225	-0.960268819810321	0.236546251105189	-0.960317168071431	0.2363644939348	0.0120529278985054	0.00554329305449564
6.3	-0.00717349159826765	0.0137183114913845	-0.911767019958954	0.382877061825043	-0.911791566853011	0.382748346566832	0.0130926691264915	0.00258325303003594
6.4	-0.00507464187427975	0.0140574533657097	-0.840728917524878	0.519686966671974	-0.840720554031335	0.519473347366776	0.0131426054410712	-0.000817084748356339
6.5	-0.00364185400369955	0.0136492131258994	-0.750011881390549	0.64288491172155	-0.75011251422387	0.642712713427476	0.0121674792359914	-0.00408397550633543
6.6	-0.00184570080401079	0.01323270918877	-0.641672759189524	0.752071072452676	-0.641821444493324	0.7519251266953	0.010831606141762	-0.0067890433168446
6.7	-0.000756920025212027	0.0120669520464684	-0.516699170069512	0.84272640339286	-0.516820612051876	0.842569270211886	0.00855165517903909	-0.00912385509627408
6.8	-8.69681729566566E-05	0.0113126264955735	-0.379270543012341	0.912384266223123	-0.379481816625568	0.91230950298842	0.00581652728944346	-0.0104051469370545
6.9	0.000352905810245104	0.0105898278497434	-0.233288869683622	0.959692228957183	-0.233539560030076	0.959688719690347	0.00334457601640887	-0.0108577850169107
7	0.00105001576942811	0.0105247610389692	-0.0819261937549194	0.985017861875145	-0.0821846903645487	0.984987970240017	0.00112105222160794	-0.0107863136369801
7.1	0.00226978419902766	0.00983907982067355	0.072877236694741	0.985613693015491	0.0726704271325653	0.985601970341481	-0.000672393966299461	-0.0105109362952162
7.2	0.00312014701317756	0.00878168423424604	0.224946366260699	0.961753446996071	0.224691125365639	0.961798000278193	-0.00235300770601434	-0.00978137971744681
7.3	0.00337273646800134	0.00752883809135544	0.371216845414715	0.914974735453832	0.370976851669634	0.915065892939167	-0.00383059111016194	-0.00871329577845151
7.4	0.00342216523868478	0.00636302688089544	0.508647928212507	0.846445496006849	0.508429932283284	0.846607764922356	-0.00518287621254327	-0.00747568326184498
7.5	0.00260541151534135	0.00548703763106551	0.634712901045915	0.756703814821905	0.634553295563326	0.75687614464151	-0.00639156259379207	-0.00565544500118178
7.6	0.00292660724808574	0.00541485512007841	0.743614665443398	0.648110929351191	0.74339993906754	0.64827223794682	-0.00621714709290107	-0.00382083095873151
7.7	0.0031945868104316	0.00462133253986402	0.834588666458867	0.525056367239028	0.834438255625952	0.525251387072347	-0.00596627478461305	-0.00243897506836435
7.8	0.00347713642994016	0.00367185223204387	0.905965656576962	0.389184528490055	0.905845399665265	0.389406112627225	-0.00517752949013623	-0.0011739954852288
7.9	0.00317248977358118	0.00209466881187202	0.955364952161964	0.243532410102906	0.955325121045803	0.24375767856964	-0.00413682923444074	-0.000370020976387316
8	0.000324296004711636	0.000630542441486691	0.980249460264133	0.09183258746618	0.980320619302551	0.0921236914160231	-0.00443375257578882	5.37046325806313E-05
8.1	-0.00159459321433736	0.00320720754590766	0.982376921670944	-0.0602092461745825	0.98250119837634	-0.0599389829268145	-0.00346391523132041	0.00236183197543919
8.2	-0.00142917931912666	0.00512163640280979	0.961338484014624	-0.211766380803383	0.961404662091128	-0.211471267764653	-0.00176672414260687	0.00319077042410814
8.3	-0.000928110704781854	0.00676009798269228	0.916634043729368	-0.358433542002701	0.916771694126197	-0.358178433030023	-6.44250759450827E-05	0.00343038064922278
8.4	0.000705600095461263	0.00769597857816721	0.849283590134133	-0.496097618065875	0.849494999673388	-0.495898785064586	0.00187179008599625	0.00296250205161163
8.5	0.000799877289828747	0.00678808101905353	0.762459769143898	-0.620482897543065	0.762575178830291	-0.62035750182795	0.00266486158695166	0.00118141325106667
8.6	0.000536632788273475	0.00880453030139847	0.657583455558385	-0.731894989054821	0.657780320297682	-0.731710127465815	0.00311595384104212	0.00108205093870049
8.7	0.00232369883903086	0.0103594890718991	0.535651581019343	-0.825059116688855	0.535932598328457	-0.824950260767159	0.00425596312111187	0.00015482151967456
8.8	0.00500117599497476	0.0108406432511049	0.401106562743846	-0.897819785444277	0.401311983998431	-0.897765598305344	0.00466422458069137	-0.00116086429473357
8.9	0.00808289641610206	0.0100940907982114	0.257403194061612	-0.948724494658693	0.25764409704347	-0.94858451412031	0.00504058781630156	-0.00222862025587165
9	0.0106918812352459	0.00735807885528736	0.107635861466622	-0.978059763336431	0.107997110743644	-0.97802972425984	0.00526714286947808	-0.00354730617630303
9.1	0.0124429170615441	0.00446672246218363	-0.0463273909229451	-0.982738504947092	-0.045975741736945	-0.9827530721396	0.00569099569816441	-0.00457297366183264
9.2	0.0132093498914484	0.000343088547120649	-0.198151460161243	-0.963022880294212	-0.197796621366494	-0.963093366759257	0.00599546100313733	-0.00604039754563104
9.3	0.0120252308460986	-0.0032756026399437	-0.344766861232623	-0.920579669984009	-0.344410740880932	-0.92064369649203	0.00580394694762542	-0.00713566953865677
9.4	0.00994132020772712	-0.00640734055867993	-0.483183862955978	-0.856527561049849	-0.482861209321779	-0.856674777741994	0.00556822091227517	-0.00811577532884844
9.5	0.00577193616388455	-0.00682993750885682	-0.611267392562181	-0.770729082763328	-0.611061628842224	-0.770866185912339	0.00432140869161646	-0.00791799881167259
9.6	0.00553261387728124	-0.00583788136053415	-0.722483350360528	-0.665683375015817	-0.722211423631473	-0.665867638961	0.00517755832457189	-0.00764336612804577
9.7	0.00494348986235948	-0.00684070839094899	-0.816483954924068	-0.545943701690222	-0.816238271751439	-0.546211993484445	0.00510308270079112	-0.00872438819597651
9.8	0.00365885725752944	-0.0079863781291156	-0.891361572937926	-0.41289374332536	-0.891152899310286	-0.413167695601117	0.00445014591311017	-0.0092824032761816
9.9	0.00189596368182661	-0.00937181811358242	-0.944823107827544	-0.269239493342352	-0.944710846675972	-0.269567850311381	0.00415643050211112	-0.00982678206091984
10	-0.00303732306173004	-0.0103161639708268	-0.97383794827689	-0.118986299705016	-0.973758022813347	-0.119363367388274	0.00219855731692231	-0.0102007666426064
10.1	-0.00590481560447806	-0.00668442336640649	-0.980383175706879	0.0321688757373871	-0.980362738443026	0.031692841224156	0.00209186933800866	-0.00864368345970004
10.2	-0.00668705119592461	-0.00466297725534336	-0.964028478313929	0.183744851145849	-0.964012827878216	0.183296556181767	0.00246963731235382	-0.00872303464163039
10.3	-0.00751986328818818	-0.00284097546836751	-0.923839230387465	0.331240638956119	-0.923973250430953	0.330701909606014	0.00230002721395652	-0.00922325707370371
10.4	-0.00780398041518905	-0.00191084528427146	-0.86064775890128	0.470295653164844	-0.860911045565612	0.469761732647285	0.00222010490184372	-0.0101458116371819
10.5	-0.00978143992227246	-0.0015160630766905	-0.777953287853413	0.596554395235017	-0.778233566211233	0.596168447504489	0.00133537375589411	-0.0117807319035231
10.6	-0.0120039257160909	0.00118432292591718	-0.677000483828704	0.710796429565242	-0.67742429793848	0.710452401711068	-3.76257518604036E-07	-0.0123972412814398
10.7	-0.0123978300076114	0.00496283029833434	-0.558411429105402	0.807550721927802	-0.558820965645323	0.80726233211185	-0.000689740870026488	-0.0126389375640812
10.8	-0.0111973338496762	0.00838562352823594	-0.426255516626091	0.884206865640468	-0.426763772664376	0.883977215030149	-0.00120548269394267	-0.0130579357175233
10.9	-0.00918403094172999	0.0112508631408227	-0.284571080450317	0.939294443610988	-0.285057251222418	0.939242067198046	-0.00204089802488083	-0.013761256453078
11	-0.00676423666633662	0.0132300397548817	-0.136033231955093	0.973541808042091	-0.136578732534904	0.973535758652138	-0.00311509408084513	-0.0143619556132161
11.1	-0.00321884228395244	0.0148098102794119	0.018020385091097	0.982842146792562	0.0173918688951262	0.98292375718874	-0.00395286918312531	-0.0149519656837598
11.2	0.000462501042206368	0.0147694162446837	0.170136499757013	0.967721646692413	0.169617822199132	0.967923379534215	-0.00505271040521232	-0.0155740871461793
11.3	0.00394495227777389	0.0139286095304474	0.317760637152237	0.929775916170758	0.317331209677228	0.930037095843035	-0.006057108343489	-0.0157998152292135
11.4	0.00678830142729157	0.0115392165863682	0.458337248151846	0.870112172977331	0.457872718582165	0.870370781788549	-0.00716580313409725	-0.0159924619910743
11.5	0.00741657066573929	0.0102867432337016	0.589296274846217	0.787828007103321	0.588937992343239	0.788245776954748	-0.00939049419937732	-0.0151636076537197
11.6	0.0104362273240637	0.00949280319587097	0.703279555351755	0.686017689817002	0.703012826059945	0.686497438767703	-0.00980370516043586	-0.0137724511065659
11.7	0.0130778570147336	0.00677574490753796	0.800962603655056	0.569169146240353	0.800723349292685	0.569590504262989	-0.0106432040707565	-0.0132148485455001
11.8	0.014586696252389	0.00304781232526977	0.879959255173015	0.438144316390941	0.879774622533317	0.438696164138767	-0.011751374339446	-0.0122579736155047
11.9	0.0150717221151422	-0.00160095439385319	0.93784398480626	0.295840592159147	0.937805611687163	0.296384797058937	-0.0126309164254198	-0.0110990751616239
12	0.0107924190998104	-0.00616536431641468	0.970992262966211	0.1462688674468	0.970980187724664	0.146747937030735	-0.0147339336345336	-0.00987516205613634
12.1	0.00816743071302897	-0.00585255260930095	0.982082530591749	-0.0048368536858128	0.982057384632879	-0.00436426746321212	-0.0146052603110753	-0.00668639605462263
12.2	0.00640116455801356	-0.00674505599329595	0.970013357547789	-0.157347454367324	0.970119581572079	-0.156910116688965	-0.0139392429094629	-0.00499735555858576
12.3	0.00445432554451975	-0.00711970285920761	0.933775215227256	-0.306217582517429	0.933960675656571	-0.305859238041166	-0.0132821494673959	-0.00358386458350105
12.4	0.0027823346482377	-0.00769675497591008	0.874459629404318	-0.447340648172428	0.874592232576803	-0.446965801741659	-0.0122226741514074	-0.00260025489927086
12.5	-0.000439362297477513	-0.00888582618586332	0.795080885144061	-0.576112266831938	0.795538177924639	-0.575718981745598	-0.0121878503830008	-0.00270767246008765
12.6	-0.00372919672429277	-0.00666455678115541	0.697153694532408	-0.693592653904845	0.697500054543581	-0.693282080255401	-0.0120448777683558	-0.00131875014264388
