# GHZ S RI R 50
0.2	-6.23210135263875E-05	-0.000300375425812829	0.950414009051259	-0.307521648980878	0.950187614743465	-0.30766389446324	0.000152796633778867	-0.000203433457915192
0.3	-0.000427170687134662	-6.98075093940403E-05	0.890871015129911	-0.451377481624149	0.890733436441355	-0.451430905107788	-0.00016613808130678	-0.000435077065927212
0.4	-0.00055845849427439	0.000198177103068652	0.809809650870664	-0.584098363331946	0.809849984646386	-0.584238193492235	-0.000343323318934408	-0.000383994452714361
0.5	-0.000581277260744654	0.000956052248622748	0.709044320461414	-0.703289962832432	0.708933534223797	-0.703386117831889	-0.00015858980065807	7.50762893323945E-05
0.6	-0.000109056146115627	0.00077914094127142	0.590725613160802	-0.804577014193549	0.590535662820198	-0.804580035996304	0.000277420744361138	-0.000462615826779453
0.7	-0.000319367885481953	0.000961036123271828	0.458604958553263	-0.886320590605654	0.458530787200194	-0.886355098217159	6.1881647622348E-05	-0.000975285014141767
0.8	-0.000268377910169145	0.000974206145773934	0.31529777443308	-0.946938573318324	0.315178888531882	-0.946851705653295	-0.000329476783031827	-0.00129564783911789
0.9	-0.000626023732300483	0.00124353370037	0.164063496419913	-0.984449292127075	0.16391408425497	-0.984406360363523	-0.00121567650737482	-0.00161659352071703
1	-0.000841361463598051	0.00245112260281182	0.00879205956955421	-0.997272553393565	0.00867372417159208	-0.99724279724179	-0.00215558183749033	-0.000488027040738257
1.1	0.000726781068528117	0.00256896571131837	-0.145063225818301	-0.986589203742355	-0.145712257256196	-0.986554224685102	-0.00137439727614278	-0.000174697737733304
1.2	0.00120101147370811	0.00121387957585548	-0.297494093028678	-0.952101000367655	-0.297487095578933	-0.952156827766015	-0.00125633230142557	-0.000359146316082497
1.3	0.0016410919453688	-0.000501761675238834	-0.441921643413681	-0.894107999430638	-0.442014005033763	-0.894132514940171	-0.000115988352043416	4.43855225730146E-06
1.4	0.00170729115050626	-0.00270386979672459	-0.575252883499152	-0.814263265158344	-0.575326823096926	-0.814163400804352	0.00140232221040585	-0.000627536378601086
1.5	0.00235028639412416	-0.00408803637396111	-0.694278495697436	-0.715114658359109	-0.694303158499597	-0.715042433158462	0.00349413179236541	-0.00218279117400025
1.6	0.000793283810480074	-0.00562750520963294	-0.7971927991012	-0.599243814455027	-0.797623605769887	-0.598741509842804	0.00186065044013657	-0.00459868141426061
1.7	-0.000211321403108219	-0.0047715081638986	-0.880680151766776	-0.467582228962762	-0.880985113665157	-0.467090409039667	0.000144383965757737	-0.00443989760400454
1.8	-0.000776494057277389	-0.00411616657425397	-0.942578424757003	-0.324373178924541	-0.942593913992587	-0.324363664858359	-0.00121741893529726	-0.00418106563533879
1.9	-0.00110866862228533	-0.00290926533312253	-0.981352992439145	-0.174005491543041	-0.981397709164682	-0.174058354089064	-0.00231121286207219	-0.00312946114388012
2	0.000436303292640402	-0.00227170172132963	-0.996969879102397	-0.0200382521733109	-0.997064159833186	-0.0193860055398294	-0.0012529573869453	-0.00211192404630293
2.1	-9.57269206938025E-05	-0.00404822687339736	-0.987488023746797	0.137311038122968	-0.987589229535225	0.136825172635097	-0.0018963710877761	-0.00369900921600825
2.2	-0.00171182185548617	-0.00400482826959545	-0.953759535414908	0.28834213668308	-0.953798056557433	0.288476480054374	-0.00345780287559589	-0.00340198038073038
2.3	-0.00281515038670187	-0.00342179659090538	-0.897196320150748	0.432867724144794	-0.897031651632426	0.432955978898373	-0.00459998473511256	-0.00270504180287964
2.4	-0.00417901319353174	-0.00237527820134707	-0.818567763429871	0.567697209175468	-0.818861745269879	0.567234562514906	-0.00575466916052538	-0.00147522767108496
2.5	-0.00359779304245453	-0.000117918260759223	-0.719853697011955	0.688663240237703	-0.720158884313039	0.688282564680609	-0.00465472845193317	0.00059378796540559
2.6	-0.002863432623601	-0.000789167335634688	-0.603653291819259	0.790874451620634	-0.603574144468328	0.790814520198999	-0.0031042695897804	-0.000425576951542755
2.7	-0.00322140866065324	-0.000794232772627404	-0.473441105256015	0.874540516433339	-0.473411493499414	0.874554499128002	-0.00331580414757416	-0.00118001313678819
2.8	-0.00353500381211337	-0.00055048461463719	-0.33187365749332	0.937305143716771	-0.331754777134448	0.937389235745712	-0.00365889020924606	-0.00131115586191016
2.9	-0.00299621931376531	1.56256850382559E-05	-0.181675441233606	0.977263746385686	-0.181670665737912	0.977318622577774	-0.00359146921520209	-0.000614000250323158
3	-0.00208967862088861	-0.000103061502822296	-0.0270246081097907	0.992162027721266	-0.0270885196228069	0.992233915509216	-0.00258038326749464	-0.000314471457769515
3.1	-0.00174118430535875	-8.18673070077717E-05	0.125554058448654	0.984120674554846	0.126202802842285	0.984198490687152	-0.00233446061788666	-1.59148171378302E-05
3.2	-0.0010712541691374	-1.71162408375331E-05	0.277545183442133	0.952502104811877	0.277535439318488	0.952541770005665	-0.00162799062684524	0.000501145882953198
3.3	-9.29818459641782E-05	-0.000276968902267428	0.422871633650954	0.89707819122115	0.422250552818104	0.897363404881537	-0.000510985601771027	0.000641147604472657
3.4	0.000639407164208904	-0.000570928283135126	0.556165616133683	0.8199965432274	0.556081443494952	0.820112280611838	0.000869264964775039	0.000527123742075821
3.5	0.00225969527722709	-0.00193255419947382	0.675291668799767	0.724047123788068	0.675306010154612	0.724073217382472	0.00284089834769944	-0.0010956165238255
3.6	0.00118037505497528	-0.0036532507578426	0.779694787008058	0.611224428213628	0.780114667755045	0.610828398219949	0.0020234274657065	-0.003229742194473
3.7	0.000617095681548608	-0.00404821925437011	0.865363700033468	0.481542918242978	0.865371414616817	0.481669307815717	0.00131348797588432	-0.0037911982828955
3.8	-8.75991210484385E-05	-0.00441765000044144	0.928923439624649	0.34105699420751	0.928952840956017	0.34123986748926	0.000493984774278514	-0.00437024455080437
3.9	-0.000427002800987511	-0.0042695892725196	0.970074836187984	0.192584711447775	0.969979719773957	0.19317206208311	-0.000701925737786895	-0.00445386303753952
4	0.00059249447003226	-0.0043400037267617	0.989038628949927	0.0407167708986685	0.989120767422896	0.0407593171841531	3.30650534746282E-05	-0.00446863776723914
4.1	-9.45535909431391E-05	-0.00661304792139563	0.982823684924582	-0.114496257331545	0.982762056003321	-0.11443192278021	-0.00120924435820627	-0.0067945667593459
4.2	-0.00201923196480857	-0.00721249298877419	0.951865520525906	-0.266003846394515	0.952062229672411	-0.265437084199229	-0.00347717636190449	-0.00726396465397203
4.3	-0.00358991074627934	-0.00765987873341511	0.898979432197365	-0.409479945441489	0.898980415684777	-0.409461472438825	-0.0056747928729922	-0.00736425456329524
4.4	-0.00586352578223208	-0.00731188177946033	0.824742274773382	-0.543832597820918	0.824662671025651	-0.543816233492425	-0.00842390840541774	-0.00644707025243251
4.5	-0.00649248065066439	-0.00581176263705146	0.729405055500295	-0.666225594629801	0.729282969521861	-0.666079037324951	-0.0094136846186637	-0.0039455292755244
4.6	-0.00720728687324094	-0.00629465196436902	0.61606721890319	-0.769775825861268	0.616054368126429	-0.769547351356394	-0.00984652725461112	-0.00374807882135475
4.7	-0.00892110823875859	-0.00629134432627381	0.489361202726228	-0.85529761267089	0.48947925784296	-0.855054932810352	-0.0116133200908289	-0.00304963343241343
4.8	-0.0106015180995627	-0.00541338092425725	0.350585993050701	-0.920437071387317	0.350879337379695	-0.92025135169181	-0.0129645252871886	-0.00156508072907114
4.9	-0.0116394335455872	-0.00437514455962906	0.203056261941785	-0.963060284497285	0.203314960900106	-0.963011252436016	-0.0136508133633333	0.000646639935965807
5	-0.0119680023681832	-0.00341228630889055	0.0514180950019639	-0.980775281765135	0.0515759967780643	-0.980649374279292	-0.012892271751632	0.00284573482516575
5.1	-0.0128352616917256	-0.00279270024780906	-0.0993671186546529	-0.976815649392961	-0.0990481581880249	-0.976754857949713	-0.0125771799088478	0.00474844515246993
5.2	-0.0133160742147114	-0.00107652836120796	-0.249525938755047	-0.949905383512542	-0.24910215075714	-0.950028332089774	-0.0116254817693998	0.00768957016389563
5.3	-0.0131953305292367	0.000513547114206547	-0.393663403143099	-0.899490151784471	-0.393378019746085	-0.899833259724758	-0.00940327134993395	0.0106919355008451
5.4	-0.0121890642913337	0.00278680520071734	-0.527821158930816	-0.826918397429803	-0.52768743171606	-0.827206007892849	-0.0057819433824205	0.013476380888114
5.5	-0.00957150428808432	0.00239384048239741	-0.647860888583461	-0.735851948929615	-0.647811950695006	-0.736163091324201	-0.000185266485098285	0.0127349383920726
5.6	-0.0113242650545733	0.00199698634865989	-0.754877366306091	-0.627419587546666	-0.754890968642023	-0.627588654695846	0.000480816060874989	0.0106696994849062
5.7	-0.012187694135289	0.00390900966887793	-0.843088992077659	-0.502433441696211	-0.843065678648517	-0.502607258926454	0.00159964861014783	0.0111744026101751
5.8	-0.0122470946965204	0.00626260034284093	-0.910149971729211	-0.365582613869087	-0.910194783658973	-0.365872382844615	0.00337030457811264	0.0116059685559027
5.9	-0.0117624177710848	0.00913940663290246	-0.955334302999825	-0.221039683991346	-0.955453716057139	-0.221087228246285	0.00537113045761376	0.0126404451801465
6	-0.00778695876556822	0.011420366065139	-0.979627730958537	-0.0709600578399671	-0.979624633368756	-0.0710282992125641	0.0108327396342053	0.0126188106548099
6.1	-0.00671494738004261	0.00975690670458408	-0.978336813690293	0.0830467331444308	-0.978340028299456	0.0829440886831933	0.0130995742033901	0.00777343360766218
6.2	-0.00671048293774657	0.0103263739851486	-0.952888455302554	0.233358994966263	-0.952936171488501	0.233178630061679	0.0133110341259834	0.00458756486008612
6.3	-0.00648356867564747	0.0109191492383936	-0.905279715604292	0.377631340757782	-0.905303760874805	0.377503610724998	0.0129932126839599	0.00151481688979156
6.4	-0.00604329346958623	0.0119390190598844	-0.836539380013639	0.51332751602297	-0.836530381874088	0.513115416691814	0.0118541623035629	-0.00104523261389692
6.5	-0.0048085490657425	0.0125103096821646	-0.746053086464827	0.638039307406176	-0.746152899679211	0.637868070472877	0.0109856595837905	-0.00345045407713539
6.6	-0.00367456099127848	0.012936524118751	-0.637393539765189	0.744312153109916	-0.637540656744479	0.74416722097124	0.00928961675306831	-0.00541012003742017
6.7	-0.00199774866511617	0.0131041765701814	-0.515182233318956	0.833599117766034	-0.515302069183744	0.8334429203079	0.00776373971379389	-0.0067249384372946
6.8	-0.000165787596648206	0.0126911898187702	-0.380188572133921	0.903585430915511	-0.380397864157491	0.903510352426929	0.00609800872039395	-0.00794749952171595
6.9	0.00142272617329494	0.0116735855383723	-0.23517695804692	0.95194607639689	-0.235425838061139	0.951941662272801	0.00448460286815689	-0.00877266708361128
7	0.00266175292813498	0.00990374199828269	-0.0846203846777432	0.975210939431456	-0.0848762779482809	0.975180421981151	0.00258068266925878	-0.0101902670133443
7.1	0.00257428557836327	0.00877525528431128	0.0655202693229638	0.97704517456368	0.0653154410318838	0.97703215664326	-0.000426038855903093	-0.0102001609339369
7.2	0.00303514754241923	0.00797518495909951	0.216130934401148	0.955977840664849	0.215877337794807	0.95602017142438	-0.0024563317561416	-0.00916424612652254
7.3	0.00306525897853071	0.00687460612999479	0.361854353905367	0.911112748819437	0.36161541858525	0.91120149519463	-0.00413301454033548	-0.00786867757643359
7.4	0.00310144372034883	0.00609723702483146	0.498296243735241	0.843491194839005	0.498078775867489	0.843650548733618	-0.00542650719020754	-0.00613766717362081
7.5	0.00338207426903866	0.00464170803753918	0.621261893266641	0.757546336757015	0.621101687721735	0.757715518020356	-0.00552100973521964	-0.00481659529860835
7.6	0.00212909075542832	0.00309955961047928	0.732819736789886	0.653575201073784	0.73260416685487	0.653733325339403	-0.00670676325876454	-0.00421795118984853
7.7	0.000636050058769134	0.00301749423522687	0.825801218281521	0.531866323831694	0.82564932331089	0.532058996692352	-0.0077861101105256	-0.00216009834684115
7.8	-0.000310686652809295	0.00369562489133492	0.898394247791301	0.397486452619012	0.898272053927338	0.397705915010099	-0.00788892471263839	0.000363595846279524
7.9	-0.000976407352334108	0.00539315197678818	0.949136168828002	0.254443049197536	0.949093705450338	0.254667065071896	-0.00692202514582779	0.0038834210767686
8	0.00209800027382214	0.0069178425539639	0.979594786330507	0.104729984707827	0.97966217034707	0.105022184162381	-0.00253744607680094	0.00656648393826574
8.1	0.00239537873915887	0.00471783281114177	0.984097752652756	-0.0502128481604506	0.984219400287639	-0.0499410080186363	5.54067624578213E-05	0.00443084996646031
8.2	0.00164990909006294	0.00451376592807252	0.96408148106245	-0.202110554106841	0.964144695695105	-0.201814587113647	0.000584213882353171	0.00370544249151231
8.3	0.000887239390349645	0.00477955425712464	0.921520937518693	-0.348922421344823	0.921655982741335	-0.348665542725342	0.00108777508752203	0.00304436912844304
8.4	-9.67986835205823E-05	0.00582239216754549	0.85752526241313	-0.4880987322972	0.857735097772636	-0.487896898164779	0.000724575641426543	0.00288265211355359
8.5	0.00141420692082057	0.00864281364606476	0.770774145680067	-0.617316126882109	0.770889095036534	-0.617189259049415	0.00287689713900929	0.00457304583878879
8.6	0.00333768012562551	0.00712862857387816	0.664808127743283	-0.728120215032651	0.66500391306531	-0.727933393750145	0.00518806492140309	0.00142676339559491
8.7	0.00312795275182721	0.00689819512384045	0.544672516042214	-0.822373644635487	0.544953294087268	-0.822261915135899	0.0046429553895242	-0.000675219861420256
8.8	0.00372714588987278	0.00700020837136615	0.410981045288682	-0.897768132648197	0.411186800134046	-0.897711838379416	0.00363988715091683	-0.00202465570221781
8.9	0.00432274130488465	0.00703727003802164	0.265932318169922	-0.951713867218443	0.266173414791688	-0.951571332411721	0.00236683673175185	-0.00242027602711079
9	0.00627115339363659	0.00699694485248362	0.114375707022448	-0.979669040434508	0.114737615097184	-0.979636535062364	0.00246492489754177	-0.00161264016507865
9.1	0.00775406262287164	0.00555329203792266	-0.0370757723778167	-0.986547056263939	-0.0367227796375338	-0.986558306099136	0.00283109472564991	-0.00180513418179524
9.2	0.00952383931076975	0.00411315094997348	-0.190376759332134	-0.970071141554752	-0.190019346723669	-0.970138749622059	0.00402724471272357	-0.00129244249213422
9.3	0.0111414983940968	0.00183070127062716	-0.339539597549207	-0.929041342290986	-0.339180758580851	-0.929102916989885	0.00614474085470915	-0.00158486895158034
9.4	0.0121210219576675	-0.000864529157834191	-0.479709602946518	-0.864327269133808	-0.479384253970866	-0.864472996967089	0.00820605302479084	-0.00242044214356187
9.5	0.0132888855088349	-0.00577477322231336	-0.606411572329404	-0.780775655056812	-0.606203392931411	-0.780911332592319	0.01120306368404	-0.00630105439947439
9.6	0.00860459976085395	-0.0100840815314266	-0.722502569324862	-0.678337957251555	-0.722226521537415	-0.678521259613775	0.00753458784762439	-0.0102512693412597
9.7	0.00475848278784659	-0.0104511110765633	-0.819870813990171	-0.557274719308166	-0.819620792059717	-0.557543615488485	0.00472309750513201	-0.0102391290990226
9.8	0.00153665784458788	-0.0104068672708762	-0.896545560070725	-0.42289394753994	-0.896333071389133	-0.4231689193791	0.002659678097671	-0.0096097859871691
9.9	-0.00172949740198383	-0.00849405965878349	-0.951275738099921	-0.279308663404976	-0.951159807196712	-0.279639112482774	0.00118833403960057	-0.00740727566201962
10	-0.000957847776445351	-0.00721649801808152	-0.985999168504913	-0.128417180802009	-0.985915135627522	-0.128798684890165	0.00434671077071993	-0.00603397803280569
10.1	-0.00424777533857502	-0.00879232854070897	-0.993659459457532	0.0287484367261995	-0.993636877559721	0.0282660975577903	0.00347814340676442	-0.00912927835910536
10.2	-0.00777602549685406	-0.00702062156400695	-0.976609677335772	0.182868197444044	-0.976592362979979	0.182414383215029	0.00145917048149833	-0.00915275567693713
10.3	-0.0104844610438657	-0.00419706376564115	-0.936671363442768	0.332377320402434	-0.936805295406985	0.331831304537995	-0.000115715940684463	-0.008770740410679
10.4	-0.0124504329026671	-0.000634831018196502	-0.874778907643656	0.474695812530273	-0.875044502911491	0.474153210158933	-0.00151615803878134	-0.00764419514571047
10.5	-0.011632709644667	0.00402057949751797	-0.788988351282545	0.607563745616896	-0.789273844397118	0.607172291059577	-7.28888521121422E-06	-0.00592449103022096
10.6	-0.00991201994250529	0.00554575701479485	-0.68337921625832	0.721339125573481	-0.683809155418395	0.720992025693742	0.00168088578277023	-0.00778154930162523
10.7	-0.00893201762223797	0.0071177270235354	-0.563350506156587	0.818596601427009	-0.56376565612136	0.818305644129911	0.00185903564812061	-0.00999821013712158
10.8	-0.00801768702332792	0.00835461316343528	-0.429065953624944	0.896681279469502	-0.429581334809297	0.896450208612559	0.000699302147052541	-0.0121542721129713
10.9	-0.00694542166857186	0.0102651272329977	-0.283140351802606	0.953026086834029	-0.283633112331269	0.952975681924048	-0.00109158373923994	-0.0132970702421026
11	-0.00469042164600138	0.0112367405574626	-0.130591373115415	0.982795668827981	-0.131141582461365	0.982793269185292	-0.00245069955317298	-0.0143604740336576
11.1	-0.00293464584088007	0.0124542543327724	0.0219790666473565	0.991525352580756	0.0213452686349415	0.991610118650532	-0.0047825918296063	-0.0148355273974327
11.2	-0.000110524489618778	0.0130770161454066	0.176336819397998	0.976693370109218	0.175813845493237	0.976899541019657	-0.00639868912156396	-0.014562322543718
11.3	0.00290621307489039	0.0130662663704975	0.326655421501821	0.937003659222156	0.326223363718664	0.937270078411183	-0.00761361705065166	-0.0137760086216083
11.4	0.00607062683567275	0.012647520335001	0.46823053343343	0.873405796849289	0.467764347612156	0.873669793939249	-0.00817009590571609	-0.0121217771368815
11.5	0.0105374024785248	0.00990811686642169	0.596123765348627	0.791081457443194	0.595764538905751	0.791503351414266	-0.00661703838107757	-0.0128563095246366
11.6	0.0105579491741669	0.00590000228640157	0.713784134631094	0.689535085795067	0.713517049300841	0.690021013805508	-0.00979060191299596	-0.0141608506568997
11.7	0.0107982434477834	0.00417588590644072	0.812687197200796	0.569012262185064	0.812448604986504	0.569439364422276	-0.012311452251453	-0.012559184712122
11.8	0.0106621904583341	0.00209062314949363	0.890626501114795	0.434906381793219	0.890444642342853	0.435464217548243	-0.0143876672037813	-0.0104112558034329
11.9	0.0103113606632908	0.00175513231529236	0.946494871509046	0.291957303440241	0.946459711717778	0.29250567353932	-0.0158837496820056	-0.0061352972929789
12	0.0131657744011939	0.000202814393885026	0.982735552675468	0.141584847817927	0.982726456360927	0.142069320867174	-0.0118832329434892	-0.00282821175313215
12.1	0.01171863073439	-0.00461242217611812	0.991690197504071	-0.015258114149746	0.991669796159425	-0.0147806143827077	-0.0116208105260766	-0.0044378751959874
12.2	0.00904099603623897	-0.0068203527535947	0.975942649951004	-0.169139161277776	0.976054468314583	-0.168699534133071	-0.0122071044803203	-0.0035944558385907
12.3	0.00640691864843949	-0.00818816253358809	0.937391789214761	-0.31826096578687	0.937582368495668	-0.317901946749199	-0.0123587402234855	-0.00275008808920576
12.4	0.00278386131613556	-0.00860906100079111	0.877392894859346	-0.460537514462917	0.877530635788124	-0.460160783528667	-0.0131185643130927	-0.00136246713199987
12.5	0.00153304308620348	-0.00698079946350381	0.792760635703566	-0.593643535123745	0.793228075881493	-0.593254128056773	-0.0113204150668808	0.00124872048438748
12.6	-0.000278732975952746	-0.00831543145947517	0.688997508481859	-0.707160117477762	0.689350056634242	-0.706853761492076	-0.0100254139706932	-0.000276261941236178
