# GHZ S RI R 50
0.2	-0.000114491594098958	-0.000340965151139101	0.950180678834561	-0.307591423076703	0.949954310289905	-0.307733608680601	3.47062401252952E-05	-0.000170272523001002
0.3	-0.000459263000652593	-0.000134430626282225	0.890561961370462	-0.451433088152818	0.890424407072247	-0.451486472157857	-0.000281932981636142	-0.000339081548057311
0.4	-0.000532092572666558	9.25742111589502E-05	0.809379103512607	-0.58408900924518	0.809419388751833	-0.584228799604458	-0.000374925533028728	-0.000244464111706508
0.5	-0.000575964101393679	0.000643937887610409	0.708586461995053	-0.703017307203044	0.708475720712531	-0.703113398120947	-0.000193606973996373	2.17194526994454E-05
0.6	-0.000290539115206334	0.000537260603985295	0.590432977462078	-0.804272974610385	0.590243106551702	-0.804275984497848	-1.93743096170508E-05	-0.000364836587453798
0.7	-0.000463052456426545	0.000789418820957209	0.458302644613149	-0.88597426813431	0.458228502670502	-0.886008752177115	-0.00018730006087383	-0.000639158184735963
0.8	-0.000373931723665674	0.000834200194557169	0.315028685729757	-0.946460094574289	0.314909873102975	-0.94637326141445	-0.000428456445211876	-0.000760296276700724
0.9	-0.000566295086077022	0.00120088210577825	0.163967649287027	-0.98380060406867	0.163818334759987	-0.983757702319475	-0.000879552051424346	-0.000871721200205399
1	-0.000348470151139306	0.00199030428327608	0.00902010437171679	-0.996787465391538	0.00890181936718877	-0.996757751215356	-0.000992647688739837	-0.000422455173957446
1.1	0.000868521525680972	0.00173847737588046	-0.144989907280008	-0.986187479256346	-0.145638673570047	-0.98615252369298	-0.000652088748994272	-0.000969303940981499
1.2	0.00136996712804824	8.87056801803196E-05	-0.297315837412312	-0.951587605598605	-0.297308842808524	-0.951643402487762	-0.000842776592424893	-0.00173326309233468
1.3	0.0014719792812008	-0.00213347295852017	-0.441548298223502	-0.893629164666787	-0.441640601756552	-0.893653676919495	-0.000541816940668773	-0.00191572927483177
1.4	0.00110871729621942	-0.00431218627599674	-0.574748191060601	-0.814013569679152	-0.574822120805658	-0.813913774825434	0.000123066093378163	-0.00218973948756631
1.5	0.00128859228598632	-0.00535435177577747	-0.694086936933667	-0.714930740058508	-0.694111593865055	-0.714858534332878	0.0014009675320296	-0.00287205804735588
1.6	0.000171066538200478	-0.00602404209325982	-0.796729292292065	-0.598781455920484	-0.79715977306895	-0.598279438505399	0.000383939383291808	-0.00348819801976146
1.7	-0.000367878390172594	-0.00522953350566445	-0.879982790126498	-0.467353136318965	-0.880287592322392	-0.466861711313403	-0.000183208977902162	-0.00303075164140236
1.8	-0.000728947806601752	-0.00463665539984141	-0.941898659277921	-0.324388866816637	-0.941914140890245	-0.324379362485153	-0.000748068350700088	-0.00292438697668148
1.9	-0.000747025498621585	-0.00369934191646055	-0.980854426514257	-0.174052657828615	-0.980899114521298	-0.174105500740247	-0.00112661225214138	-0.00258673094156922
2	0.000155813417638828	-0.00370906065174949	-0.996117269500153	-0.0198573337466368	-0.996211362193828	-0.0192056315696687	-0.00102211324516136	-0.00277393107547451
2.1	-0.000588196277713162	-0.00463372418945478	-0.986493548145854	0.136837858651398	-0.986594485685864	0.136352471284939	-0.0022136553020632	-0.00316982689419835
2.2	-0.00182009384992967	-0.00455690237132077	-0.953058647836795	0.287665416243303	-0.953097195463493	0.287799625563548	-0.00308864155781084	-0.00261199504799355
2.3	-0.00277958274582697	-0.00405239739828891	-0.896625794403283	0.432156154889165	-0.89646129675107	0.43224440169005	-0.00366482216072554	-0.00214070871737835
2.4	-0.00382194867915085	-0.00315964287395451	-0.817890705239797	0.566884475839473	-0.818184255231062	0.566422219464959	-0.004131425847255	-0.00164181225845696
2.5	-0.00348445637182493	-0.00192631638314005	-0.719379240766959	0.687081825889298	-0.719683676810283	0.686701449477901	-0.00365083361568778	-0.00164233959567018
2.6	-0.00376028099100659	-0.00220697227190991	-0.604024079319046	0.789501199799784	-0.603944932956934	0.789441410301102	-0.00424813806321517	-0.00240244788287534
2.7	-0.00421427843992151	-0.00163220245837772	-0.4739310622039	0.873406349618315	-0.473901486851701	0.873420350452501	-0.00520132192342475	-0.00204820431264438
2.8	-0.00420404925211375	-0.00101792947172541	-0.332517045175349	0.936160242980242	-0.332398351805036	0.936244380070617	-0.00540275992598154	-0.00117902597820659
2.9	-0.00327305777034706	-0.000577200541458632	-0.182765683999676	0.976007186019795	-0.182760985363281	0.976062011255065	-0.00486008807788409	-0.000151501772409812
3	-0.00243603816172205	-0.000848352981573724	-0.028900429809504	0.991699566062815	-0.0289644515810386	0.991771302513599	-0.00386042523325779	0.00044699969399847
3.1	-0.00182328447969858	-0.000870031783119974	0.124278152239193	0.984219914129171	0.124926755152845	0.984298561153447	-0.00294405584640793	0.00118747183782253
3.2	-0.00120176947890501	-0.00104648913908497	0.27628631484572	0.952596655190002	0.276276523909582	0.952636297803925	-0.00181325454904945	0.00148050207551697
3.3	-0.000284295569870101	-0.00134918063814871	0.421467436174753	0.897456098042434	0.420846104607776	0.897740341481927	-0.000466637165005761	0.00141777344313995
3.4	0.000467849506030578	-0.00182157453699569	0.554804373977834	0.821044306861161	0.554719992292468	0.821159910612661	0.000975322018913365	0.000820111137266433
3.5	0.00145824930211817	-0.0031226372652912	0.675030086539711	0.725333881904028	0.675044410768663	0.725360011079253	0.00188692774403744	-0.000746929964262752
3.6	0.00083528038343817	-0.00417991673933139	0.779297589817436	0.611878816024867	0.779717813009753	0.611483071723936	0.00160556597568271	-0.00167925239640645
3.7	0.000677011425150317	-0.00476112518099914	0.864896074209488	0.482488977009215	0.864903654667106	0.48261538135395	0.00175303291466926	-0.00232832583247145
3.8	0.00018179056272531	-0.00531534125086063	0.928800413588219	0.342200031469453	0.928829617062854	0.342382989353733	0.00152785409728336	-0.0033302387015215
3.9	0.000150939546294265	-0.00559249435119399	0.970497532978171	0.193462357328403	0.970401897896604	0.194049980809149	0.00081461834978872	-0.00444323854148285
4	0.000378762042041806	-0.00648906909466035	0.98887580798757	0.0408617287867433	0.988957926941726	0.0409042809085499	5.95604361199588E-05	-0.00595742564309119
4.1	-0.000756230305984041	-0.00791437156209054	0.982460246048644	-0.113416646774694	0.982398580404187	-0.113352407986661	-0.00239066135379964	-0.00697393298992384
4.2	-0.00251448582905753	-0.00830681286217859	0.952078982109401	-0.264806633094664	0.952274973889649	-0.264239696859376	-0.00453217079465773	-0.00673691547756418
4.3	-0.00402381984560367	-0.00850381149084537	0.899460147721051	-0.408507252454861	0.899461110969019	-0.408488777733009	-0.00648264128897727	-0.00633802043920413
4.4	-0.00581633390197664	-0.0079118842220374	0.825006670253296	-0.543013988283646	0.824927071306474	-0.542997694563381	-0.00839970363691951	-0.00528124648873059
4.5	-0.00627287405515746	-0.00720643597134915	0.729919610835144	-0.664389947504143	0.729797378345751	-0.664243727891986	-0.00943426775396486	-0.00427964303712144
4.6	-0.00751511641598923	-0.00725083418498173	0.617873578701454	-0.768613730098885	0.617860229961762	-0.768385232148846	-0.0113360790783687	-0.00350506492073066
4.7	-0.00888447217581152	-0.00703115873772713	0.49114615785417	-0.854865370377721	0.491263839799092	-0.854622353285042	-0.0131934909606834	-0.00192691698519808
4.8	-0.0103140571019473	-0.00619915376380282	0.352259813312437	-0.920270375070221	0.352552982552497	-0.920084088873104	-0.0143523573215512	0.000220885806012659
4.9	-0.011128693282188	-0.00531968677268295	0.20501259107243	-0.962854598021225	0.205271245740671	-0.962805041578424	-0.0145602175897303	0.00286095919492455
5	-0.0116138576217566	-0.00454312657336971	0.0541772075435112	-0.981864708091721	0.0543349615380104	-0.98173820879322	-0.0137201956143381	0.00541008782277213
5.1	-0.0120541526112043	-0.00379496882642649	-0.0979631744140527	-0.97872097950279	-0.0976437427427942	-0.978659563120528	-0.0121483375637357	0.0081439327429533
5.2	-0.0121587480467251	-0.00258985048834144	-0.248558595077787	-0.951648215056357	-0.248134013223189	-0.951770749109916	-0.00960700796740129	0.0104504026881487
5.3	-0.0119512224007863	-0.00173183163376323	-0.392835729036729	-0.901429569690771	-0.392549388995239	-0.901772736140333	-0.00648585146243672	0.0118374143017029
5.4	-0.0113353502077515	-0.000516661644294416	-0.527394442560841	-0.829563649085614	-0.527259919983551	-0.829851602906979	-0.00336632498290169	0.012273464441521
5.5	-0.0108466844114385	-0.000890778496582289	-0.649339687348348	-0.738390715444149	-0.649290425400598	-0.738702744351424	-0.00133061868300642	0.0112373643391192
5.6	-0.0120706938773716	0.000331711265005753	-0.756224745811147	-0.62856336612959	-0.756238369487381	-0.628732737954695	-0.000295564379988745	0.011944461517105
5.7	-0.0124006449755803	0.00212981604117345	-0.844290080941221	-0.503514484881561	-0.844266674357049	-0.503688575413628	0.00211417922480757	0.0125621698281294
5.8	-0.0122675916535218	0.00441966122564909	-0.91168911007194	-0.36656641513386	-0.911733903893295	-0.366856729852933	0.00470281458013129	0.012401467788982
5.9	-0.0112831053190963	0.00681224845739786	-0.957486795584066	-0.221328066903538	-0.957606481928157	-0.22137569103895	0.00729768631146377	0.01166173929254
6	-0.00881856914211485	0.00792947525809795	-0.980675571496888	-0.0698846745092222	-0.980672550707646	-0.0699529866710571	0.00941120964800178	0.00925649586294655
6.1	-0.0083286964850769	0.00814039446783402	-0.97881913987816	0.0829865883540224	-0.978822345633975	0.0828838938968257	0.00930840397524851	0.00760355712879549
6.2	-0.00763835711220639	0.00927249843044185	-0.953917217449306	0.233279484659237	-0.953964922233377	0.23309892394571	0.0100446352575798	0.00652526696568101
6.3	-0.00684375342709977	0.0100767154685093	-0.906426645602805	0.378022111504772	-0.90645071005643	0.377894222141016	0.0109461853517388	0.00474751721956147
6.4	-0.00574658064426075	0.0108103626363461	-0.837036033219777	0.51409175601409	-0.837027112197697	0.513879475364909	0.0115036476083422	0.00223297614391024
6.5	-0.0045008139786511	0.010745680106044	-0.746537159028512	0.637467190886707	-0.746636841096226	0.637295878517076	0.0114073224944989	-0.000960494397130595
6.6	-0.00335546848595133	0.0107745699983444	-0.639154213542205	0.74469584305343	-0.639301385303271	0.744550535216857	0.0104858185103722	-0.00373315574326133
6.7	-0.00215205019276013	0.0104631948425749	-0.516387245049716	0.834843214097567	-0.51650722859666	0.834686701692743	0.00871987586040125	-0.00637576668374219
6.8	-0.000903856002133643	0.010161166334193	-0.380752548798206	0.904854005989626	-0.380962134926907	0.904778815294749	0.00609145042863158	-0.00812896505942643
6.9	0.00038058359434095	0.00943845468744524	-0.23579903257876	0.952681714096077	-0.236048129711603	0.952677187586783	0.00351524460608447	-0.00885539416696558
7	0.0014522323201623	0.00839401693630539	-0.0861249051267802	0.977248329590589	-0.0863813216810953	0.977217398977545	0.000827851319980069	-0.00913677951422962
7.1	0.00210273514825681	0.00755427386756122	0.0659304597271428	0.97960942877989	0.0657250873721155	0.979596426135758	-0.00146346646005742	-0.00831155202220772
7.2	0.00290038073218757	0.0066044800330068	0.217092198217285	0.957789480799384	0.216838112767666	0.957832036246113	-0.00307813653008154	-0.00711389199178625
7.3	0.00317058478392461	0.00537823843797283	0.362816725922637	0.912632968588658	0.362577389829524	0.912721956266016	-0.00440843671122632	-0.00564231347136834
7.4	0.00341813746072561	0.00432043271067769	0.499425040646567	0.845534668892321	0.499207043819754	0.845694387371079	-0.00534119670072054	-0.00396041859002446
7.5	0.0032420215952758	0.0027415816567589	0.624544168843617	0.759077595589205	0.624383699922585	0.759247596964009	-0.00589386726491783	-0.00232809497378677
7.6	0.00247759927148273	0.00180503951004883	0.735503113687974	0.653040325119188	0.735287534161894	0.653199194287058	-0.00589217078440493	-0.000371195899469129
7.7	0.00173455929129035	0.00146804911305555	0.827820766798398	0.531160258483982	0.827668999329321	0.531353450291541	-0.00500189079897137	0.0013733574318834
7.8	0.00144713910809377	0.00158362219458797	0.900400204040409	0.396641431476537	0.900278178476268	0.396861424362171	-0.0034846311656963	0.00241686137692967
7.9	0.00144580449533043	0.00202839342298595	0.951524333741984	0.252729530576674	0.951482308142036	0.252954069412646	-0.00190354898477813	0.00266257251731783
8	0.00254002167842985	0.00112871742041496	0.980067983664457	0.101444962621959	0.980136359701916	0.101736971199003	-0.00107458327367747	0.00140627940304598
8.1	0.00115472701851557	0.000526139726627243	0.983556804579565	-0.0518529648178376	0.983678855320101	-0.0515814562737638	-0.00262328390769316	0.00181557805221762
8.2	0.000244857248458103	0.00114623553383898	0.963952736382249	-0.203493912074972	0.964016375885223	-0.203197986240531	-0.002830416110024	0.00333878414002756
8.3	-0.000566240409804656	0.0022425660188439	0.921259961582768	-0.350706625876921	0.921395519028131	-0.350449887525922	-0.0022111179378387	0.00468952646130366
8.4	-0.000614040238198753	0.00406044278503803	0.85604528272002	-0.490077952679186	0.856255554363151	-0.489876702863026	-0.000815345474918122	0.0058602216081076
8.5	0.00115394907091372	0.00534718290581741	0.769010923931585	-0.61703680404758	0.769125806382613	-0.616910238353939	0.00157387244925569	0.00536333447991079
8.6	0.00206849005064666	0.00497737867960733	0.664511768829552	-0.728523307089063	0.664707666549988	-0.728336564701066	0.00187715241441312	0.00444198696252777
8.7	0.00262062895952698	0.0051790091788228	0.543716810710282	-0.823218794416054	0.543997782223031	-0.823107404527817	0.00275200517030452	0.00445755534681054
8.8	0.00361059538834723	0.00517573041574506	0.409432459270915	-0.898081910466433	0.409638226973981	-0.898025957320078	0.0038701527460475	0.00403678916094634
8.9	0.00469939409569034	0.00514198617210762	0.264796405111289	-0.950824781064087	0.265037341521697	-0.950682622404583	0.00538822524051842	0.00340958510852352
9	0.00689752440596065	0.00422700021232218	0.114781201813116	-0.980121790119686	0.115143280586491	-0.980089139847154	0.00724010047928369	0.00171221826659059
9.1	0.00851539574340642	0.00234629286746586	-0.0386447623568776	-0.98722407901535	-0.0382915242353791	-0.987235888711101	0.00824200026563535	-0.000474955357259602
9.2	0.00992229213494405	-0.000300677645040175	-0.191990052695488	-0.969516660831839	-0.19163284001616	-0.969584863844215	0.00889061639444966	-0.0029868646901425
9.3	0.0101804074582121	-0.00300989334425455	-0.340372083310148	-0.928046340301076	-0.340013549520946	-0.92810828215314	0.00840163214909258	-0.00519263504818117
9.4	0.0103353633368779	-0.00538939351868398	-0.479959517437259	-0.864246031883036	-0.479634189765257	-0.864391852103467	0.00766500246193958	-0.00658464647048973
9.5	0.00949130757851138	-0.00890308763269829	-0.608862276846976	-0.780482975855093	-0.608654119716887	-0.780619273861162	0.00573780642618882	-0.00802623896231254
9.6	0.00694226114778626	-0.0108298058806902	-0.723725211268318	-0.676010860717764	-0.723449827954554	-0.676194739186378	0.00400388539099413	-0.00672062839719545
9.7	0.00457871775062992	-0.0117724902598121	-0.820025472065095	-0.555272044674351	-0.819776175022843	-0.555541109694944	0.00400684795061451	-0.00612715399119887
9.8	0.00201826299213168	-0.0121711137407231	-0.896589156759669	-0.421299395086642	-0.896377210820977	-0.421574502024645	0.00394055437318079	-0.00597391614677639
9.9	-0.000169491800879657	-0.0112424269017765	-0.951869874676743	-0.277129218279676	-0.951754701676197	-0.277459916679179	0.00443886788788922	-0.00609051371582396
10	-0.00141924438551523	-0.0118381399481095	-0.98426910328197	-0.124744708096716	-0.984186566990427	-0.125125660772665	0.0039886427482723	-0.00800137983447654
10.1	-0.00501582056127489	-0.0112620104407538	-0.991011457507505	0.030044116227012	-0.990989600582625	0.029563012029941	0.00173736852306404	-0.00745576086988541
10.2	-0.00760605263449798	-0.00941952140494816	-0.9745412682038	0.183720041593872	-0.974524542882052	0.183267063269297	0.00150860434602338	-0.00652067552092198
10.3	-0.0098128237150751	-0.00683267453049755	-0.934366582885657	0.333428788920164	-0.934501237267819	0.332884010654594	0.00159963961233916	-0.00660347195334981
10.4	-0.010988241735625	-0.00394667160807196	-0.870942512800648	0.475429902132134	-0.871208650869333	0.474889607588876	0.00183442328378165	-0.00753156845315908
10.5	-0.0109579751781971	-0.00146925491107719	-0.785197878513904	0.604797190919959	-0.785482074102922	0.604407615055999	0.00157711287351392	-0.0100149462487145
10.6	-0.0113821635979635	0.000442710205747112	-0.682022345836516	0.718865231811799	-0.682450853800381	0.718518775227456	-0.000971631263892882	-0.0116680254883919
10.7	-0.0113656224791871	0.00341792530492702	-0.562095121824482	0.816435213583741	-0.562509174576379	0.816144905990227	-0.00317344330072788	-0.0115413701072305
10.8	-0.009976916437363	0.00613710591059313	-0.427912773422703	0.893972930453569	-0.428426599986498	0.893742476312097	-0.00445002893537337	-0.0109063970945307
10.9	-0.00786231908373517	0.00843647614820949	-0.283271347650687	0.949137046092698	-0.283762216442626	0.949086217061238	-0.00540296079200404	-0.0105732249901539
11	-0.00518017462866187	0.00938522965594049	-0.133162721723587	0.98110278365023	-0.133712180994731	0.981098848876894	-0.00631953901852577	-0.0104949155205794
11.1	-0.00248711048013492	0.0103064392634312	0.0213065830713753	0.99062180922709	0.0206733160223846	0.990706079926	-0.00703073974309525	-0.00995522454368428
11.2	0.000563758189507225	0.0101987147949097	0.175431436365214	0.975040557966451	0.174909280181279	0.975246042877882	-0.00730726766888388	-0.00970356294887488
11.3	0.00358357108306321	0.00970347411840661	0.324774624155365	0.935535683877524	0.324343092435126	0.935801001834732	-0.00729789773055191	-0.00939927375565834
11.4	0.00679695069590855	0.00831378949379876	0.465798982052887	0.873664986933885	0.465332625712827	0.873927673041709	-0.00711210090187094	-0.0094195116457618
11.5	0.00914208589468989	0.00546321980099281	0.596518576070627	0.791407387788816	0.59615921981447	0.791829537046698	-0.0085390854938766	-0.0101078880180903
11.6	0.00998322977435224	0.00310773518878712	0.71274041233909	0.68804784275514	0.712473975783281	0.688532989989282	-0.00989471107578532	-0.00831270088602958
11.7	0.0109001840143815	0.00120107647899677	0.810733468398414	0.56848978175783	0.810495035012823	0.568915899414269	-0.00979943333726113	-0.00706050740891104
11.8	0.0113030767630428	-0.000845851205080476	0.889068761403246	0.435325278573841	0.888886529205357	0.43588223542405	-0.00970857173886566	-0.00632556380999496
11.9	0.0121969242654096	-0.00213834065009103	0.946246715814612	0.291900461647921	0.946211554568008	0.292448690458108	-0.00926877425081166	-0.00602797474655493
12	0.0130287200432209	-0.00585158544039034	0.98023165172003	0.139848291517339	0.980223244839787	0.140331446929643	-0.010077016770036	-0.00763731205229748
12.1	0.0113566658391022	-0.00877665603229957	0.988616135155099	-0.0144155392094765	0.988595414487867	-0.013939541879682	-0.0126830720376958	-0.00659802110131051
12.2	0.00913774269324399	-0.0113215517787582	0.973780921345283	-0.167817260711162	0.973892059505626	-0.167378573797821	-0.0140077428901016	-0.00496136702921506
12.3	0.0060480934400567	-0.012834766639038	0.935305078615154	-0.317066696000539	0.935495036757807	-0.316708444254741	-0.0151191870641506	-0.0031268699734476
12.4	0.00264000193407708	-0.0128660541084395	0.874066758992584	-0.45891098202146	0.8742040256274	-0.458535672869598	-0.0154575436138333	-0.000684239230920688
12.5	0.000831172059529446	-0.0125193850479551	0.790330780353995	-0.588163667039502	0.790794600306241	-0.587774933335721	-0.0148677240007073	0.000441355442702429
