# GHZ S RI R 50
0.2	-0.000457253479804493	9.77131863786131E-05	0.948468717785923	-0.307980884431738	0.94824256340758	-0.308122651743535	-0.000222850375139648	0.000171961478185025
0.3	-0.000534246434562973	0.000436241272048593	0.888407870770916	-0.451578656493705	0.888270513092541	-0.451631789223153	-0.000249580511219408	2.33624792304865E-05
0.4	-0.000216208204640832	0.000593961843993615	0.80676603433489	-0.583704187943791	0.806806054513362	-0.583843699123945	1.44143600461688E-05	-5.99569417318226E-05
0.5	-0.000300113776642349	0.000516232735083399	0.705998948808962	-0.701596804015581	0.705888443959253	-0.701692531480197	0.000131961827035904	-0.000439020421541025
0.6	-0.000513297625182726	0.000775762862103921	0.588299756922407	-0.802544098733657	0.588110389373063	-0.802546968064655	-9.50783897404693E-05	-0.000563395147638839
0.7	-0.000428519921280128	0.0013330118362606	0.456243872491593	-0.883764859490681	0.456169918609929	-0.883799182524718	-1.96935835881865E-05	-0.00074759864362038
0.8	-4.64291127607562E-05	0.00149059074893699	0.313335649993652	-0.943582014755518	0.313217287043214	-0.943495382778518	-0.000111816659332082	-0.000970779748548935
0.9	0.000394404099797418	0.00189069744972071	0.163071564250002	-0.980363363730609	0.162922793092255	-0.980320566426907	-0.000276954793144422	-0.00119162646647455
1	0.00107240682589618	0.00120737054768946	0.00897146210094807	-0.993619344313907	0.00885355368518292	-0.993589722216723	-0.000432014981679324	-0.00187769816222763
1.1	0.000499082346869986	0.000936424359237133	-0.144945122103243	-0.982755790368942	-0.145591658406522	-0.98272065805474	-0.00175355703029861	-0.00180222122069216
1.2	0.000592906860177131	0.000428496212523932	-0.29638209551545	-0.947838807582956	-0.296375140645065	-0.947894390217596	-0.00193284731710653	-0.00105519418022044
1.3	0.000613799824324999	-0.000685816937504782	-0.439641708884277	-0.890082270077257	-0.439733636327933	-0.890106696157938	-0.00106107354689394	-8.38457497415662E-05
1.4	0.000466090624399571	-0.00218516190605299	-0.572169648354001	-0.811070306647311	-0.572243330301277	-0.810970931873448	0.000378809432994166	-0.000124610365150371
1.5	-0.000171182274359441	-0.00257253749209535	-0.691355380848757	-0.712053414100637	-0.691379936374136	-0.711981494777496	0.00129010433314997	-0.000846483887430245
1.6	0.000376097795269806	-0.0019820013948618	-0.79262591814999	-0.596145065457069	-0.793054478131368	-0.595645652692111	0.00171268495091674	-0.00143042217060426
1.7	0.00110266280760406	-0.00224845407735054	-0.875119650675524	-0.465931401894388	-0.875423440719472	-0.465442737814807	0.00152098828002769	-0.00248765404583627
1.8	0.00121640988483724	-0.00281158025558197	-0.936813569504992	-0.324119235789975	-0.93682898837352	-0.324109799963291	0.000657565817158087	-0.0034169901500043
1.9	0.00117520507200599	-0.00350465303583187	-0.975741898616654	-0.174630393446763	-0.975786287739517	-0.174683040294773	-0.000262582011061505	-0.00413429276119428
2	-0.000413023482956928	-0.00425977997485469	-0.99028400990369	-0.0215769409931084	-0.990378755638485	-0.0209292046436281	-0.00224934931835085	-0.0043467054082188
2.1	-0.00105599745991063	-0.00303502740270252	-0.981395266329577	0.132981099008334	-0.981494117918215	0.13249811483653	-0.00290320285084704	-0.00302876965866688
2.2	-0.00120316141216547	-0.00296873915187496	-0.949162487029692	0.282834974127659	-0.949201307841155	0.28296835693994	-0.00308601663851531	-0.00277801954759461
2.3	-0.00153666687536276	-0.00295522045835324	-0.893754734358455	0.426605569640184	-0.893591395233027	0.426693993807563	-0.00358552617713429	-0.00261005156609065
2.4	-0.00206641321424242	-0.00321023452603229	-0.816003704700518	0.560498050056568	-0.816293785163811	0.560036972779428	-0.004011226587103	-0.00250793021782316
2.5	-0.00353794852803631	-0.0036882441010057	-0.719607264871304	0.679647695607475	-0.71990806408935	0.679267526057614	-0.00485333011049535	-0.0028552892257718
2.6	-0.005339849326492	-0.00218136135541794	-0.606257854910116	0.783057881970182	-0.606178665705053	0.782998771552812	-0.00552206018942766	-0.00166953227727889
2.7	-0.00546730826530542	-0.000429196006957438	-0.47722149245355	0.867621792620143	-0.477192101330214	0.867635912076695	-0.00532639566194249	-0.000818406705625952
2.8	-0.00488730359380628	0.000794862955952367	-0.337031932361935	0.93099110281077	-0.336914147246139	0.931075670334663	-0.00472676630119722	-0.000136970273621753
2.9	-0.00352485779094451	0.00141932304153738	-0.188788388197315	0.971852243026585	-0.188784072707689	0.971906935590727	-0.00383192996443216	0.000463820454881821
3	-0.00244509621674925	0.00170666310738429	-0.0357425999218867	0.98995675780225	-0.0358070203198161	0.990027938069073	-0.00266490182688557	0.00103027707395629
3.1	-0.000606112415684502	0.00162966243887389	0.118023396930799	0.983535599377104	0.118670558490016	0.983618131604967	-0.00104887885703867	0.00117258301191735
3.2	0.0004247850428764	0.000704068997377025	0.269709383524132	0.952974578995795	0.269699350420144	0.953014099497386	-0.000121658502363638	0.000619732837612553
3.3	0.00136975470131889	-0.00034120627332585	0.414883438172004	0.899422356796091	0.414260797053923	0.899702049724947	0.000871970608220749	2.0165279060772E-05
3.4	0.00155461138599861	-0.00166760573594611	0.549019055699521	0.824794598431999	0.54893388104338	0.824909599815813	0.00169167090337994	-0.00103380391664812
3.5	0.00115311321653757	-0.00230421573117499	0.670871202511181	0.729482640203431	0.670885374868458	0.729508859626186	0.00176711028979969	-0.0019221462131117
3.6	0.00148954578799241	-0.0025077306255009	0.775066385585034	0.616575381812068	0.775488946544884	0.616182483215483	0.00234772997986396	-0.00268535085724545
3.7	0.00183932281233927	-0.00358800942092348	0.861660811337604	0.488496728507178	0.861667521766852	0.488623198026481	0.00242248918575473	-0.00396531380935074
3.8	0.00150397260750226	-0.00474114821406166	0.927130989794987	0.348890102997053	0.927158948287539	0.349073401074838	0.00186126177177496	-0.00526015052396062
3.9	0.00124254643642383	-0.00614771635550982	0.970353934447342	0.19998647741618	0.970254373752348	0.200574153593404	0.000692168222206717	-0.00672620425375522
4	-0.000820179840402334	-0.00731420530104948	0.988998863644983	0.0474835733568651	0.989080731245015	0.0475266910560151	-0.00144589668320486	-0.00763739801725624
4.1	-0.00198054461498861	-0.00676403899858226	0.984645317574245	-0.105891204570581	0.984583068534324	-0.105827362605972	-0.00293485566391153	-0.00728641256578356
4.2	-0.00297489280114474	-0.00680081290020154	0.9563025502323	-0.258122988134015	0.9564946503943	-0.257553243405361	-0.00426563520314738	-0.00734241905373974
4.3	-0.00386388079404735	-0.00704385384023261	0.904981047174107	-0.403021068308013	0.904981876992387	-0.403002534907641	-0.00584457720984905	-0.00731774049201316
4.4	-0.00491641943009206	-0.00728871219604162	0.831305013870957	-0.538474516927413	0.83122507237612	-0.538458762251242	-0.00748041039493064	-0.00695862588869644
4.5	-0.00675677996893265	-0.00822108132695521	0.738167211262993	-0.660509079997742	0.738043299313616	-0.660363386765176	-0.00961879571168231	-0.00668016573872982
4.6	-0.0093602740746952	-0.00701133861039346	0.627199511095586	-0.767804982218512	0.627184290240448	-0.767575381711405	-0.0116765198674931	-0.0048344642150394
4.7	-0.0107925537306065	-0.00590943178908546	0.500082789765038	-0.856260855713854	0.500199408885887	-0.856015601062646	-0.0130372321278519	-0.00322674363532494
4.8	-0.0120837397606977	-0.00434988762344423	0.360730578399624	-0.92344463725901	0.361024249516268	-0.923255202093256	-0.0139830171914633	-0.00125705114516698
4.9	-0.0125498363037871	-0.0030379447067325	0.213181388374336	-0.967876948693315	0.213441431128847	-0.967825234897001	-0.0141825392624697	0.00105465565541792
5	-0.0130120875141757	-0.00153867242863151	0.0608949747817973	-0.989970767771402	0.0610532811811144	-0.989842175281055	-0.0136391899057613	0.00365191726187498
5.1	-0.0120885064698103	-0.00020463452143762	-0.0942297026931626	-0.987525856386073	-0.0939078332894972	-0.987462424969799	-0.0117627430188537	0.00609523573371729
5.2	-0.0111778892550545	0.000353658990378632	-0.246565729020782	-0.960756649100759	-0.246137033345873	-0.960878392353479	-0.00977013606208051	0.00793036628996142
5.3	-0.0106556001396861	9.45275389707478E-05	-0.392735306746514	-0.910988183502952	-0.392445061859099	-0.911333255241925	-0.00737861869196899	0.00937347751241119
5.4	-0.0110756588570335	-7.19539930398268E-05	-0.529827535604652	-0.839360654743378	-0.529690764763822	-0.839650974485931	-0.00511004793110709	0.0101324156989582
5.5	-0.0129952352107385	0.00134872099953827	-0.654654277359185	-0.746334192091884	-0.654604142537198	-0.746649164771506	-0.00355185132344545	0.0112946028619592
5.6	-0.0119587295458131	0.00428128248336637	-0.761927288110572	-0.634982909829504	-0.761940806881633	-0.635153761737595	-3.41187414313176E-05	0.012187019069456
5.7	-0.0108928606743234	0.00522540881041559	-0.851245171287617	-0.509084230221097	-0.851221338236314	-0.509259854837799	0.00282706762924732	0.0116692133661061
5.8	-0.0100869791579508	0.00619017924923554	-0.920013490569058	-0.370552998147659	-0.920058528887761	-0.370846061259294	0.00531576997244235	0.0108374091335041
5.9	-0.00951252205011473	0.00615880073280422	-0.966573533508148	-0.222843319415355	-0.966694367165278	-0.222891319765738	0.00742057442256524	0.0092960290077645
6	-0.0112329458946803	0.00677670402230892	-0.988546093672529	-0.0696601329136866	-0.988543103095691	-0.069728992048061	0.00769777415024788	0.00790332957441023
6.1	-0.0111701483282593	0.0102097407985669	-0.987342389791125	0.0838397133657205	-0.987345637052092	0.0837361237536031	0.00948777700723246	0.00776781010367683
6.2	-0.00957762007027785	0.0125159928817574	-0.962551774957956	0.236371630412065	-0.962600097998328	0.236189438609099	0.0113616636586666	0.00581081911780108
6.3	-0.00767927565920734	0.0139171599491285	-0.91405679950721	0.383195094744178	-0.914081324614461	0.383066073969876	0.012481950088919	0.00313469650571319
6.4	-0.00549437236203286	0.0142988413864018	-0.842954163796296	0.520433248289703	-0.842945665276479	0.520219139628907	0.0127093212824828	-0.000201173051759067
6.5	-0.00401245693910023	0.0139283921012131	-0.752236548832516	0.644195176551115	-0.752337361635333	0.644022489041014	0.0118490935674592	-0.00345776252737973
6.6	-0.00218509119006146	0.0135129320462676	-0.643466964387973	0.753974072837693	-0.643616023414307	0.753827721947999	0.0105993042357536	-0.00620765499627085
6.7	-0.00104479845313223	0.0124317733761542	-0.518028307964442	0.844962416700342	-0.518150075160071	0.844804874468965	0.00838211813278123	-0.00853599471856504
6.8	-0.000234572486797579	0.0117239906461145	-0.380132020732098	0.914881126531433	-0.380343870380505	0.914806198681512	0.005743495494444	-0.0098301525059586
6.9	0.000329600472223954	0.010981653211624	-0.233645526302651	0.962439558171449	-0.233896916731416	0.96243611589336	0.0033310955822961	-0.0103274895905876
7	0.00120108388981404	0.0108575633878322	-0.0814840981194981	0.987899397732723	-0.0817433566993256	0.987869598075358	0.00121019734732186	-0.0102754924469654
7.1	0.00246472944591347	0.0100035772267619	0.0739343574077233	0.988213396369152	0.0737269787825065	0.988201822526043	-0.00054964091887901	-0.0101104773569232
7.2	0.00329642263625068	0.00885455620890234	0.226514427976019	0.964117195502761	0.226258544607542	0.964162124172272	-0.00224802891862693	-0.00943660579285682
7.3	0.00351033690158225	0.00753364202033541	0.373312022448171	0.917012398908223	0.373071486840688	0.917104089119628	-0.00375790077185291	-0.00839969047883083
7.4	0.00348086554433546	0.00635926455745603	0.511279436017763	0.847979688112409	0.511061091369793	0.848142719316183	-0.00518336894657864	-0.00714398675543138
7.5	0.002691807621052	0.00558342307938467	0.637581247916567	0.757436359451316	0.637421555164362	0.757609387889387	-0.00635824278187598	-0.00516460813780631
7.6	0.0031279243560104	0.00543083338923254	0.746508113024875	0.648326551407186	0.746293165292103	0.64848861832648	-0.00599067670997759	-0.0033445150076685
7.7	0.00338216730787322	0.00454704343463852	0.837533860568329	0.524646041038254	0.837383481674253	0.524841802934385	-0.0056455507622174	-0.00204939925414718
7.8	0.00359805652848526	0.00352787476753926	0.908773051907541	0.388096987864696	0.908653006319107	0.388319312221882	-0.00482798104610468	-0.000935726276929049
7.9	0.0030989597660559	0.00195769490278527	0.957805746483739	0.241818897047978	0.957766354048389	0.242044700653563	-0.00397590258985517	-0.000286252803967774
8	0.000252489911028642	0.000833975539002321	0.982227369464361	0.08985744910001	0.982299293516819	0.090148925382475	-0.00441378657081304	0.000332670993573037
8.1	-0.00131504360533123	0.00326699432766145	0.984102680957658	-0.0625959457826215	0.984227818762028	-0.0623254569117135	-0.00329859682119033	0.00257470364629438
8.2	-0.00121071304432371	0.00491627018699615	0.962539859568328	-0.214565385031452	0.962606898996116	-0.214269906132677	-0.00171210201633089	0.00325657935651425
8.3	-0.000887703042788498	0.00644544094365016	0.91719568098064	-0.361469577596935	0.917334239047942	-0.361214413305036	-0.000172786462893971	0.00348160177408388
8.4	0.000514203838367622	0.00733354208534515	0.849211315462198	-0.499144466961079	0.849423581130994	-0.498945909227989	0.00160175051679348	0.00300549624535823
8.5	0.000318287199760985	0.00677206181770297	0.761914032424898	-0.62362536338513	0.762029980135564	-0.623500095248075	0.00209134936021247	0.0014983070431248
8.6	0.000372097679872215	0.00898854795741747	0.656175229460036	-0.734976823927749	0.656372948366088	-0.734792330154806	0.00275666588218236	0.00169349670202341
8.7	0.00227573059279442	0.0104148586588245	0.533555338509294	-0.827728741129367	0.533837024821907	-0.827620681306496	0.00405517018592979	0.000798718108733365
8.8	0.00495541350830884	0.0107685752416506	0.39849427929461	-0.89997930369322	0.398700069812817	-0.89992574888094	0.0046108086387443	-0.000541975392750205
8.9	0.0079346801114907	0.00989292324918754	0.25439927666765	-0.950384842238567	0.254640854315207	-0.950245562531426	0.00508709245635929	-0.00174027763829676
9	0.0103704956996885	0.00720714532022569	0.104065464645435	-0.979069350937948	0.104427050687069	-0.97904063664758	0.00527840306922336	-0.00313547054804943
9.1	0.0120668487278256	0.00437250714991232	-0.0499871352656144	-0.982756744951972	-0.0496354720823454	-0.982772621307238	0.00570101331071629	-0.00424174691619844
9.2	0.0127604175964276	0.000423089090102822	-0.201674356055869	-0.962283112071766	-0.201319780591075	-0.962354896635266	0.00592429627584194	-0.00569465634244851
9.3	0.0117198373711912	-0.00299489120596997	-0.348091635353589	-0.919147743145012	-0.347735813868469	-0.919213068161053	0.00577368961160044	-0.00672186472996363
9.4	0.00981666821829341	-0.00610276071227635	-0.486271860318767	-0.854372076290414	-0.485949886013261	-0.854520468977364	0.00555767444795814	-0.00775485927078681
9.5	0.00601318949814954	-0.00640560010679833	-0.613682726085086	-0.767734701790024	-0.613477662255493	-0.767872472174212	0.00442981125787639	-0.0073557385280637
9.6	0.00593880983116593	-0.00591136170309049	-0.724126651860958	-0.662409762826127	-0.723855665033465	-0.662594811989094	0.00543104039685564	-0.00733837741329033
9.7	0.00515832180721342	-0.00712521136675296	-0.817467635768459	-0.542399438465382	-0.817223194999547	-0.542668289245764	0.00528050927338306	-0.00853590795675428
9.8	0.00370462378167626	-0.00837241691134929	-0.891585583079071	-0.409156640365114	-0.891378171863942	-0.409430951613812	0.00457486351888244	-0.0092067126433207
9.9	0.00164264713649645	-0.00977090540214377	-0.944134345660883	-0.265479248042854	-0.944023423544751	-0.265807430897383	0.00404053754795625	-0.00987158415372018
10	-0.00335656322240524	-0.0102376985608561	-0.972351946368687	-0.1157110891785	-0.97227335377668	-0.116087687400253	0.00187218119667254	-0.00989363918858673
10.1	-0.00591556877913937	-0.00673413449455696	-0.978443128653696	0.0351810685241274	-0.978424221633455	0.0347058630498973	0.0019715742819963	-0.00833402673194772
10.2	-0.00677488852166637	-0.00483854817274389	-0.961432248653457	0.186396423112269	-0.961418042834497	0.185949017074571	0.00233771388739089	-0.00845699334518934
10.3	-0.00767624862550922	-0.00305529198861913	-0.920635669771564	0.333291584937328	-0.920771025814458	0.332754542233349	0.00219368730713354	-0.00900516890022905
10.4	-0.00808857979435135	-0.00217484580472177	-0.857065486655115	0.471493614327029	-0.857329591085363	0.470961835766295	0.00206017954392534	-0.0100864157362689
10.5	-0.0101787503694173	-0.00156709679473472	-0.774359104557009	0.597116380910828	-0.774639701892058	0.596732174189371	0.000974536478912192	-0.0116862500913373
10.6	-0.0122498110561855	0.00117510905215154	-0.673134126091135	0.710603400981323	-0.67355766312524	0.710261508034438	-0.000400039192291283	-0.0122982432036206
10.7	-0.0128633054750948	0.00489125603958615	-0.554671759069923	0.806422321612651	-0.555080736228982	0.806135844540987	-0.00135801195498411	-0.0126138519912708
10.8	-0.0117454951577192	0.00834535696813756	-0.422917873071251	0.882270878340961	-0.423424982326646	0.882043096279783	-0.00208121940071431	-0.0129228951198939
10.9	-0.00979343300042789	0.0111575309237743	-0.281793191025761	0.936798155150158	-0.282277882591041	0.936746907618149	-0.00300238128913867	-0.0133960201299225
11	-0.00735318720552425	0.0133874595362321	-0.13357040987429	0.970514767700038	-0.134114070044463	0.970509859955393	-0.00405817976858835	-0.0136167660855103
11.1	-0.00373771614626564	0.015083868828071	0.0196609505175129	0.979157013624816	0.019034912706431	0.979239412570772	-0.00474095160983197	-0.0139548518710892
11.2	4.05703815723332E-05	0.0151720483959253	0.170877629242025	0.963822068275861	0.170361199867717	0.964023780678469	-0.00562738092723637	-0.0143838705853841
11.3	0.00363331881160232	0.0143903348592745	0.317683235767518	0.925864613012883	0.317255753536785	0.926125323030054	-0.00637624216136459	-0.0145382182717106
11.4	0.00654689948061035	0.0121372474163691	0.457556666551033	0.866231313203851	0.457094224687432	0.866489451552488	-0.0073477931284905	-0.0146608032024737
11.5	0.00761443187493275	0.0110981492936597	0.587471269661389	0.783993251507283	0.587114858295238	0.784409557510239	-0.00917983931687867	-0.0136030850467166
11.6	0.0109518676218389	0.00992865975206409	0.700618337233335	0.682892502857457	0.700352902599872	0.683370358818526	-0.00917399475764545	-0.0124889502608632
11.7	0.013636409552065	0.00696603058601753	0.797777709685581	0.566690180805958	0.797539512525723	0.567109852598433	-0.00978689321908322	-0.012207332332614
11.8	0.0151508223139547	0.00298451138606289	0.876316432024231	0.436331814244052	0.876132562948385	0.436881377580434	-0.0107328661643214	-0.0116636227671757
11.9	0.0155742577059102	-0.00193220879338344	0.933720291583839	0.294808809029231	0.933681942051691	0.295350655838196	-0.0116027005696105	-0.0109918469039548
12	0.0111629377418154	-0.00621601261302116	0.966777127133717	0.146468600108297	0.96676470007054	0.146945640535358	-0.0141041114572202	-0.00986243915715501
12.1	0.00864641564170494	-0.00655910419549711	0.978207002653534	-0.00385594666200364	0.978181493216088	-0.00338525224965256	-0.014096600515935	-0.00720321492683586
12.2	0.00636188634927403	-0.00768365950529061	0.966358059755467	-0.155638766984599	0.966463374049205	-0.155203037761518	-0.0140455408491501	-0.00567231054933966
12.3	0.0039223446836756	-0.00794909714748902	0.930470068567341	-0.303707194018737	0.930654294386304	-0.303350024196829	-0.013936361213282	-0.00407872579293072
12.4	0.00182086822227469	-0.00821866354497191	0.871821622947953	-0.443976400187197	0.871953017711409	-0.44360279258647	-0.0133091919071627	-0.00275316293604072
12.5	-0.00156113993399451	-0.00862331124301866	0.793455779648943	-0.572441680115013	0.79391064781783	-0.572048844540531	-0.0135281175908935	-0.00206434358253876
12.6	-0.00430439792687441	-0.00601394712485619	0.696155876340994	-0.689642239509828	0.696500343768797	-0.689332030683425	-0.012937503764246	-0.000133663735962735
