# GHZ S RI R 50
0.2	-0.000110151157297175	-0.000601847423441719	0.951091729836537	-0.307295229794345	0.950865265574072	-0.307437653278335	4.48941122078918E-05	-0.000437417733605063
0.3	-0.000624896086528289	-0.000413895301489853	0.891786897747513	-0.451248316352343	0.891649242859312	-0.451301853313832	-0.000439888480191359	-0.000632701348801534
0.4	-0.000952020548087894	-7.15911114852948E-05	0.810964458206323	-0.584234632882655	0.811004912164967	-0.584374582544381	-0.000789373720831465	-0.000430418194963137
0.5	-0.000856346830935678	0.00099622741046239	0.710126586479653	-0.703907178097461	0.710015697979445	-0.704003484862582	-0.000469494073389758	0.000350819383820044
0.6	-0.000177916409400367	0.000571297953775995	0.591647783273933	-0.805280304502321	0.59145762218702	-0.805283391925339	0.000104265445426548	-0.000361623354567561
0.7	-0.000500306059741069	0.000617004277901302	0.4595025443768	-0.887272271781855	0.459428291993883	-0.887306849633031	-0.00021392025876822	-0.000858141479060868
0.8	-0.000578072820289246	0.000533718616287471	0.316006911692726	-0.94819818155502	0.315887832829605	-0.948111223124518	-0.000632217270578673	-0.0011227238537322
0.9	-0.00131231292861023	0.000768408781826218	0.164371412744318	-0.985933444340292	0.164221771272841	-0.98589045637671	-0.00164946555682773	-0.00137643371842193
1	-0.00172330054618886	0.00281719168044714	0.00876402119259117	-0.998547310860745	0.00864553576807931	-0.998517512029094	-0.00242761515332573	0.000355779941012791
1.1	0.000718510196520065	0.00295926614959871	-0.145119137734988	-0.988025691975537	-0.145769104848008	-0.987990762823197	-0.000861151481493864	0.000240431882583633
1.2	0.00150272005939915	0.00121200714238183	-0.297955974363584	-0.953626250393137	-0.297948964963828	-0.953682166907599	-0.000726190245737962	-0.000583454458478126
1.3	0.00214213469818969	-0.0011487103691992	-0.442775729057894	-0.89549635070228	-0.442868244704677	-0.895520892174818	0.000158257463255585	-0.000896704891900015
1.4	0.00192399246124806	-0.00385473470565743	-0.576325168876234	-0.81535217955896	-0.576399195541368	-0.815252145779021	0.00100183863705492	-0.00172452258382295
1.5	0.00274440752844013	-0.00560566446128517	-0.695362548617982	-0.716249145296703	-0.695387251163787	-0.716176806689769	0.00293072493635044	-0.00316998801829588
1.6	0.00029662818430826	-0.00757121657385938	-0.798874737376598	-0.600224886463508	-0.799306265438408	-0.599721509969971	0.000585222185147377	-0.00514994822100592
1.7	-0.00121365478318529	-0.00621824139668132	-0.882592153427673	-0.468042274195427	-0.882897455975459	-0.467549364930975	-0.00101166775380249	-0.00417290407894381
1.8	-0.00200255890184955	-0.00506840562071738	-0.944506687965685	-0.324405213838776	-0.944522199997155	-0.324395672977551	-0.00205970898596491	-0.00350016453427562
1.9	-0.00230778074748889	-0.00304460584712377	-0.983268308664149	-0.173791059714964	-0.983313137264077	-0.173843995819156	-0.00275979576415868	-0.00203905397711185
2	0.000541776930431646	-0.00213950756227209	-0.999255341392526	-0.0193721398088978	-0.999349371261669	-0.0187183400066207	-0.000681079438711028	-0.00126231302717792
2.1	-8.2456713913076E-05	-0.00494794021747203	-0.989421115363801	0.138823030444861	-0.989523136737748	0.138336255420602	-0.00172332627789954	-0.00357239589519646
2.2	-0.00216415100788287	-0.00493767483826463	-0.955238429145586	0.29018699451724	-0.955276845250024	0.290321652482694	-0.00347160142653294	-0.00310017548580164
2.3	-0.00359063931892873	-0.00416112880037938	-0.898312599968376	0.434980544716595	-0.898147487862715	0.435068735505623	-0.00454895678599287	-0.0023449703888043
2.4	-0.00522288568184254	-0.00250396951784971	-0.81934566832433	0.570176240184832	-0.819640995934207	0.569713110849975	-0.00564734967759889	-0.00103666703164768
2.5	-0.00363528602809339	0.00060700598424335	-0.719719887492618	0.691594352615669	-0.720026510570408	0.691213616923347	-0.00388443704278212	0.000924701402379128
2.6	-0.00210802991367199	-0.000993678719582143	-0.602767599497261	0.793347247583031	-0.602688471313552	0.793287054769261	-0.00257432720938231	-0.00113854314903123
2.7	-0.00262662078768857	-0.00166960793241081	-0.472159138761643	0.876795092948163	-0.472129455201472	0.876809029414862	-0.0035333791122898	-0.00208022465552074
2.8	-0.00332491672225835	-0.00174926917337341	-0.330077284408551	0.939347179355293	-0.329958044740928	0.939431099536289	-0.00442867377678132	-0.00196087411446477
2.9	-0.0030629383434531	-0.0011786802601978	-0.179201310837241	0.978884941721785	-0.179196379211814	0.978939867837565	-0.00456416966626879	-0.000834513399056251
3	-0.00222810265776241	-0.00148715069780003	-0.0242503502104555	0.99267788289048	-0.0243140881887491	0.992749982040401	-0.00356867233453302	-0.000308561348485733
3.1	-0.00234836578816634	-0.00146398693977115	0.128032913314011	0.984238300446196	0.128682130843177	0.984314552153692	-0.00342260529139105	0.000411025809244043
3.2	-0.00185451419769858	-0.00114435967087624	0.280115939070381	0.952159124633712	0.280106293629219	0.952198830599531	-0.00244978403019062	0.00121633696562187
3.3	-0.000945082467417215	-0.00112006671060433	0.425370527877849	0.896076437079749	0.424750120120734	0.896363379604138	-0.00113442511962875	0.00149275817704435
3.4	2.64705530548098E-05	-0.000998271072663864	0.558223774164733	0.818285679077591	0.558139934810727	0.818401612305686	0.00052519228426988	0.00151142474311443
3.5	0.00230867621486108	-0.0027225882076121	0.676615204106617	0.722346556270879	0.676629596601011	0.722372610055798	0.00276046869679602	-0.000484564762031454
3.6	0.000778796820693773	-0.00485680031379084	0.781083964438147	0.609338128466351	0.781502879295383	0.608941134255806	0.00156303597476897	-0.00253845962221678
3.7	-2.65478957839586E-05	-0.00506751031581134	0.866312045227443	0.479208016894796	0.866320076667148	0.479334347844265	0.00102559977867771	-0.00282717771273306
3.8	-0.000844628367245632	-0.00517420337828265	0.929246053489388	0.33855872628663	0.929275892184976	0.338741423426871	0.000443022382385444	-0.0033633276599704
3.9	-0.00107369509261435	-0.00445401577430697	0.969852625335981	0.190284337300376	0.96975888726024	0.19087150531186	-0.000486194517053362	-0.00342480495155206
4	0.0010959837958388	-0.00444436313834314	0.988850883781912	0.0383653631858602	0.988933099313181	0.038407702939624	0.000761892635537948	-0.00397072078415473
4.1	0.000433784823408458	-0.00766741525742447	0.981798401906256	-0.117175569160075	0.981736997853249	-0.117111107517191	-0.00114857390612454	-0.00682531008959132
4.2	-0.0018270934762837	-0.00848448756560605	0.950106786236514	-0.268290009706593	0.950304814795366	-0.267724398430654	-0.00378738696362044	-0.00705635386481912
4.3	-0.00366989311718362	-0.00893533603666992	0.896795172534384	-0.411267198131307	0.896796202133632	-0.41124875096331	-0.00609033509522483	-0.0069246815568787
4.4	-0.00619539264020713	-0.00822019226813943	0.822345475446197	-0.545273769362937	0.822266010798616	-0.54525722177286	-0.00877334901387803	-0.00573558223278273
4.5	-0.00604770150756081	-0.00616557693535906	0.726234149720844	-0.667412283020433	0.726112701440398	-0.667265581756225	-0.00917493739635517	-0.00331138747219449
4.6	-0.00625344187883632	-0.00754853510151694	0.612621507825323	-0.769701304408573	0.612609298505435	-0.769473307861	-0.00994719623267797	-0.00389887054429975
4.7	-0.00827066676920306	-0.00809464007086015	0.486187316603906	-0.854457354372368	0.486305671204685	-0.854215522367136	-0.0124109516208288	-0.00314628013490201
4.8	-0.0103354830342096	-0.00744235100445606	0.34763326079767	-0.919023505657679	0.347926324102411	-0.918838905192383	-0.0141991805510759	-0.00124830519650544
4.9	-0.0117007893605741	-0.00635142268460891	0.200177386935684	-0.961004604057163	0.200435520286327	-0.960956330728083	-0.0149728659374926	0.00154940496390705
5	-0.0120253188450628	-0.0055090179869761	0.0491475825540334	-0.977493864896684	0.0493052070238598	-0.977368729671704	-0.0139858654993492	0.00409204449586181
5.1	-0.0135101463778915	-0.00504326110245959	-0.100458412506222	-0.973389917433332	-0.100140434627584	-0.973329795483889	-0.013549398266391	0.00647050863232706
5.2	-0.0144687446340399	-0.00290479534426365	-0.249976679703314	-0.946394144598715	-0.249554473920577	-0.94651725542355	-0.0119682016670736	0.00971447265303643
5.3	-0.0144427034006444	-0.000618736117206072	-0.393376679532416	-0.895818050968303	-0.393092730016363	-0.896160294765426	-0.00910284647643395	0.0125876843444642
5.4	-0.0127634504645405	0.00247664759509183	-0.526489356734127	-0.82317834669529	-0.526356417775485	-0.823464944094516	-0.00492782997195903	0.0149949643027651
5.5	-0.00872261395762208	0.00123620332089236	-0.645402602640801	-0.733013883936708	-0.645353861797898	-0.733323836289959	0.000730036264731019	0.0131091853349839
5.6	-0.0112600578245027	-8.25884495321804E-05	-0.752350608933643	-0.625181201257402	-0.75236418285412	-0.625349685790591	0.000450682010024478	0.011207446634465
5.7	-0.0126242805408992	0.00197381243107917	-0.840072156291324	-0.500588670562951	-0.840048934022992	-0.500761862483507	0.00176207201023737	0.0120671847718665
5.8	-0.0129110360505759	0.00466746668449191	-0.906618826591532	-0.364458528832492	-0.906663389021353	-0.364747218393399	0.00385701985861527	0.0123682980438513
5.9	-0.0122310562112241	0.00832853689094044	-0.951606237414862	-0.221039895173623	-0.951725167417732	-0.221087365616877	0.00611760023910923	0.0130369048877368
6	-0.0065611546872579	0.0103643176671693	-0.976604067738864	-0.0716369228163746	-0.976600917472345	-0.0717049551603126	0.0116263874159892	0.0116917496729099
6.1	-0.00591053355837993	0.00705712663048689	-0.975155696829875	0.0821237082942216	-0.975158832785042	0.0820214014024251	0.011832355632998	0.00638112388785708
6.2	-0.00690630631869256	0.00742161072487037	-0.949834357269408	0.231599897652815	-0.949881728164354	0.231420107405005	0.0108702582950759	0.0044278104294251
6.3	-0.00733846510741659	0.00837588375877733	-0.902769583024623	0.375160524122247	-0.902793376967754	0.375033187449072	0.0105197682627379	0.0027505300367047
6.4	-0.00713522488140905	0.0100299712969275	-0.834809356297468	0.510583273202789	-0.834800074882913	0.510371815778687	0.0101176209174694	0.00114834855945334
6.5	-0.00562790257844505	0.0108922005505324	-0.744363805995085	0.635293231582991	-0.744463134687365	0.635122429365112	0.0102225007449797	-0.00113609383053608
6.6	-0.00452371068842892	0.011483734794415	-0.636278778167153	0.74067793466578	-0.636425147480158	0.740533290271533	0.0091882295240178	-0.00327582529679334
6.7	-0.00265045632699951	0.0119253590936481	-0.515070051205144	0.829787640975978	-0.515189179179096	0.829631736352954	0.00810969524307347	-0.00506998357576375
6.8	-0.000481398335176596	0.0116341240474566	-0.380866666039265	0.899927243466594	-0.38107513779626	0.899851966752616	0.00646921845722734	-0.00676702792819235
6.9	0.00157602012765465	0.0105543135014311	-0.236307609323417	0.94844079529489	-0.236555685719174	0.948435903301075	0.00472080513330208	-0.00785496969053356
7	0.00307173777111056	0.00819738021145449	-0.0866815801717527	0.971296548984489	-0.0869364260071916	0.971265522306714	0.00250353212080374	-0.0094676868219332
7.1	0.00276305121861586	0.00684147440778016	0.0621926313417378	0.973994592538658	0.0619885277298297	0.973980966270506	-0.000694885397298445	-0.0092193495964003
7.2	0.00318063188045321	0.0058943732223722	0.212313021672271	0.953803505924594	0.212060051537665	0.953844869244289	-0.00268281519023168	-0.00807333456497711
7.3	0.00310500404670495	0.00461422506128819	0.357652217578765	0.909686118491117	0.357413677578727	0.909773780919668	-0.00436820197760978	-0.00670338027318181
7.4	0.00302709087581082	0.00379039039382112	0.493543495123868	0.842809062033746	0.493326085071262	0.842967095862019	-0.00564116405321586	-0.00481574760709303
7.5	0.00336557607008844	0.00200049894652572	0.616161817471025	0.758609214716952	0.616001209012248	0.758777224355877	-0.00570026921825203	-0.00349946647819351
7.6	0.00145432512609042	0.000210411401111002	0.728600259792966	0.655722266079756	0.728384357150048	0.655879145033365	-0.00691051776419789	-0.00249150163292055
7.7	-0.000538064126022128	0.000469015591261207	0.82208333574985	0.534647772818367	0.821930837664822	0.534839455069526	-0.00743341409881187	-0.000126204497055329
7.8	-0.00177247570010978	0.00177778711709548	0.895151767493872	0.401062337811402	0.895028738889757	0.401280891075454	-0.00696410889575911	0.00220789563491357
7.9	-0.00215801892488573	0.00464352082300671	0.946738420909657	0.259052060988146	0.946694849616388	0.2592756017517	-0.00555408493739597	0.00520967218220639
8	0.0029380241289565	0.00634132506727946	0.978950299778274	0.109569703343408	0.979016227528047	0.109862199162211	-0.00083352983119146	0.00656674548548618
8.1	0.00373509029512434	0.00260803287288668	0.984099799535418	-0.0456751432953944	0.984220168640066	-0.0454028069016991	0.000119660952456141	0.00367830739827039
8.2	0.00255900327293007	0.00159506295930034	0.964983092282157	-0.197459471260485	0.965044878977456	-0.197163221860639	-0.000356366330867933	0.00347171592367805
8.3	0.00110884993801922	0.00144068438520377	0.923598349975443	-0.344484323438745	0.923732172291745	-0.344226678383177	-0.000401744603105309	0.00349578296782715
8.4	-0.000787492761352887	0.00289684295763446	0.86078287831929	-0.484528182692411	0.860991975758722	-0.484325128132568	-0.000923495942165124	0.00428299144499119
8.5	0.00155009143700589	0.00675260502154236	0.77404504168385	-0.614912713399028	0.774159609597377	-0.614785254233431	0.00207178859959927	0.00641018666420041
8.6	0.00406236112825926	0.00406504970178687	0.668509130269213	-0.725876004339879	0.668704277459364	-0.725688181031694	0.00404548353637042	0.00305077634469295
8.7	0.00320210841499963	0.00304577612338826	0.548975555011132	-0.821030452460429	0.549256200274055	-0.820917348351041	0.00343719958539305	0.00173271775861244
8.8	0.00276321319639894	0.00288729628704386	0.415407148276993	-0.897549533948507	0.415613010976835	-0.897492288366365	0.00297377489291736	0.00107882505567922
8.9	0.00220483158777897	0.00352225408847204	0.269863359391385	-0.952405767860814	0.270104357467967	-0.95226210604845	0.00266022553795675	0.00114973818228529
9	0.00414700277975823	0.00465569009842857	0.118287942714659	-0.980347372589201	0.118650138984805	-0.980313433078111	0.00413577903227871	0.00164703744450598
9.1	0.00584875816522841	0.00361747968744792	-0.0329652309509251	-0.988433969115495	-0.0326115716200424	-0.988443744662939	0.00518072817821408	0.000432416155168752
9.2	0.00792471604531256	0.00258617407720604	-0.186886395666558	-0.972845986194869	-0.18652797088356	-0.972912302978762	0.00653384815063608	-0.000327473643282717
9.3	0.00996706954182438	0.000613727136707495	-0.336708849218515	-0.932328204435252	-0.336349007039801	-0.932388536878514	0.00793254184405345	-0.00167375006767723
9.4	0.0118632629123726	-0.00150946531037571	-0.47722510572248	-0.867927165212444	-0.476898539712388	-0.868071889321703	0.00915411412719703	-0.00276168374578988
9.5	0.0146915474972758	-0.00789546986266477	-0.604353415424489	-0.78567229474831	-0.604144051897969	-0.785807354991391	0.0110801915978189	-0.0071982341132396
9.6	0.00899118259888234	-0.013591488060281	-0.722178194309892	-0.683606472823009	-0.721900456414633	-0.683789267094295	0.00616108119012094	-0.00989119454139322
9.7	0.00426570443059954	-0.0140595504345975	-0.820661539111509	-0.562338611754862	-0.820409619064833	-0.562607513458844	0.00367522288933382	-0.0088899798017158
9.8	0.000275879514852084	-0.0136326427946512	-0.89828407188218	-0.427783284382128	-0.898069778280267	-0.42805848200778	0.00206426418732543	-0.00787741919215893
9.9	-0.00323277058643042	-0.0103927289669258	-0.954171883609883	-0.284170528116131	-0.954054184704478	-0.284501909767453	0.00122594982886628	-0.00552261853890665
10	-0.000547278678002037	-0.00890766108761715	-0.990745975048456	-0.132182364372929	-0.990660305994036	-0.132565597323284	0.00487993773885511	-0.00524168681229313
10.1	-0.00408928875484645	-0.0118324080313605	-0.998692648222797	0.0265364413135586	-0.998668810066115	0.0260517456771095	0.0028012804158975	-0.00834203258503527
10.2	-0.00838856954966	-0.010114411452594	-0.981943466594101	0.181703903452833	-0.981925093495032	0.181247829664035	0.000795427656632312	-0.00761157359988662
10.3	-0.0116396708085562	-0.00677272304257321	-0.942268127660061	0.332448028020894	-0.942401781872912	0.331898858292325	-0.000233009774306884	-0.00691427874274696
10.4	-0.0136538289057814	-0.00212210737943758	-0.880357700222226	0.476421551258905	-0.880624199892325	0.475875521595176	-0.000850252894772144	-0.00596685032343741
10.5	-0.0113083563853421	0.00322993463426115	-0.793116653865383	0.610749789049533	-0.793403644226742	0.610356286146399	0.00135786769836219	-0.00555144704516713
10.6	-0.00874665523239475	0.0036095167528919	-0.686725128442744	0.724583778681974	-0.687157013478833	0.724234966710291	0.00195777038020984	-0.00876691336832664
10.7	-0.00797635777777213	0.00432890116950483	-0.566160800112958	0.822491224446616	-0.566577924661465	0.822198816517558	0.000562367318230269	-0.0110301981289307
10.8	-0.00754613266523804	0.00530605082139747	-0.43092235401924	0.901264519984738	-0.431440364731656	0.901032459295769	-0.00179109219669638	-0.0122221650804156
10.9	-0.00651891886612401	0.00727892665013064	-0.28347899364818	0.957812654347311	-0.283974128790903	0.957762526675615	-0.00377769571661166	-0.0122817518116259
11	-0.00417240285307639	0.00788382886016972	-0.130242515081003	0.986670423772805	-0.130794832687895	0.986668490101406	-0.0050870216032564	-0.0125936747490085
11.1	-0.00281118117055688	0.00884496433173509	0.0227660144435217	0.995743660586891	0.0221295695603799	0.995829231770994	-0.00716066548565647	-0.0121359149167959
11.2	-0.000347333752208806	0.00942621661057832	0.178229546051766	0.980695881846998	0.177704558737718	0.980903547563641	-0.00816148598069096	-0.011265679962101
11.3	0.00231672945217184	0.00971907921827698	0.329418551138838	0.94027397348256	0.328985164224201	0.940542133211632	-0.00869736836243992	-0.0101081133879232
11.4	0.0057158710049275	0.00995450834478324	0.471185842560899	0.875704887769493	0.470718451152376	0.875970510930136	-0.00835928076156994	-0.00837541051432428
11.5	0.0112091140875407	0.00640776641129981	0.599179603155925	0.793611766786125	0.598819367788947	0.794035637572726	-0.00646075671674039	-0.00989061744783309
11.6	0.0103432595614444	0.00157917513277272	0.7179708836513	0.691205327196346	0.717703511753483	0.691693757308225	-0.00974987442272712	-0.0106385338158645
11.7	0.00984045755414806	0.00011834271237694	0.817026998611089	0.569517000252021	0.816788375384066	0.569946256758047	-0.011229158576161	-0.00885181227902808
11.8	0.00924558656505947	-0.00131063065301354	0.894764443985065	0.434568420958672	0.894583123004039	0.43512865485446	-0.0122486579080894	-0.00728864462951899
11.9	0.00983200617425357	-0.000123131764890446	0.950704461458128	0.291212209102074	0.950670247794697	0.291762753918566	-0.0121987820170669	-0.00433457775099859
12	0.0145514125409695	-0.00195149454970147	0.987488604109591	0.139503445819584	0.987480803362078	0.139990094652948	-0.00886303475575926	-0.00384330482229641
12.1	0.0129559216654876	-0.00874636573687226	0.995391155666957	-0.0187194480018909	0.995372315938285	-0.0182400709900394	-0.0111540569442883	-0.00666818163332631
12.2	0.00933159666820088	-0.0115426396738322	0.978716883364182	-0.17325474107333	0.978830679253398	-0.172813993059432	-0.0137417777088126	-0.00534083404199253
12.3	0.00576045102309583	-0.0128007917482162	0.939286684947369	-0.322941007204912	0.939479285566846	-0.322581527642632	-0.0152735454899033	-0.00335975983502326
12.4	0.00142221865202396	-0.0122806312917368	0.878309189145069	-0.465970523960918	0.878449060853946	-0.465593134101579	-0.0165819796695736	-0.000379360247403702
12.5	0.0013326104798302	-0.00972720627441406	0.791447070706767	-0.599314455800947	0.791917713287358	-0.598926639688479	-0.014120708997186	0.00315164880879814
