# GHZ S RI R 50
0.2	-0.000135174167770115	-9.63833771248755E-05	0.949413024076546	-0.307822164679564	0.949186740049169	-0.307964153080023	2.0438706283957E-05	6.67987459251369E-05
0.3	-0.000326253156455945	0.000132849318828603	0.88955228031456	-0.451560132445038	0.889414811707591	-0.451613392864877	-0.000140991233368856	-8.76269692542022E-05
0.4	-0.000206488906113403	0.000271476882973126	0.808120633319938	-0.583949819376713	0.808160786750557	-0.584089480572991	-4.4026350379509E-05	-8.95203581996149E-05
0.5	-0.000328492102313148	0.000500187462860389	0.707362490272325	-0.702374109156455	0.707251856614757	-0.702470027833401	5.68999378269403E-05	-0.00014705273435301
0.6	-0.000238667829447197	0.000582975040222867	0.589385324232005	-0.803505838406959	0.589195687807231	-0.803508770234826	4.30009069879497E-05	-0.000351573256208363
0.7	-0.00029090682557147	0.000913411748893757	0.457272981281664	-0.884946075866613	0.457198927095962	-0.884980479116069	-5.96437823407922E-06	-0.000563308050220417
0.8	-0.000104393159585743	0.000971360661218395	0.314178138226803	-0.945090851453221	0.314059544943381	-0.945004110146192	-0.000160305491827197	-0.00068726567333142
0.9	-4.31087906514735E-05	0.00132191961898478	0.163516917662615	-0.982157136304148	0.163367864421897	-0.982114281356782	-0.000383906858854232	-0.00082540811583805
1	0.000245648106896581	0.00140393912724746	0.00895295044025764	-0.995294881960883	0.00883484420661838	-0.995265205917911	-0.000463823857488358	-0.00105741051906707
1.1	0.000602545627011588	0.00131262946561645	-0.145008919943354	-0.984521930213691	-0.145656606372668	-0.984486862403659	-0.0009697248873026	-0.00139155447880562
1.2	0.000948617987048004	0.000244693164330663	-0.296887408589508	-0.949777382063431	-0.296880434325386	-0.949833076008148	-0.0012866341528225	-0.00154309675498953
1.3	0.00107894064014397	-0.0013441655835505	-0.440655174039803	-0.891922986046104	-0.440747298173037	-0.891947455109603	-0.00090538174023968	-0.00109261486519504
1.4	0.00105599445204418	-0.00318252267708745	-0.573547631438771	-0.812598367864423	-0.573621440502328	-0.812498770344496	0.000143884374329827	-0.00106654809208734
1.5	0.00109219668372439	-0.00405643240574278	-0.692810337821419	-0.713507120794539	-0.69283494197587	-0.713435051656741	0.00130966148628684	-0.00163436974121733
1.6	0.000795353447068581	-0.0045285507011431	-0.794772096056638	-0.59750086300356	-0.79520164536368	-0.597000086945013	0.00109602362950522	-0.00215878616928617
1.7	0.000595780623219351	-0.00439800208051975	-0.877686657302063	-0.466651661265781	-0.877990964118682	-0.466161538656269	0.000795312335001002	-0.00239450661880949
1.8	0.000255640990378085	-0.00432662835552659	-0.93950487119488	-0.3242129880921	-0.939520322580492	-0.324203515438807	0.000193290064557906	-0.00279791221663107
1.9	8.02282860458068E-05	-0.00405999410183218	-0.97843146687154	-0.174244948383896	-0.978476016849048	-0.174297694016207	-0.000382055917665989	-0.00308588839718626
2	-0.000193704132577297	-0.00420627595114956	-0.993303335416739	-0.0206031530879504	-0.993397688227296	-0.0199533571828946	-0.00142275749253917	-0.00335448922140852
2.1	-0.000745227320693174	-0.00418881137466411	-0.98403220430956	0.135082096933535	-0.984132187537909	0.134597873325506	-0.00238852004257528	-0.00284231956785281
2.2	-0.0015751835687663	-0.004183332242881	-0.951126614337435	0.285449983571739	-0.951165276228696	0.285583796715588	-0.00289414261731101	-0.00237868991022911
2.3	-0.00236217401814401	-0.00384910337816023	-0.895144243440904	0.42957544845335	-0.894980300632332	0.429663755480393	-0.00334171142176971	-0.00206136871466775
2.4	-0.00325969768859612	-0.00335002606524143	-0.816847832470579	0.563863487959365	-0.817139744595322	0.563401871952907	-0.00369572694755729	-0.00189730723958108
2.5	-0.0037514874176141	-0.0026249294806829	-0.719357383705705	0.683524908985347	-0.719660085298139	0.683144695436958	-0.00400807011876095	-0.00229626472602368
2.6	-0.00442225994778557	-0.00194525732688968	-0.604923605086247	0.786385717444702	-0.604844455377432	0.786326251489231	-0.00488929336359455	-0.00208600471258779
2.7	-0.00449767327219855	-0.000918215654590473	-0.475346140720033	0.870532602916072	-0.475316657295928	0.870546655472844	-0.00540008839850296	-0.00133326503904687
2.8	-0.00409234240773798	-0.000196387771893151	-0.334558212014037	0.933525409679974	-0.334439971247336	0.933609729518264	-0.00518972934422239	-0.000419803798251154
2.9	-0.00293827550450131	0.00013614813203575	-0.185592747912573	0.973826381636282	-0.185588232540674	0.97388113229743	-0.00443166853074873	0.000448323822911819
3	-0.00201436698295046	-4.91763894101308E-05	-0.0321569091480698	0.990679634823648	-0.0322211087604689	0.990751092444672	-0.00335450269646887	0.00108700444107402
3.1	-0.000987332966711501	-0.000257187255416611	0.121236879013263	0.983683825613683	0.121884651205028	0.983764329107566	-0.00206217667135009	0.00161537016251182
3.2	-0.000329915319121667	-0.000773012658357363	0.273036966197294	0.952602122203347	0.27302705935331	0.952641698029322	-0.000950984467758872	0.00155209828299622
3.3	0.000524893211265985	-0.00135993810544483	0.418182303587292	0.898255325440288	0.417560443921985	0.898537299623611	0.000303731356558277	0.00122395704112629
3.4	0.000996544615075825	-0.00215953650853343	0.551884233345019	0.822730553527267	0.55179947949473	0.822845843107367	0.00146214214177921	0.000334354015636511
3.5	0.00144212470153766	-0.0031199696870063	0.672853709648675	0.72721665355021	0.672867956530518	0.727242821547533	0.00187605219311383	-0.00088835990950175
3.6	0.0012486617463847	-0.00394298107134564	0.777059321672647	0.61409644369164	0.777480627820188	0.613702181550332	0.002018403078969	-0.00164026040376941
3.7	0.00116790580494905	-0.00477408605548801	0.863143671057781	0.485372913621834	0.863150820141952	0.485499327774923	0.0021998746632839	-0.00254830053913006
3.8	0.000625058091556853	-0.00551218877483252	0.927796357760989	0.345446339817676	0.927824939351667	0.345629431112993	0.00189186802387242	-0.0037097399841697
3.9	0.000427372135513705	-0.00612799203828332	0.970221971184159	0.196668674958779	0.970124402468097	0.197256201089918	0.000998181841000371	-0.00510465376622974
4	-0.000241739397226648	-0.00688892462304098	0.988741021675147	0.0441925649483637	0.98882299754286	0.0442353937847645	-0.000582698513569496	-0.00642066026069551
4.1	-0.0011013139787957	-0.00748349315363266	0.983376337458496	-0.109632572072668	0.983314391134301	-0.10956854330405	-0.00268277500615126	-0.00665698184397169
4.2	-0.00244463213642295	-0.00786214325765296	0.953998691065937	-0.261407178005868	0.954192694944846	-0.2608389517436	-0.00440888439590342	-0.00645697949600403
4.3	-0.00369396861561624	-0.00818681030128821	0.902039884603121	-0.405660304089664	0.902040780561101	-0.405641803890152	-0.00611734282089866	-0.00620961038625179
4.4	-0.00526814247737443	-0.00799839328745597	0.828001239090995	-0.540605319852922	0.827921484919983	-0.540589301547342	-0.00785043024236115	-0.00554826868386224
4.5	-0.00639515077436153	-0.00781596395821777	0.733905801599831	-0.662312103862881	0.733782752104877	-0.662166177331152	-0.00954102107272992	-0.00500507713220153
4.6	-0.00795944995642622	-0.00719029207904953	0.622371863852203	-0.768012393614547	0.622357583674178	-0.767783403791975	-0.0116856454237595	-0.00357597490654726
4.7	-0.00911054826996392	-0.00671525596572287	0.495495906275098	-0.855291587268061	0.495613013654861	-0.855047520111008	-0.0132890474992885	-0.00180500913347784
4.8	-0.0103491428971965	-0.00580517242335307	0.356448233892048	-0.921537150291543	0.356741546704243	-0.921349328319802	-0.014252702835012	0.000359179254458219
4.9	-0.0110256318859156	-0.00500632535557586	0.20913348338926	-0.965020838504573	0.209392740042107	-0.964970191734319	-0.0143557980615229	0.00286943701122246
5	-0.0115947966788234	-0.00413830047335631	0.0576557279245124	-0.985547508748289	0.0578136818819506	-0.985419987119656	-0.0136217095835008	0.0054781080132237
5.1	-0.0116654257900038	-0.00337858088001722	-0.095824590430275	-0.98277976606457	-0.0955040744837053	-0.982717288475913	-0.0117522598773276	0.00816346249320667
5.2	-0.0116869973697034	-0.00248465618544295	-0.247198605272254	-0.955959216509686	-0.246772071583071	-0.956081189088422	-0.00924379081005235	0.0101806717860592
5.3	-0.0116222830884928	-0.00193472037723068	-0.392369097882889	-0.906067380272205	-0.392080778136861	-0.906411301334675	-0.00633662707835043	0.0113599243204945
5.4	-0.0115516913279111	-0.00102245055947667	-0.528165641596665	-0.834425174547696	-0.528029927575391	-0.834714183482486	-0.00373424970035457	0.0116312354818333
5.5	-0.011875995745995	-0.000397084183976462	-0.651520805521752	-0.74244618044696	-0.651470988728121	-0.742759580715986	-0.00234063356294302	0.0116239470651179
5.6	-0.0120488302429678	0.00133181740155252	-0.7586657818291	-0.632010172879264	-0.758679274214215	-0.632180262652175	-0.000231079365057979	0.0127120058613032
5.7	-0.0120127472613782	0.00275698855783051	-0.847443082217904	-0.506613190574486	-0.847419388032973	-0.506788016869553	0.00247941605302652	0.0129355163364124
5.8	-0.011779707216977	0.00471081205039718	-0.915614027086837	-0.368934294786613	-0.915658810657938	-0.369225979816993	0.00512489514407194	0.0124816190067925
5.9	-0.0109858032991284	0.0065061196229858	-0.961890724977809	-0.222502256044561	-0.962010958678758	-0.222550119490574	0.00753505768499349	0.0112504190886201
6	-0.00981321516814504	0.00795516164508945	-0.984605785707003	-0.0702066765309018	-0.984602749818057	-0.0702752625949735	0.00852602741661809	0.00928009241664131
6.1	-0.00865406109156592	0.00933484803544833	-0.983155071632037	0.0830568397384132	-0.983158260487424	0.0829536919489437	0.00927973978369221	0.00866427878131772
6.2	-0.00722202741587186	0.0103389111432778	-0.958341560684506	0.234492983622522	-0.958389511722372	0.234311585848316	0.0107793593966027	0.00728297690218357
6.3	-0.00607676023525937	0.0107641382665685	-0.910399035510591	0.38029559729177	-0.910423285384331	0.380167130447463	0.0119546378983853	0.00499801171433329
6.4	-0.00494743644385249	0.0110216227151748	-0.840208613632018	0.516980032782613	-0.840199827385963	0.516766833967025	0.0124314610401839	0.00196207429089249
6.5	-0.00401882620306831	0.0108297793379877	-0.749625258829107	0.64061192499173	-0.749725454097966	0.640439885631928	0.011947200895764	-0.00134331853011197
6.6	-0.00290696495178988	0.010812482462659	-0.641565293699828	0.749100259158664	-0.641713355991992	0.748954379711912	0.0109063073708538	-0.00415622310276092
6.7	-0.00188337990931175	0.0104508706092988	-0.517547356625479	0.839693331945632	-0.517668168421248	0.839536255795475	0.00890745197499122	-0.0067798747262568
6.8	-0.000771960362430639	0.010203505070671	-0.380850211125693	0.909731554132066	-0.381060903173085	0.909656400819555	0.00615157663319329	-0.00841419286857928
6.9	0.000345052643171629	0.00955498428243956	-0.235166147327442	0.957520917664266	-0.235416406343144	0.957516821189565	0.00345820341188834	-0.00904614360090128
7	0.00146683396039384	0.00886327829731224	-0.0842567210350042	0.982610218929627	-0.0845145643217958	0.98257973449386	0.000860568595067383	-0.00901741796413845
7.1	0.00237945554364909	0.00791798817310132	0.0694410853884961	0.98406413209718	0.0692346915599322	0.984051737588957	-0.00119891403990843	-0.00832921068809132
7.2	0.00317053582535832	0.00685955365445107	0.221357690867365	0.96124586678835	0.221102636504575	0.961289487771901	-0.00283804445317585	-0.00724444561316308
7.3	0.0034239826942606	0.00556695262905284	0.367698822470811	0.91521361565313	0.367458787139312	0.915303857298809	-0.00419569257635709	-0.0058439517248788
7.4	0.00356150648949418	0.00440498859064483	0.50507049721183	0.847219322292279	0.504852192267658	0.84738063251788	-0.00525139290144028	-0.00428418902936883
7.5	0.00315360689785377	0.0030474318165005	0.630835630330452	0.758809468715703	0.630675412353112	0.758980946522927	-0.00602120625446653	-0.00242746692572848
7.6	0.00275831948460468	0.00218921736294977	0.740962358178422	0.651333562334339	0.740746923867986	0.651493982028556	-0.00569563884480248	-0.000430631526015094
7.7	0.00208651888320047	0.00161305594034195	0.832826128887325	0.528543248554165	0.832674893010819	0.528737747179917	-0.00483558851545233	0.00105419895293524
7.8	0.00173448983606883	0.00147658407063421	0.904906998098037	0.392950631706066	0.9047858070003	0.393171858321588	-0.00347010726657467	0.00192685156713649
7.9	0.00143431323068508	0.00148342033748228	0.955122290511946	0.247753165088551	0.95508147858146	0.247978450395754	-0.00222125082324638	0.00195104780872247
8	0.00117172014380974	0.0010587675394315	0.981746760697318	0.0959794324894775	0.981816875967346	0.0962713799171778	-0.00254752262792815	0.00127698245309399
8.1	0.000308725713558662	0.00172605107975101	0.98446013514687	-0.0571268002675046	0.984583770763087	-0.0568556132433482	-0.0033010036122957	0.0028983123931216
8.2	0.000151298745312719	0.00253447359159698	0.963822762367451	-0.209083980383231	0.963888119195923	-0.208788100968945	-0.00269772245155444	0.00444752277668122
8.3	-1.55207320734294E-05	0.00351808135215767	0.919740628253843	-0.356255750121287	0.91987775340795	-0.355999654901936	-0.00145362965633433	0.00555155057145623
8.4	0.000531662044098568	0.0046500256922061	0.85307109046358	-0.494871274510076	0.853282469745636	-0.494671267187487	0.000444198243946048	0.00596791879636634
8.5	0.00140071957504466	0.00509314782594722	0.765800642100322	-0.620674907802507	0.765916120238978	-0.620548936008813	0.00191911210177469	0.00469941907419268
8.6	0.002122764392327	0.00554123022725935	0.660585967456256	-0.73209013846031	0.660782867619958	-0.731904451792366	0.00213420792928925	0.00449420050127973
8.7	0.00306901732305469	0.0058267917014434	0.538833767796298	-0.825830917776436	0.539115216210526	-0.825721156048485	0.0033285322299485	0.00442261643161679
8.8	0.00435238420501234	0.00569530407610719	0.404103120544793	-0.899414604172894	0.404308986404949	-0.899359833798681	0.00456355002844698	0.00376848329493019
8.9	0.00568422770004422	0.0052573665274573	0.259674851751063	-0.951007212499287	0.259916213316065	-0.950866442753498	0.00608658268091145	0.00275225877363757
9	0.00745961333270757	0.0038928965224236	0.109440983648826	-0.979998180969289	0.109802964496187	-0.97996749612708	0.00736192325751872	0.00077499192725434
9.1	0.00883307974714248	0.00208616353701811	-0.0443344705401398	-0.985445837085568	-0.043981856924211	-0.98545968581129	0.00807037048874916	-0.00116831830145759
9.2	0.00995983265082563	-0.000507995400636859	-0.196988285007581	-0.966395929439439	-0.196632208029992	-0.966465979414114	0.00846442603462367	-0.0034389764442632
9.3	0.0100590555966886	-0.00305605749220683	-0.344535935896792	-0.92405154425831	-0.344178573607165	-0.924115257767615	0.00794537796575193	-0.00533823124569122
9.4	0.00991951139423917	-0.00556541529232595	-0.483532423040638	-0.859665190690313	-0.483208631249302	-0.85981243588364	0.00708603150270138	-0.00678516691948297
9.5	0.00845015200614362	-0.00787502659623088	-0.611755100860399	-0.774375571321278	-0.611548413545601	-0.77451272083304	0.00488599210117053	-0.00709550181842409
9.6	0.00711992581442706	-0.00946445863998955	-0.724517690607923	-0.669364476348958	-0.724244410103621	-0.669549120953429	0.00441171244563219	-0.00576613052418536
9.7	0.00513692486020903	-0.010829926885698	-0.819372800150793	-0.548803657812271	-0.819125907854786	-0.549072846745012	0.0046608679168307	-0.00573766727112864
9.8	0.00276750563751719	-0.0116116829924159	-0.894679806674096	-0.415023886952992	-0.894470153229674	-0.415298814229301	0.00464504314031672	-0.00598629220974657
9.9	0.000442523345723748	-0.0114443772412007	-0.948514423077775	-0.270954180469064	-0.948401489647267	-0.271283808170277	0.0048609263561187	-0.00674754249448324
10	-0.00216434720666474	-0.0116377383162507	-0.978740492524494	-0.119757964290498	-0.978660097208586	-0.120136924029342	0.00318705827933298	-0.00810166004702546
10.1	-0.00499595644140005	-0.0101296236752404	-0.98497998075307	0.0332146651773716	-0.984959881089065	0.0327363658371732	0.00179880277953362	-0.00675633763643013
10.2	-0.00704279469514749	-0.00854508424383358	-0.968045892650223	0.185660197820836	-0.968030689400277	0.185209918375927	0.00201726916042847	-0.00616007990271281
10.3	-0.00903959025927112	-0.00631943076746255	-0.927427395228855	0.333913255023422	-0.927562715879362	0.333372354670745	0.00218324455349232	-0.00656178478218465
10.4	-0.0102460617604356	-0.00398634531376167	-0.863843946537354	0.4739727082817	-0.86410938170992	0.473436755780212	0.00228469875335234	-0.00786807965103386
10.5	-0.0111196918606989	-0.00164185692710222	-0.779501655167322	0.601459841950489	-0.779784299797196	0.601073078897702	0.00123677253713729	-0.0102109039910294
10.6	-0.0117090758629076	0.00101444665849235	-0.677170714811743	0.71514045237772	-0.677596944544333	0.714796521340474	-0.00114310174604196	-0.0112404440812663
10.7	-0.0111514736312292	0.00424385202453473	-0.557886064094435	0.811728609567261	-0.55829773423483	0.811440469694191	-0.00271981352876811	-0.0108018751424117
10.8	-0.00943109562741303	0.00680819574335311	-0.424848735518929	0.888283348866995	-0.425359287155621	0.888054554939262	-0.00358350214384846	-0.0104452352884491
10.9	-0.00727902975937019	0.00888624238179286	-0.281936499301793	0.942983956971864	-0.282424232342175	0.942933211924371	-0.00447572673660863	-0.0104272610694332
11	-0.004680726075715	0.00989332510699132	-0.132787546859369	0.97564543769622	-0.133333975703413	0.975641323614095	-0.00545668576510026	-0.0104304099863684
11.1	-0.00182136795156701	0.0106476918402215	0.020953430645315	0.984609227102174	0.0203239912463799	0.984692842919569	-0.00605804644784477	-0.0101763482745858
11.2	0.00117266647719795	0.0103431042751847	0.173552463690861	0.969076182551318	0.173033412273784	0.969279962893299	-0.00646317722429768	-0.0101974457427189
11.3	0.00406072828021826	0.00961371492896955	0.321543682236755	0.930267566783433	0.321114426029621	0.930530690327702	-0.00666392691608677	-0.010183318971471
11.4	0.00681133338604628	0.00791518875067595	0.461882969562338	0.869451715082636	0.461418841335706	0.869712231969862	-0.00701337167721068	-0.0104665282709915
11.5	0.00855052053600029	0.00590289861948575	0.59205563108913	0.787199969374711	0.591698027850689	0.787619169155348	-0.00894806671723387	-0.0102967559473242
11.6	0.0101448220740464	0.00378171353706603	0.706694518242298	0.684990231688149	0.706428843618689	0.68547167107177	-0.00961287124109876	-0.00846655594532992
11.7	0.0112007375873475	0.00153332972559952	0.804187058685903	0.567076233779183	0.803948992034903	0.567499069237015	-0.00957773152078691	-0.00758802457931553
11.8	0.0115417331461151	-0.000841212299786954	0.882513865249542	0.43531047524509	0.8823311036638	0.435863588027302	-0.00972905592027322	-0.00708408754419366
11.9	0.0118105901891837	-0.00270365803655718	0.939705168113561	0.292867748272059	0.939668639419421	0.293412572982949	-0.0100267631895918	-0.0069890169761734
12	0.01110801759037	-0.00557758256544852	0.973099527552391	0.142696732326738	0.973089309685989	0.143176606248435	-0.012028075306309	-0.00754783305294472
12.1	0.0101688137950696	-0.00705137561043833	0.982824542553914	-0.00955255298434009	0.982801644447077	-0.00907947786168805	-0.0136823361398971	-0.00518772085512056
12.2	0.00879550067277523	-0.00923044288351551	0.969340685923123	-0.161942683549372	0.969448984344949	-0.161505815871995	-0.0140726117158707	-0.00331227173724955
12.3	0.00658874910880179	-0.0107547913885877	0.932140549523656	-0.310382995678438	0.932327590826158	-0.310025587411592	-0.0142720408035815	-0.00161527618295848
12.4	0.00395435097857028	-0.0115326274613392	0.872249892077974	-0.451274587876908	0.872384192151925	-0.450900417143707	-0.013880820412146	-5.4782104267619E-06
12.5	0.00151353218203201	-0.0119258022158064	0.791222912588398	-0.580028979174312	0.791681997836304	-0.579638556250333	-0.0139198804620983	0.000377371250560014
12.6	-0.00121222307452172	-0.0114498238904156	0.692352821783971	-0.695675790164765	0.692700036370967	-0.695367540089998	-0.0144467843693973	0.00233849022963969
