# GHZ S RI R 50
0.2	-0.000264075870090184	7.75523750285319E-05	0.948555632971955	-0.308043924125285	0.948329450721941	-0.30818569844695	-9.12375640231678E-05	0.000220950695850982
0.3	-0.000337224490330099	0.000315519002920249	0.88845968160074	-0.451656742192134	0.888322310217805	-0.451709872911982	-0.000130333430068017	5.27283195740534E-05
0.4	-9.31529813196477E-05	0.000370301540447483	0.806811880291604	-0.583771347124421	0.806851899682384	-0.583910870130333	8.40485678767725E-05	-5.50297066312786E-05
0.5	-0.000312079810877224	0.000369611509015053	0.706077002125032	-0.701753585059114	0.705966473448384	-0.701849322237619	8.29425132544459E-05	-0.000345148865999976
0.6	-0.000381232364834356	0.000623699674078977	0.58822060378607	-0.802718473242909	0.588031217889376	-0.802721311075453	-7.02243769742595E-05	-0.000399247190536238
0.7	-0.000335718705222088	0.00102880010211337	0.456135359349348	-0.883867290919652	0.456061397441662	-0.883901604712042	-2.45659041677999E-05	-0.000579470673232729
0.8	-6.44198837007678E-05	0.00108472983828249	0.313226424611379	-0.943666806165472	0.313108067526459	-0.943580154652792	-0.000123148253199375	-0.000748691436139507
0.9	0.000156464130694509	0.00135080522289457	0.16292353896494	-0.980479117300384	0.162774761440553	-0.980436291421772	-0.000257431090240358	-0.000999590984740911
1	0.000276135830607489	0.00095450580380553	0.00864137562126091	-0.993628851426607	0.00852347625350761	-0.993599189948876	-0.000607495963678148	-0.00163962201825423
1.1	3.25848626869257E-05	0.00126025929701862	-0.145133751778032	-0.982579886256978	-0.145780185234554	-0.982544620953665	-0.00168469593630796	-0.00144446759074797
1.2	0.000490990254964042	0.000829455895285946	-0.296508357386898	-0.947687185926872	-0.296501412548302	-0.947742763724059	-0.00179550461471414	-0.000875516008647941
1.3	0.0011406970170547	-0.000301265348380933	-0.439778165690519	-0.889902651641944	-0.439870088788587	-0.889927056545115	-0.000754079342546756	3.61916369766461E-05
1.4	0.00161779960111592	-0.00232290451674775	-0.57229988973634	-0.810763192808085	-0.572373530252892	-0.810663814591184	0.000908912425808393	-0.000221663571007541
1.5	0.00144450374545691	-0.00325362508807243	-0.691181263968831	-0.711655148973259	-0.69120579837603	-0.7115832553572	0.00193692271690958	-0.000985850745956245
1.6	0.00155953960847465	-0.00383001029024734	-0.792435910849232	-0.596025983497776	-0.792864383873006	-0.59552669145171	0.00209433166908218	-0.00188140886135378
1.7	0.00129942677834996	-0.00417671966015465	-0.875008768525337	-0.465782160853536	-0.875312467841284	-0.465293555175704	0.00154656536291678	-0.00268089350359653
1.8	0.000741315849123105	-0.00442848996440445	-0.93663080753581	-0.323911451531816	-0.936646221359832	-0.323902015865557	0.000570262871573837	-0.00337668783144129
1.9	0.000133177301459245	-0.00448347733618485	-0.975366540118228	-0.174493502825513	-0.975410915264212	-0.174546125700471	-0.000543899660989882	-0.00386879753990421
2	-0.000930875591281232	-0.00412397605017645	-0.99002593799253	-0.0217900919510299	-0.99012080254381	-0.0211425422034474	-0.00229341239619166	-0.00348451162716259
2.1	-0.000961389559922319	-0.00356142525645901	-0.981302156703214	0.13299495221075	-0.981401012067013	0.132512014755408	-0.00265027667883622	-0.00251649692831396
2.2	-0.00154664368065113	-0.00370300957816287	-0.948914058928006	0.282839722657979	-0.948952860299223	0.282973076552453	-0.00299319534339964	-0.00225927668551411
2.3	-0.00226904616088212	-0.00350470603756316	-0.893480627342428	0.426465354377928	-0.893317339738955	0.426553752463927	-0.00348910839995474	-0.00203678139904799
2.4	-0.00324973892025497	-0.00324223698910215	-0.815902526791607	0.560234494593191	-0.816192464594855	0.559773478784093	-0.00402706934079982	-0.00195738205947372
2.5	-0.00435252134721407	-0.00222338030544695	-0.719614467273104	0.67974169807781	-0.71991531208211	0.679361520972698	-0.00485402781492803	-0.00177973322919534
2.6	-0.00443514774446598	-0.000800120631576002	-0.605859868514074	0.782991526594751	-0.605780719384448	0.782932411971154	-0.00484800816326731	-0.000789413595543241
2.7	-0.00382631010348063	-1.79326313252274E-05	-0.476932332980383	0.867305162343113	-0.476902952808935	0.867319272908722	-0.00449984720187226	-0.00041914485608231
2.8	-0.00326384011898525	0.000195745508678823	-0.336895190063245	0.930642134995664	-0.336777448687697	0.930726669392667	-0.00408161213739025	-0.000181078533850528
2.9	-0.00232956770541858	0.000253334130053989	-0.188650732912962	0.971628001201757	-0.188646413393458	0.971682679777474	-0.00355871113097043	0.000277818865844616
3	-0.00147253642523642	0.000146651577474118	-0.0352928879365484	0.989396140598915	-0.0353572400079969	0.989467307368348	-0.00256653722392384	0.000873924179329666
3.1	-0.000382325929827862	-0.000307396442361485	0.117895000496353	0.982688719198089	0.118541600513667	0.982771197468431	-0.00131793440784143	0.00105730323692324
3.2	6.11989997569728E-05	-0.000999124396396025	0.269356330464367	0.952346063717043	0.269346297734414	0.952385554545258	-0.000552336248311874	0.000788275197585869
3.3	0.000670125687056126	-0.00169990270869343	0.41449511038613	0.898881670582738	0.413872844524803	0.899161099646	0.000378763567124875	0.00038924268108522
3.4	0.000715947814302801	-0.0024773029546917	0.548567218752234	0.82410298735886	0.548482115935094	0.824217893469879	0.00110045346768572	-0.000394401662889445
3.5	0.00105823037852806	-0.00285873539338135	0.669683091625037	0.728823658514223	0.66969723420988	0.728849849952772	0.0015250803252376	-0.00103282820787931
3.6	0.00115088840970228	-0.00380302072106204	0.773919123395084	0.616688820747079	0.774341649981144	0.616296592914652	0.00193289669941847	-0.00204768175659665
3.7	0.000892455646391827	-0.00471754593656241	0.860701364477777	0.488747714262672	0.860707981795851	0.488874097701805	0.00181895762205486	-0.00306509784739204
3.8	0.000167168525207671	-0.00540808345017807	0.92613634615719	0.349276163901989	0.926164150534714	0.349459334971488	0.00122907530777971	-0.00411581838852487
3.9	-0.000370105680766404	-0.00592008394975207	0.969215100583128	0.200759596874631	0.969115050789421	0.201346604816508	-4.8085625312185E-05	-0.0052515249626886
4	-0.00126948267761203	-0.00574449401676627	0.988484439507854	0.0490263401236878	0.988566202560903	0.0490695681221806	-0.00167539719257184	-0.00545607116624483
4.1	-0.00116675970145356	-0.00602551506699236	0.984730594385854	-0.104833825432019	0.984668278759987	-0.104770051947796	-0.00261581603644071	-0.00550486142816084
4.2	-0.00199387151752676	-0.0066911794167704	0.956388392105979	-0.257160170306462	0.956579912141689	-0.256590337613084	-0.00382145251815502	-0.00572108937929763
4.3	-0.00291639699874934	-0.00746183979587368	0.905249548154587	-0.401972026545248	0.905250357850163	-0.401953495646194	-0.00525025809395054	-0.00597757725212859
4.4	-0.00455683218675115	-0.00799256206203121	0.832069191422617	-0.537433589174379	0.831989223332728	-0.537417937341768	-0.00714291811173906	-0.00600832416870507
4.5	-0.00648603399831074	-0.00786643863423177	0.73916545043007	-0.660387420263371	0.739041344329055	-0.660241724152717	-0.00958308914168715	-0.00533549230270323
4.6	-0.00789456871008807	-0.00696792833719463	0.627525534643855	-0.767596887693413	0.627510224135854	-0.767367282635205	-0.0113330050485452	-0.0036801048689097
4.7	-0.00906637762290161	-0.00663042299051523	0.500572501413706	-0.855839998261991	0.500688949754627	-0.855594697710414	-0.0128487306577829	-0.00221855084802347
4.8	-0.0104154926201897	-0.00578845917285779	0.361445110760865	-0.923158409636756	0.361738632846806	-0.922968747731611	-0.0139116896188827	-0.00029795761125033
4.9	-0.0112599368783378	-0.00504882064566714	0.213818914381641	-0.96800178709391	0.214078994024463	-0.967949903467306	-0.0142564377893343	0.00200810343830727
5	-0.0119033532010019	-0.00398602593756451	0.0609348759720522	-0.989669965946943	0.0610931272749181	-0.989541402757738	-0.0136532093410275	0.00468671130455288
5.1	-0.0119717631168791	-0.00342593260018585	-0.0933646666716398	-0.986977893310678	-0.0930430526508833	-0.986914239512482	-0.0119961139887689	0.00699815518083647
5.2	-0.0124056661620685	-0.00252174513134177	-0.245512309495239	-0.960712288295611	-0.245083621685878	-0.960833557903027	-0.010212644752755	0.00907198921375348
5.3	-0.0127301160445662	-0.00160200323470205	-0.391828227141459	-0.911200862243809	-0.391537711155607	-0.911545608666097	-0.00789433891438599	0.0108678774730692
5.4	-0.0129336929262951	2.9716345184959E-05	-0.529022338490487	-0.839417731762655	-0.528885412170762	-0.839707841886021	-0.00551432382035211	0.0122046092819723
5.5	-0.012281953864305	0.00189016609601364	-0.652948008319811	-0.746584724890271	-0.652897461453383	-0.746899327207561	-0.00275117290763008	0.0135067563152983
5.6	-0.0114081440816674	0.00271168269325523	-0.760661191562561	-0.636405209612058	-0.760674381660258	-0.636576076722892	0.000454884480447872	0.0133859996383591
5.7	-0.011468478892679	0.00356390455305221	-0.85059932882539	-0.510637330225276	-0.850575195219475	-0.510812957805297	0.00289404714475588	0.0129816557239013
5.8	-0.0114487641946443	0.00515959661786591	-0.919670095574005	-0.372102404200541	-0.919714683125083	-0.372395615299459	0.0051838455127635	0.0122959131443113
5.9	-0.0113583982480149	0.00676485811958287	-0.966288923335408	-0.224644144844512	-0.96640968449166	-0.224692372924437	0.00687977626329609	0.0111903276409959
6	-0.0104227332689469	0.00962019885628895	-0.989396244769004	-0.0721658990899614	-0.989393081658211	-0.0722348219822459	0.00811888509316868	0.0109366744641843
6.1	-0.00790401311163237	0.0107576851763427	-0.989032518878277	0.0825224409215315	-0.989035619151095	0.0824186821977512	0.0107199474810439	0.00970760198436115
6.2	-0.00632966931052	0.0109997610609647	-0.964090069662204	0.235595069851637	-0.96413825045623	0.235412582882168	0.0124016809234464	0.00712596370751153
6.3	-0.00549240456424187	0.0108596083546488	-0.915595941778106	0.382610546574476	-0.915620348766957	0.382481342417291	0.0130877660372422	0.00396665529696345
6.4	-0.00504166296710196	0.0109436139058154	-0.844917691243595	0.520043182104516	-0.844908885463899	0.519828768353652	0.012600000696249	0.000654500628350493
6.5	-0.00455968221907832	0.0112835302771947	-0.754188657431901	0.64522012141424	-0.754289603381056	0.645047009131095	0.0114681115757864	-0.00210459943861668
6.6	-0.0035078671363961	0.0116914760023417	-0.644282018819742	0.754820426790798	-0.644431243811617	0.75467389215018	0.0101323140527841	-0.00441779874797409
6.7	-0.0022269848780167	0.011851662149964	-0.518945630242445	0.845556046794714	-0.519067443550584	0.84539828998174	0.00829573159162733	-0.00630042478370351
6.8	-0.000574325826191941	0.0117220141695633	-0.381190473573836	0.915767887943668	-0.381402537006865	0.915692731249343	0.00615188834192708	-0.00764675596957009
6.9	0.000908179740509614	0.010919932782384	-0.234308577626676	0.963992380345282	-0.234560389838786	0.963988861789133	0.00397727920434319	-0.00838854005845523
7	0.00250395769760142	0.00988047688960216	-0.0810232298462408	0.988811757764225	-0.0812827323703696	0.988782071744432	0.00197082400032923	-0.00880940926573846
7.1	0.0032819755136066	0.00829216999322678	0.073603604772935	0.988746818137317	0.0733961243447482	0.988735161053098	-0.000241819526952589	-0.00886990905298416
7.2	0.00379911008637864	0.0069567884876764	0.22625256620092	0.965133995290582	0.225996420463495	0.965178840210075	-0.00218314132942249	-0.00811568392023081
7.3	0.0037599400424424	0.00545244442019836	0.373521667943926	0.918114526724373	0.373280844648564	0.918206265005681	-0.00386265764109053	-0.00697830450017606
7.4	0.00345464698443849	0.00422276128320681	0.511850675051748	0.848504385163521	0.511632202224634	0.848667587033885	-0.00539187620148616	-0.00553072375099854
7.5	0.00296926133522085	0.00314387341340871	0.636994834962906	0.757843817740069	0.636835028553278	0.758016719967099	-0.00622564847369529	-0.00346623148476314
7.6	0.00245988238630511	0.00186232348520038	0.746565007179393	0.649892477226659	0.746349639209466	0.650054470584764	-0.00618599119095501	-0.00206772319952624
7.7	0.00105435702169292	0.00123486431553158	0.838360354026278	0.52593258542638	0.83820963558012	0.526128522217068	-0.00636093072623787	-0.00063310073251229
7.8	-6.10400927072917E-05	0.00148479542086306	0.909799816146225	0.388945182341862	0.909679530613123	0.389167748326376	-0.00600585692730038	0.000864696067938206
7.9	-0.00127102293781519	0.00241002472398105	0.958573521428198	0.242634157843451	0.958533953635076	0.24286015320545	-0.00559300941423145	0.00248391956439979
8	-0.00109559423698805	0.00474920483640788	0.984110245557998	0.0912818880301491	0.984181947309271	0.091574047706302	-0.00513881205111045	0.00479204665994507
8.1	0.000495970062520955	0.00551690876994666	0.986520495619512	-0.062866319336597	0.986645973730915	-0.0625951786426191	-0.00268097532889675	0.00629185817774279
8.2	0.00156061816745556	0.00548438493780481	0.964235781083178	-0.215491377294395	0.964303106980134	-0.215195378421394	-0.000735848301488703	0.00660396336528312
8.3	0.00209545221049149	0.00533412540361739	0.918442516387633	-0.362418874452714	0.918581396673556	-0.362163379711541	0.00115339316820262	0.00625403207391578
8.4	0.00237489573776221	0.00493150520468587	0.850747924361022	-0.500074827785051	0.850960581805923	-0.499875913042321	0.00255347399248811	0.00498864357741646
8.5	0.00198781174538883	0.00563955417605726	0.763160591573689	-0.626158019951653	0.763276990684553	-0.626032562813576	0.0027756612840151	0.00415756899022274
8.6	0.00343246361099933	0.00592511661577872	0.655842042130523	-0.737007587305632	0.656040320296216	-0.736823172700336	0.00396377959960142	0.00349110534949796
8.7	0.0040926443092872	0.00544273971619027	0.533151820665197	-0.829225587998743	0.533433930514171	-0.829117743096146	0.00468122346733527	0.00222517093601518
8.8	0.00482102112801753	0.00486262610602067	0.398083088223603	-0.901514821090927	0.398289191779925	-0.901461407535378	0.00489610164829847	0.000860016228925934
8.9	0.00527375432878049	0.00407911755670155	0.253400599292548	-0.952371248441823	0.253642793984148	-0.952232096654155	0.00493416549667147	-0.000448223976111621
9	0.00589981864920075	0.00337344236047769	0.101726613386549	-0.979799439337299	0.102088445324605	-0.979771593542975	0.00466819113312842	-0.0013258029610163
9.1	0.00683421792792559	0.00247174570437491	-0.0512009008411231	-0.982768791679284	-0.0508492308754758	-0.982785102202332	0.00481497867753715	-0.00193224622147847
9.2	0.00798580133341664	0.0012767597158867	-0.202902374363363	-0.962621182431986	-0.202547671427112	-0.962693417978359	0.00530468674530255	-0.0023262145222728
9.3	0.00922468305227608	-0.000331699022288492	-0.349814016488712	-0.919262934953375	-0.349458039532515	-0.919328876014265	0.00625928429370856	-0.00290345197517387
9.4	0.00992717242696214	-0.00291012234693228	-0.488279840813433	-0.853342089959042	-0.487958174756027	-0.853491235797611	0.00676913394769156	-0.00420237876501061
9.5	0.0100484535196455	-0.00506715329917496	-0.613915942311818	-0.766249921487583	-0.613711245579238	-0.766387781000911	0.00695337612271332	-0.00463326299479048
9.6	0.00892148147068605	-0.00876335052349423	-0.724714577765101	-0.661947628477235	-0.724443696332892	-0.662132904139612	0.00673410723763562	-0.00619085815193339
9.7	0.00601980102337723	-0.0107166522054065	-0.818321124334587	-0.541402687476988	-0.818077000438467	-0.541671906481281	0.00570696313864092	-0.00707324989653371
9.8	0.00297582925056826	-0.0117529835154442	-0.89194970639894	-0.407640711406112	-0.891742786412149	-0.407915261747918	0.00465731867676941	-0.00758153957148929
9.9	-0.000581885852997544	-0.0114809141892303	-0.943448843444062	-0.264243612669995	-0.943338369645604	-0.264571576482572	0.00337190066335781	-0.00787858622203687
10	-0.00304361863298411	-0.00952421427378552	-0.972512630689011	-0.115706775680874	-0.972434034344826	-0.116083436811006	0.00224302380727048	-0.00671070187246562
10.1	-0.00451747017873701	-0.00885043642609698	-0.978732649779964	0.0365480470864017	-0.97871439417722	0.0360726511879502	0.00248761620040353	-0.00658200959971796
10.2	-0.00693766986272419	-0.007914483800556	-0.960771356736554	0.187685001977666	-0.960757792132004	0.187237760124987	0.00209531026090061	-0.00685880856697572
10.3	-0.00950988785541554	-0.00586983045951545	-0.919708002595303	0.333883228627733	-0.919843744225963	0.333346674437164	0.00136545409325099	-0.00735351864623821
10.4	-0.0116452856601585	-0.00327401024808417	-0.85695168316522	0.471636052835092	-0.857215876908768	0.47110433961632	0.000324489425671327	-0.00798910686804168
10.5	-0.0128290569424956	0.000991915439850651	-0.774209888858829	0.599055994551933	-0.77449143160359	0.598671835841271	-0.000722386684547815	-0.00786881747735485
10.6	-0.0114575635628195	0.00441204706363172	-0.671294183351388	0.711819288997467	-0.671718313547103	0.711478469701863	-0.000677707232735506	-0.00797779224589591
10.7	-0.00963884103712358	0.00680221631320154	-0.552818869555326	0.80678728659484	-0.553228040937032	0.806501753423085	-0.000569761647565421	-0.00876126861398812
10.8	-0.00774580428856643	0.00804658127749216	-0.421242315089199	0.882349568280725	-0.421749445304724	0.882122739264236	-0.0011101751241705	-0.0100296275189111
10.9	-0.00618937118011875	0.00947253371317117	-0.2796940836792	0.93713136654718	-0.280178743988529	0.937081177637043	-0.00253404908025982	-0.0108948774311727
11	-0.00377733451145539	0.0105109841071143	-0.130288221456203	0.968975367368981	-0.130830802034007	0.968972157483963	-0.00369848526859864	-0.0111625730829873
11.1	-0.0012644187058327	0.0109756202848144	0.0210572911635079	0.976596895509682	0.0204329934476645	0.976680006709187	-0.00478024349183062	-0.0115067456569062
11.2	0.00141080997325904	0.0107090297933532	0.171635724246511	0.961568203845418	0.171120630820682	0.96177008758955	-0.00574231818462077	-0.0116782214137727
11.3	0.00396414229180889	0.00999054640883616	0.318334135862932	0.923503258491483	0.317907904902648	0.923764033444942	-0.00655771186692522	-0.0117226077514918
11.4	0.0060877417397127	0.00871351566924559	0.457853621709317	0.862864501240722	0.457393003216209	0.863122757933002	-0.00769768916627501	-0.0114079186752711
11.5	0.008885961763679	0.00765892409023689	0.585126219895695	0.780775898282514	0.58477127919819	0.781190531786264	-0.00827673293383399	-0.0102974120202949
11.6	0.0107285135567767	0.00421570321153081	0.698495982511004	0.681503156610222	0.698230985712104	0.681979664621578	-0.00892937563013777	-0.010250436474827
11.7	0.0110616003108263	0.0015622237275413	0.795830467789082	0.565307344063418	0.79559285184365	0.565725991519253	-0.0101298071933407	-0.0097800100554181
11.8	0.0105729048751227	-0.00101005960765241	0.873773606192018	0.434990403771124	0.87359031476824	0.435538366250869	-0.0115398440236115	-0.00914328677632372
11.9	0.00929362080578223	-0.00240668658575115	0.929978261823719	0.294485323671036	0.929939603053111	0.295025109897787	-0.0135609497654196	-0.00772779032052903
12	0.00865002934919424	-0.00222923720086036	0.964408674509233	0.148281550961342	0.964395226182101	0.148757554199438	-0.0147676397492524	-0.0046699829606977
12.1	0.00920656919323253	-0.0037301442205669	0.976477438058522	-0.00296576785772865	0.976451548791178	-0.00249593036379316	-0.0143009264496754	-0.00255427465218469
12.2	0.00838905108122563	-0.00558439461214505	0.964288631355323	-0.154223237897365	0.964393225985388	-0.153788403417158	-0.0138614710333886	-0.00066797249037061
12.3	0.00733762354377199	-0.00706200122445349	0.928882867087524	-0.301373132245248	0.929066042628239	-0.301016452379705	-0.0128084826147448	0.000754934192087625
12.4	0.00531517547848425	-0.0088135892201542	0.871879474228214	-0.441239060309746	0.872009767569117	-0.440865576263999	-0.0119279176905967	0.00120595651582732
12.5	0.00283754946058194	-0.00884768111542489	0.793901717315676	-0.5720144023314	0.794356393558464	-0.571621239468667	-0.0118433742078698	0.00205322914901345
