# GHZ S RI R 50
0.2	-0.000303779559959782	0.000129208803024356	0.948454180035674	-0.308045687411586	0.948228014853606	-0.308187440606758	-0.000151071665952805	0.000295074657959679
0.3	-0.000335465414346671	0.000411270549150783	0.888339376016772	-0.451650819485182	0.888202017162563	-0.451703937558279	-0.000154044382300342	0.000197514170621407
0.4	1.27024873787846E-05	0.00048782086107963	0.806633714266098	-0.583740412087121	0.806673716010767	-0.583879915518979	0.000172454646768561	0.000137260836107613
0.5	-0.000131472030890022	0.00033214479999146	0.705890074008872	-0.701551200468676	0.70577957703177	-0.701646912484487	0.000251379978095728	-0.000303867772937496
0.6	-0.000311709901693144	0.000609781967914673	0.588188471454953	-0.802516553654661	0.587999120442269	-0.802519408749549	-3.56025719169908E-05	-0.000309659105389997
0.7	-0.000205422713667221	0.00106726576902472	0.456112714359855	-0.88368691172231	0.45603876731453	-0.883721224281921	7.39578324401899E-05	-0.000386402192643106
0.8	0.000127292284987149	0.00114120265659747	0.313223258103686	-0.943442618395523	0.313104920586013	-0.943355993563003	7.09691419476728E-05	-0.000486796051195761
0.9	0.000504017929583522	0.00149374908339959	0.163031065848799	-0.98017188362622	0.162882324329347	-0.980129093464908	0.000174616108128344	-0.000617507309359477
1	0.00103076270832078	0.000752818010777971	0.00899531144005174	-0.993491115689806	0.00887741747061855	-0.993461500378039	0.000350775885707343	-0.00168263154104181
1.1	0.000372726977637206	0.000705533050095258	-0.144944426409466	-0.98260041677246	-0.145590861828512	-0.982565275592276	-0.00116646858086049	-0.00198840765980759
1.2	0.000559372722817737	0.000268046780675761	-0.296322226606799	-0.947670082575098	-0.296315272609761	-0.947725655150243	-0.00165522265240806	-0.00151640292077574
1.3	0.000636220534860095	-0.000784891127920213	-0.439527961418044	-0.889942538468773	-0.439619871610493	-0.889966963941998	-0.00134097329307684	-0.000537020977562095
1.4	0.000680971775532212	-0.00226547704121389	-0.572040646303901	-0.811001561361947	-0.572114325149801	-0.810902204540485	-0.000236792785623565	-0.000149316869014285
1.5	0.000257534587438784	-0.0027967081606566	-0.691301437664178	-0.711963669199956	-0.691325988944951	-0.711891756675574	0.000438756411699593	-0.000356078033968934
1.6	0.000962044627213419	-0.00260652105942535	-0.792478928442877	-0.596022338441801	-0.792907400892553	-0.595523017769449	0.00124117843029103	-0.000212517990666398
1.7	0.00143113786106502	-0.00317187830015339	-0.874941373156083	-0.465868894971842	-0.875245120085139	-0.465380331697552	0.00162294184727204	-0.00111512441135253
1.8	0.00128358999677035	-0.00375649255203717	-0.936648888430517	-0.324096855498915	-0.936664305079382	-0.324087421728086	0.00123787966275176	-0.00216555956049848
1.9	0.00109200801932223	-0.00436105093613202	-0.975606219229524	-0.174582678314727	-0.975650603221806	-0.17463531658444	0.000662495824287431	-0.00334111291790707
2	-0.000573915991154543	-0.00495394370939378	-0.990014171022186	-0.0214937087007868	-0.990108840205024	-0.0208461425555972	-0.00178245527291823	-0.00407911713101845
2.1	-0.00103036225790834	-0.00371902555217692	-0.981105785428528	0.132914256373387	-0.981204594144052	0.132431413744559	-0.00266737154377328	-0.00233528622820455
2.2	-0.00127988767097064	-0.00379991260921775	-0.948897578474131	0.282725074969535	-0.948936392101728	0.282858418202344	-0.00258341233959331	-0.00194892413308019
2.3	-0.00181524293400853	-0.00373158576711108	-0.89347962731936	0.426457494826791	-0.893316341014781	0.426545893627567	-0.00276459527605489	-0.0019011999417933
2.4	-0.00247030931218492	-0.0037638772353306	-0.815675763895612	0.560267427353912	-0.81596572483223	0.559806535499187	-0.00286069143598785	-0.00229030852334871
2.5	-0.00392532453348004	-0.00394148678226147	-0.719362521019878	0.679188488316305	-0.719663106663996	0.678808457831644	-0.00415233496913914	-0.00362628879050919
2.6	-0.00539280233812971	-0.0021890066363232	-0.606185641147875	0.782617321668668	-0.60610647064615	0.782558251675493	-0.00587819920709715	-0.00235059827126981
2.7	-0.0052125377086213	-0.000515277985120426	-0.477204888680202	0.867161953960087	-0.477175512718593	0.867176073702065	-0.00615844124766908	-0.000930404704105788
2.8	-0.00444327840394025	0.00051851040712431	-0.33710793878464	0.930477886358569	-0.336990229036214	0.930562444166794	-0.00559052858107926	0.000319218861602388
2.9	-0.00300814744860795	0.000918113247738756	-0.18905051875742	0.97128859270475	-0.189046225621703	0.971343259064273	-0.00454155949601046	0.00126159703577173
3	-0.00192049538869062	0.00098489725938129	-0.0362252501915296	0.989589714213273	-0.0362896834806614	0.989660837153597	-0.0033021383803381	0.00216843836411076
3.1	-0.00018033590892674	0.00065634060011143	0.117587843660036	0.98326541181386	0.118234762710038	0.983348178864628	-0.00127760367229382	0.00262006449171436
3.2	0.000649960505282754	-0.000360773753581055	0.269184294542068	0.952756874657146	0.269174247213802	0.952796376578151	1.00789528054161E-05	0.00203922359734573
3.3	0.00147508595780516	-0.00136573650084317	0.414266720039764	0.899339750752495	0.413644140094998	0.899619019277659	0.00124714103212167	0.00128924752502733
3.4	0.00165724725788501	-0.00263008624943982	0.548390328191112	0.824945071378129	0.548305102290425	0.825059994704873	0.00211810268606847	-7.23729855376387E-05
3.5	0.00133629391015805	-0.00326086800371437	0.670468613094543	0.729726992215243	0.670482771911357	0.729753215789974	0.00175360765180016	-0.000962709698626573
3.6	0.0017517285109226	-0.00365335142504375	0.774613826252357	0.61678224413281	0.775036467041888	0.616389624223017	0.00250807618847678	-0.00126366877345079
3.7	0.00192954372193219	-0.00486632112119162	0.86122656899801	0.488842043178886	0.861233212321582	0.488968489695854	0.00296587403072475	-0.00254784056676068
3.8	0.00141995505297573	-0.00596738911902262	0.926807852288257	0.349334191706984	0.926835708693234	0.349517477707686	0.00270923591380599	-0.00407950406026188
3.9	0.0010963870070718	-0.00720174269024709	0.970183064185302	0.20040813639938	0.970083246331213	0.200995718828605	0.00170023528779445	-0.0061200988909275
4	-0.000870429338954639	-0.00818046745887112	0.988707713608078	0.0478155750081158	0.988789543430394	0.0478587093096925	-0.00120649862046678	-0.00768607680609579
4.1	-0.00174411948515251	-0.00765224529462207	0.98439132281006	-0.105304275352497	0.984329057719476	-0.105240488688326	-0.003355180743856	-0.00678274406706202
4.2	-0.0027065052542884	-0.00786642430041144	0.956224410578803	-0.257480604879839	0.95641611862859	-0.256910883502996	-0.00470597588438823	-0.00639541569339427
4.3	-0.00366272196361036	-0.00814073177935454	0.905017160554714	-0.40239068268345	0.905017979137685	-0.402372152969813	-0.00611291831637746	-0.00608953398845935
4.4	-0.00474177470541757	-0.00829140281620599	0.831358871159296	-0.537829823147653	0.831278945232437	-0.537814119364254	-0.00733610674241653	-0.0057695984992231
4.5	-0.00647156024582868	-0.00908015985884398	0.738418680277782	-0.659614639039667	0.738294696792627	-0.659469110330779	-0.00964438452826358	-0.00622903267227863
4.6	-0.00872811789873894	-0.00783119638643373	0.627813844059821	-0.767093424953003	0.62779841126481	-0.766863876277578	-0.0125371400866566	-0.00417963372815042
4.7	-0.00990405441323074	-0.00699528458078485	0.500797977029927	-0.855730566029295	0.500914365823518	-0.855485231343176	-0.0141886101187486	-0.00201320847082741
4.8	-0.0111251698783696	-0.00574717379540456	0.36152968889909	-0.923026563626611	0.361823159500271	-0.922836881765255	-0.0151327487025335	0.000525180735134151
4.9	-0.0116414395474943	-0.00473274467886498	0.214157735981577	-0.967539471254873	0.214417693823257	-0.967487494467919	-0.0150747863837775	0.00328427393154201
5	-0.0122280449276194	-0.00352846250299059	0.0620950575701641	-0.990068444815902	0.062253236776571	-0.989939639907961	-0.0143479929752222	0.00627820358017869
5.1	-0.0116041045411525	-0.00252645124116129	-0.0932774467140565	-0.98790071634606	-0.0929555484711738	-0.987836947727842	-0.0117341862559937	0.00924716860278933
5.2	-0.0112136362509965	-0.00202586264153652	-0.24568414037192	-0.961255222868	-0.245255210670627	-0.961376575869448	-0.0087572391666991	0.0108763133092803
5.3	-0.0110790963364155	-0.00200896477342502	-0.391910393060972	-0.91169315419623	-0.391619693737875	-0.912038034241035	-0.00573459439118501	0.0115008085370377
5.4	-0.0115407571547035	-0.00175890069429064	-0.529174975299976	-0.840379200040128	-0.529037813353154	-0.840669518875995	-0.00364819187661569	0.0110677566387779
5.5	-0.0131752353240424	-0.00010750192164795	-0.65453056382699	-0.747414886919894	-0.654480136486368	-0.747730050797695	-0.00358706937014518	0.0120714945579518
5.6	-0.0118709340026968	0.00254641797531536	-0.761883108930319	-0.635865454159127	-0.761896513283751	-0.636036407183029	1.08381320951754E-06	0.0141129652619664
5.7	-0.0110464573889992	0.00331609578780637	-0.851318958301876	-0.510017286858031	-0.851294977141249	-0.510192989152044	0.00353699372568195	0.0136894926863217
5.8	-0.0104891455354749	0.00446720337685887	-0.920318482134159	-0.371491250956323	-0.920363325734075	-0.371784535570982	0.00654955294762118	0.0124003259581551
5.9	-0.00988093770700563	0.00486374703796762	-0.967168004957912	-0.223608784010013	-0.967288900498662	-0.223656895286085	0.00879312922678514	0.00969610089493446
6	-0.011167847929208	0.00580866622709964	-0.989026615911984	-0.070111267737351	-0.989023594850038	-0.0701801611154645	0.0072321053423698	0.00715335945391178
6.1	-0.01041270337482	0.00904826120541691	-0.98787688341141	0.0832220119856007	-0.987880063172037	0.0831183700006876	0.00752423420675301	0.00846179044713607
6.2	-0.00862621967837953	0.0108052886122971	-0.963310303787296	0.235875833379257	-0.963358535218145	0.235693495612886	0.00939312735134463	0.00787051702076793
6.3	-0.00688043903025387	0.0117838409508173	-0.914909981004553	0.382930433535438	-0.914934448340359	0.382801309458787	0.0111769235233957	0.00615451210034995
6.4	-0.00500786392081517	0.0119322099102024	-0.84369345623973	0.520365500426118	-0.843684856235519	0.520151267337314	0.0124279381654288	0.00299904080628882
6.5	-0.00387590452051034	0.0114830772452402	-0.753036407257382	0.643941817394983	-0.753137140851284	0.643768980156414	0.012180210199003	-0.000570374648425086
6.6	-0.00242441263749027	0.011149746507342	-0.644534314862554	0.754080560489407	-0.644683380593714	0.753933983658979	0.0114983801793142	-0.00375810346365835
6.7	-0.00153713824742381	0.010390825451117	-0.518962179914259	0.845366585931784	-0.519083956425621	0.845208839496615	0.00933514576135318	-0.00683233306859829
6.8	-0.000670525170440252	0.0100569898078567	-0.380907779073607	0.915407073839303	-0.38111975729991	0.91533197671843	0.00628458221326552	-0.00857598121200213
6.9	0.000191051833207068	0.00948262456156895	-0.234414237804202	0.962982354970147	-0.234665805990752	0.962978753124907	0.00328991720119638	-0.00913576570740867
7	0.00135920782110509	0.00929805342594415	-0.0823301825341095	0.988901360232642	-0.0825896976055576	0.988871329467816	0.00069540221228028	-0.00858267909438132
7.1	0.00277221767448336	0.0082273931731324	0.0736184900923127	0.989399593728103	0.0734108735750302	0.989387921918732	-0.00090059172032515	-0.00797456048419336
7.2	0.00363846526349896	0.00690564840787406	0.226443437502769	0.965232187565394	0.226187263183901	0.965277081000097	-0.00247007187356503	-0.0071101834362541
7.3	0.00385738916371952	0.00540917404443368	0.373398063786513	0.918133844971611	0.37315723618126	0.918225551013854	-0.00385356059901767	-0.00587727899935456
7.4	0.00378591272578191	0.00405283005586159	0.511599272516509	0.849249912219685	0.51138058869193	0.849413065489915	-0.00512669597136774	-0.00449118351344311
7.5	0.00288731972986333	0.00307426823111321	0.638578086003667	0.758560824509541	0.638418157683661	0.758734121712836	-0.00636639046708086	-0.00218011072967549
7.6	0.00314192151295397	0.00268355729667603	0.747536969976415	0.648916325183538	0.747321806894304	0.649078632676163	-0.00531120948508692	0.000299818919053174
7.7	0.00298367828811566	0.00174465595280003	0.838580745403771	0.525059634438064	0.838430238760925	0.525255646793608	-0.00387367974353103	0.00145432977973792
7.8	0.00288129692056183	0.00101876038429892	0.9099298422851	0.388307975697423	0.909809715952531	0.388530589671496	-0.00220135378070772	0.00168562572168113
7.9	0.00243016050300627	7.64047861006431E-05	0.959096212711037	0.241640994321239	0.959056883754871	0.2418670934531	-0.00121941517130236	0.000642869069380003
8	2.96033346231492E-05	-0.000795940070977355	0.983080979499779	0.0891648911424422	0.983153187736144	0.0894565440309466	-0.00362124679966805	-0.000552508153092468
8.1	-0.000790433660950802	0.00156669993441564	0.984736155964071	-0.0630789454561275	0.984861499083968	-0.0628083308263974	-0.00443111468070424	0.00285074856695392
8.2	-0.000461415795718637	0.00269588334619851	0.963206294151391	-0.215172363541135	0.963273520841208	-0.214876680594315	-0.00336048797357878	0.0047537809473952
8.3	-0.000242277595021221	0.00386147352471136	0.917723134562501	-0.362320282146125	0.917861960231509	-0.362064994168161	-0.00172951875489205	0.00607025953535043
8.4	0.000983587843705792	0.00467132462489841	0.849312801102218	-0.500132445966368	0.849525354828183	-0.499933942144271	0.000869848084093613	0.00617393033586261
8.5	0.000844971220280878	0.00412007124874099	0.761859959326601	-0.624176861281963	0.76197600190096	-0.624051608315228	0.00131384529041394	0.00389254466240125
8.6	0.00120868099885401	0.00605481372134562	0.656255254300396	-0.735741537791409	0.656453182563884	-0.735557017442063	0.00114417025634768	0.00523199947373684
8.7	0.00294921158341137	0.006756850242873	0.533334669403006	-0.828577096043525	0.533616596264219	-0.828469155621932	0.00316112522476929	0.00562235071872487
8.8	0.00489529414140172	0.00663410846094926	0.39800084011084	-0.900673507031759	0.398206761421175	-0.900620081653055	0.00512484188171782	0.00501107328322106
8.9	0.00696125289957112	0.00584916957380324	0.253884877565425	-0.950763792495605	0.254126596644321	-0.950624625879754	0.00746075698845542	0.00363298301123715
9	0.00881507309514491	0.00368377488834879	0.103710734156561	-0.979669315142771	0.104072537689844	-0.979640737349015	0.00886211861715412	0.000798292426113072
9.1	0.0102753800616638	0.00139430799680161	-0.0508288009299948	-0.983241373083612	-0.0504769626401903	-0.983257549542688	0.00968066479517016	-0.00167401249587373
9.2	0.0108796921608595	-0.0019989673873633	-0.20255839649654	-0.962390551604915	-0.202203779255627	-0.962462661203497	0.00954259573633601	-0.00480052429730861
9.3	0.0100601496815522	-0.00476291273224832	-0.348833843968145	-0.919058671671514	-0.348478005712485	-0.919124271365141	0.00806283671275583	-0.00697010215419205
9.4	0.00890678249925405	-0.00733381474610273	-0.486932986763622	-0.854378135532191	-0.486610989942136	-0.854526765617927	0.00611060115687637	-0.00851317401346132
9.5	0.00608154137823245	-0.00779427435150035	-0.61480982493798	-0.767515070888555	-0.614604792746039	-0.767653128154167	0.00247477033854933	-0.006900380364567
9.6	0.00654421989813676	-0.00820407257114061	-0.724941952215257	-0.661636761824053	-0.724671154683141	-0.661822135464265	0.00381488177389562	-0.00430773425327217
9.7	0.00539126686200446	-0.0100554435337381	-0.817995947878702	-0.541562710981314	-0.817751783846968	-0.541831802105734	0.00494968150540722	-0.00474777410698517
9.8	0.00343606787571262	-0.0113261541584876	-0.891997663076261	-0.40828182107741	-0.891790520277702	-0.408556339426826	0.00539998631497904	-0.00551248620392872
9.9	0.0012240553761408	-0.0122238965453718	-0.944523501393207	-0.264355066303205	-0.944412968784466	-0.264683406872656	0.00569286862829643	-0.00741731168824776
10	-0.00341136037124897	-0.0123635917070723	-0.972055100506591	-0.114219761308002	-0.971977101691265	-0.114596294400791	0.00190471374113678	-0.00875763793890315
10.1	-0.00545044541247742	-0.00913275001882416	-0.977784032616601	0.0361944173844637	-0.977765640615609	0.0357194939480996	0.00125989661625351	-0.00561328901172947
10.2	-0.00648686970494021	-0.00764367567975817	-0.960689354077031	0.1873025070961	-0.960675627297874	0.186855340530931	0.00251704210369416	-0.00507404726228315
10.3	-0.00776898825051674	-0.00580630656805995	-0.919626835455817	0.334161306148811	-0.919762738196351	0.333624781920481	0.00342759648934132	-0.00586450397146046
10.4	-0.00834777238341851	-0.00448071647652358	-0.855526355127235	0.472119807049582	-0.855790878493773	0.471588946001766	0.00416334473648165	-0.00820959575637144
10.5	-0.010135229647652	-0.00343947904038351	-0.772766233343244	0.596770191005136	-0.773046682326163	0.596386763457806	0.00215678958533413	-0.0118527988675415
10.6	-0.011450798577811	-0.000634966464905467	-0.671979850471358	0.710105268182711	-0.672403060419306	0.709763993029824	-0.00105188459281459	-0.0125667983442287
10.7	-0.0116781915453711	0.00276445767965998	-0.553569570298895	0.805745937717803	-0.553978207250948	0.805460025612919	-0.0033626107291084	-0.0120730773549336
10.8	-0.0103407854232233	0.00583107091332443	-0.421929450112659	0.881265501480507	-0.422435974526129	0.881038266587643	-0.00461350673992316	-0.0111620206587939
10.9	-0.00827402688315355	0.00841886189760658	-0.281215909023335	0.935402323050887	-0.281699864014552	0.935351228953651	-0.00560536378212638	-0.010552900948251
11	-0.00575594644415653	0.0101016405781167	-0.133605876532201	0.969483360407767	-0.134148971578022	0.969478360455207	-0.00663890248279813	-0.00985854588570464
11.1	-0.00234223837647846	0.0111475569106111	0.0198462110438496	0.978159816198375	0.0192208255101359	0.978242262813392	-0.0066480614483676	-0.00924817585181299
11.2	0.000928110162500765	0.0108314133031018	0.170826039578895	0.962603340648881	0.170310281467692	0.962804889349313	-0.00668637177658775	-0.00925532358713556
11.3	0.00400110699901495	0.00999791332491726	0.317221746947274	0.924671496972537	0.316794809854453	0.924931844993245	-0.00661417956048199	-0.00941131779100009
11.4	0.00663768553689684	0.00790355091886259	0.45680589414493	0.8654357428542	0.456343872863077	0.865693465473934	-0.00704956505236969	-0.0101403219927016
11.5	0.0076524296353694	0.00686102483422493	0.587103500897874	0.783242936893768	0.586747454344157	0.783658950643491	-0.00970949154483356	-0.00895550846267454
11.6	0.01079222626184	0.0053355073097022	0.699791912522486	0.681878775405604	0.699526903241885	0.682356037167241	-0.00874738636070471	-0.00653564301417466
11.7	0.01275265676445	0.00238721114153303	0.79661596016189	0.565996569966003	0.796378045298393	0.566415637181089	-0.00773578258087737	-0.00643068947681311
11.8	0.0136719294251532	-0.000962966705037738	0.875119600210257	0.43598669631598	0.874935835218778	0.436535529667818	-0.00727383640434805	-0.00702368131219988
11.9	0.0137304114562458	-0.00485182095009884	0.932537082711155	0.294521739633889	0.932498735108003	0.295062911002712	-0.007717491490117	-0.00911825443565357
12	0.0105086811821224	-0.008335486800938	0.965203575845154	0.145980116263486	0.96519129015432	0.146456365111254	-0.0124002723958284	-0.0103074341726972
12.1	0.00911686595451853	-0.008743946547219	0.976443944951801	-0.00355134670017299	0.9764183383237	-0.003081508980741	-0.0146466691236334	-0.00697095322496248
12.2	0.00727477082992738	-0.0104372075924689	0.964789961211171	-0.154996127272276	0.96489492650994	-0.154561091289705	-0.0156154258850079	-0.0045580617779539
12.3	0.0048661677300756	-0.0111193950929029	0.928959817587808	-0.302849864255147	0.92914359671123	-0.302493250224753	-0.0160615514866804	-0.00195322892271405
12.4	0.00270699553534923	-0.0114668498997225	0.870126473415877	-0.442757564134022	0.8702574700358	-0.442384702026947	-0.0151746780046163	0.000114930856499991
12.5	-0.00043860733679463	-0.0118943072617684	0.792174995185749	-0.570144643719498	0.792628308600347	-0.569752247180493	-0.0160453993918055	0.000411866313361677
12.6	-0.00278465921564935	-0.00976474251430183	0.695797676048674	-0.687366129787886	0.696141058858399	-0.687056028825428	-0.0162600953040948	0.0041673614964078
