# GHZ S RI R 50
0.2	0.985888833727028	-0.156840057797606	2.56435363180984E-06	2.2502239675484E-06	6.57118080282518E-06	-4.86860696582913E-06	-0.966450413199161	0.251605503679729
0.3	0.969852702238395	-0.233935123857327	-8.73486569602577E-07	-5.45449345140534E-06	-3.4662986252286E-06	-7.94650221606122E-06	-0.926860755426305	0.371628847628252
0.4	0.948374212217499	-0.309263909077265	-7.27977967935738E-06	-9.9167449193446E-07	4.44161711092675E-06	1.54547577690223E-06	-0.872159346685586	0.485416694850041
0.5	0.921454114899789	-0.382770508561671	6.20036186622616E-06	2.10509437988486E-06	-2.41430196043554E-06	-1.90827159056913E-06	-0.803611270977324	0.591685361429157
0.6	0.888498011861715	-0.453784219750319	-1.05531038292966E-05	2.46082432130964E-06	-2.2187233183264E-06	-1.00733422223459E-06	-0.722100759912912	0.688043597416655
0.7	0.850345522811559	-0.521663847888767	2.78481519526682E-06	-1.17215971303086E-06	-2.98846279619068E-06	5.78934473672275E-06	-0.629496004320149	0.773535050888352
0.8	0.806909819242489	-0.586750893955656	1.17720829789555E-06	-8.47773592025783E-06	-6.62198944926548E-06	-3.07114319332478E-06	-0.526772201717037	0.8465313953053
0.9	0.758447732090622	-0.648394218824237	-1.14697398617973E-06	-6.81231841253099E-07	2.54837354156164E-06	6.54502454537936E-06	-0.415844881643914	0.905859031836734
1	0.705050964629843	-0.70620813204228	-2.74513371276988E-06	-3.22313404265176E-06	-4.0489458744394E-07	-7.31746696404159E-06	-0.298630069286484	0.950562896782343
1.1	0.648005443217785	-0.759646812140865	1.80741595295835E-06	-4.94150526978255E-06	2.27092142336604E-06	-5.13497606760964E-06	-0.176549070489763	0.980424092466297
1.2	0.585574140706181	-0.809244857741777	-2.49645324449479E-06	2.49150319378418E-06	9.26357166351264E-07	-9.10833137579583E-07	-0.0514352465211902	0.994461333988378
1.3	0.517844000595577	-0.853820445107228	-1.53831949013489E-06	7.1924026794945E-07	-1.3558952533308E-06	1.46328258112997E-06	0.0743663801932239	0.992885669710299
1.4	0.447052318354695	-0.892371997714089	3.92362969204654E-06	-3.24077033741202E-06	2.70225753972291E-06	1.09419863178074E-05	0.199519480745396	0.975020017449652
1.5	0.374236334528749	-0.924562665834312	-5.33830033705664E-06	1.10975973562522E-06	6.59107187497152E-06	-7.20790767994365E-06	0.321188317221986	0.941705382691212
1.6	0.300590328552993	-0.95092979309604	1.7767121979916E-06	-7.74024060458066E-06	3.6325745590153E-06	1.38278771125694E-06	0.437185462144408	0.893264429791409
1.7	0.226140919093407	-0.971116881764888	-1.94195077180149E-06	-9.69531567327261E-07	-2.35656743201007E-07	-2.08744217624985E-06	0.54552011026647	0.831424424739814
1.8	0.149503183099512	-0.985789470975812	2.85188794283896E-06	5.28040823018425E-06	4.25741858414038E-09	2.03205877645715E-06	0.645606016266294	0.756108120190954
1.9	0.0720250362665447	-0.994467961279841	5.67586000017692E-06	-2.63271517552086E-06	-2.99896746007472E-06	4.16135211439291E-07	0.734915840960863	0.669037064599443
2	-0.00514808977184214	-0.99708990240818	-1.5493593708846E-06	-2.02753697741866E-06	3.21503971175829E-06	1.14637382759321E-05	0.813023593823907	0.571122850851997
2.1	-0.0840350533069995	-0.99382849267439	-7.55771792382282E-06	2.45909469223662E-06	1.20976157951871E-06	5.14886653465254E-06	0.877911472029965	0.464339140670838
2.2	-0.160810885472414	-0.984294558886588	-8.83143306746301E-07	1.39542245042672E-06	3.00818197480389E-06	7.78024583836392E-06	0.929217745585426	0.350454647830905
2.3	-0.238003089826827	-0.968279644686278	1.82409766803951E-07	7.45783479874024E-06	7.40529300629989E-07	9.39032919536487E-07	0.965352155132393	0.231464621922528
2.4	-0.313855316329009	-0.945974116466913	1.58250051430909E-06	7.17795680922929E-06	1.52403387701434E-06	6.3908592219906E-06	0.98683917674414	0.107922844612966
2.5	-0.38708461594905	-0.918539991311197	4.39248313964411E-06	-2.31637398404551E-06	-1.9171751912661E-06	-7.57539963517429E-06	0.992209125613328	-0.0165714634330159
2.6	-0.458395192244902	-0.884922906201696	6.77241919414096E-06	-5.94999822081749E-06	-1.11037020846418E-05	1.08366021404907E-05	0.982264286277351	-0.141328352614975
2.7	-0.526958033559687	-0.845796760979878	-4.44236395821348E-06	9.14776253937113E-06	-2.87642625791524E-06	-9.16266088496798E-06	0.956327696931606	-0.26388496879028
2.8	-0.591264207659888	-0.801887024852244	2.45877815830053E-06	1.14356840427572E-06	-3.12890597911024E-06	1.24482327362418E-06	0.916007807358748	-0.381532860168233
2.9	-0.651563289603242	-0.753572396132866	-5.4999719210544E-06	6.01756682835178E-06	-9.19595213445844E-06	-2.8192920711441E-07	0.860881539492963	-0.493107659750673
3	-0.708597711339032	-0.700201938281634	4.72151743217708E-07	-1.47332400555508E-06	1.13272702490495E-05	1.46092831821009E-06	0.792211471670189	-0.597348860037002
3.1	-0.761337963084654	-0.642898501894368	2.40809580866143E-06	1.04962296771503E-05	4.3259026079909E-06	2.17312448424056E-06	0.711204491175286	-0.69148283231218
3.2	-0.809228415599905	-0.581742797571851	2.10599962112796E-06	6.46512766861485E-06	3.99774680632197E-06	-1.06058817932293E-05	0.619270471257793	-0.774937054964823
3.3	-0.852267674159303	-0.51715695587838	3.08254949223483E-06	4.96067664961559E-06	-2.22680995477841E-06	-9.66732996586905E-06	0.516464807685464	-0.84681031118455
3.4	-0.889399645202747	-0.449655123480976	2.12442185159621E-06	-2.60429777272733E-06	5.95771268622345E-06	1.38094240244021E-06	0.406837116380245	-0.904883007885917
3.5	-0.921858646388204	-0.378014614791314	-3.23907897234736E-06	9.47800296656046E-07	-2.07148067071159E-06	3.42386330103107E-06	0.28982463547967	-0.9490050703227
3.6	-0.948558716948371	-0.304488391426361	-1.81491208716091E-06	-3.74256060490021E-06	-7.82064928076196E-06	4.11069840960905E-06	0.168189200274015	-0.977966018919723
3.7	-0.969322233216719	-0.229504183523243	8.17126393538466E-07	-8.32673706751479E-06	1.07696997745938E-05	3.69019739834247E-06	0.0434573884585992	-0.9912590865606
3.8	-0.984397167057499	-0.152265803864169	9.29403575674252E-08	1.54667672924139E-06	-6.51484999823131E-06	5.95486324753252E-06	-0.081199467404447	-0.988778854232668
3.9	-0.993035958942858	-0.0746613143573658	-2.63056785829869E-06	-5.0262037373032E-06	-3.69876839294443E-06	8.02764111253231E-06	-0.20634576187548	-0.970821278591129
4	-0.995710784393198	0.0041916351916899	7.12917113651165E-06	-3.86316358245985E-07	-1.0457044064464E-06	-1.20506572538593E-06	-0.326439811691244	-0.937385345351648
4.1	-0.992488011421752	0.0824238083800507	6.19451849536284E-07	-4.44265236463394E-07	7.35085928104786E-06	-4.76070743126182E-06	-0.442156135785052	-0.888897587014899
4.2	-0.983178640117732	0.160477028841248	3.20708838651807E-06	2.10172671374703E-06	-7.18955297634932E-07	-7.61773008470197E-07	-0.550585667559352	-0.825792434602463
4.3	-0.967894311653625	0.236641304682428	-3.18990734382099E-06	1.37443955709347E-06	-4.99670443395045E-06	2.98544199901059E-06	-0.649967486192429	-0.750410571268171
4.4	-0.946586662548452	0.311563874994855	8.05658998616867E-07	2.64326442353731E-06	1.55052307139507E-06	-8.33693583768581E-06	-0.739097342143608	-0.662941430225033
4.5	-0.919226691146718	0.384720465430223	1.82439628746832E-06	-9.40559116026782E-07	7.63495537578376E-06	-2.57500659098667E-07	-0.816854350891313	-0.564903782596925
4.6	-0.88608668894886	0.456135816259725	-7.29900030200712E-07	6.1340643678325E-06	-1.23519403599266E-05	-6.4902882384282E-06	-0.881284119061236	-0.457679598209034
4.7	-0.847703749058819	0.523577809925829	1.20224470835491E-06	2.51345976991843E-06	1.42200930291434E-06	1.86834504799886E-06	-0.932137926533464	-0.343464553561555
4.8	-0.803303515086921	0.589077033157348	-5.18549404750656E-06	1.11388937437649E-05	5.23634619194498E-06	9.70164129837298E-06	-0.967869161087204	-0.223181387860111
4.9	-0.754187262156326	0.650152841142489	1.19935762424073E-06	2.93486865611632E-06	-4.81903457730836E-07	-6.92050755444556E-06	-0.988085107297765	-0.0990707054840717
5	-0.700553998162572	0.707215689275624	4.74615681397275E-06	-9.09593481646759E-07	-3.7471349149898E-06	2.42487192419454E-06	-0.992171550459062	0.0262644467331136
5.1	-0.64218745389468	0.760193211807449	4.13837008695025E-06	-1.40269402965294E-07	-2.65643266176886E-06	-9.82415707379863E-06	-0.981033091507699	0.150885103510631
5.2	-0.580158894441887	0.808591520219005	2.62734459041344E-06	-1.50069269615588E-05	1.37896750774822E-06	2.8254530493938E-06	-0.954291256309967	0.273474925855826
5.3	-0.51469016566649	0.852046997243056	-8.72003088770515E-06	-7.84296611781817E-07	-1.13619895591595E-06	1.58986146899584E-07	-0.91226719537388	0.391757275907311
5.4	-0.44609449302165	0.890271523303631	-7.189475952052E-06	-1.10694007069883E-05	-1.37524772813594E-05	1.12037749269559E-05	-0.855413833818355	0.503415166555965
5.5	-0.374765730421159	0.922583854680558	1.90641868553061E-06	8.93460516962867E-08	-2.24713992189473E-06	1.78505633211359E-06	-0.785740337603009	0.606740082454378
5.6	-0.301119281443128	0.948876613476928	-2.41137561615413E-06	3.51722078118625E-06	-1.34324934597462E-06	1.2903844710325E-06	-0.703396141488276	0.700472160302736
5.7	-0.225527138068227	0.969764776220601	1.30713508995512E-06	1.23293244517715E-06	5.7680838359991E-06	-1.17872226864682E-07	-0.61013045422256	0.783085808525405
5.8	-0.14848329400927	0.984158463909658	2.70476097736604E-06	4.26392239533363E-06	-2.11496113903664E-06	4.24625358175611E-06	-0.507033485572416	0.853212418686887
5.9	-0.0706796770565705	0.992666656756608	-6.89462117011516E-06	-2.30393367510285E-06	-7.76500153741438E-08	6.29723861581724E-06	-0.396404101169041	0.909950162456161
6	0.00734613046018523	0.994929516877587	-1.79464733174884E-06	9.03740205217874E-08	-5.4705639129089E-06	-4.39412340805396E-06	-0.279454244574752	0.952372845902456
6.1	0.0853419648518096	0.990954169086354	4.16468214896232E-08	-9.92506726152213E-06	-9.8447916041701E-07	-3.21818096592813E-06	-0.158055291036341	0.979685396817533
6.2	0.163423722631284	0.98077236565353	-1.02295741073034E-06	3.11523047391171E-06	-1.76081826795129E-06	4.21786590104799E-06	-0.0334757647828045	0.991327925870669
6.3	0.240730627649549	0.964474987548176	-8.05997370708251E-07	2.83273869626023E-06	-2.94047970917125E-06	2.39765852962909E-06	0.0914602360219927	0.987218040114741
6.4	0.316591123930719	0.94212395564008	-5.9733575589677E-06	5.55161874545366E-06	-2.38419913468154E-06	-7.49595961892362E-07	0.215148942727393	0.967532425590476
6.5	0.390558533322439	0.914080090526814	1.40463040644724E-06	-5.28194689277034E-06	-1.45049731247921E-06	-2.37910623474396E-06	0.335163519937994	0.932376615887319
6.6	0.461870953413161	0.880071445168599	3.65908924092419E-06	2.0929519866838E-07	1.13204495530985E-05	-2.68466580598702E-06	0.449703234051613	0.882543169156289
6.7	0.530099067261338	0.840462309987764	-7.77060200823347E-07	8.4873172461065E-07	-3.77398564134919E-06	5.23872752100995E-06	0.55647105493683	0.818949892325874
6.8	0.595015106491298	0.795693352646038	-1.75571861086041E-06	4.49446326991236E-06	1.4553640191695E-06	-8.85116853240604E-07	0.65445494153169	0.742650947384707
6.9	0.656139354406598	0.745926703823771	5.92844202296372E-06	2.24921600681538E-06	-9.31536655667833E-07	2.41924578616516E-06	0.742035513519572	0.654696234645516
7	0.713036755103491	0.691268869248706	1.14061988131931E-06	-4.15645371281931E-06	-1.42913346381119E-06	2.92183345012776E-06	0.817854907215456	0.556438408076953
7.1	0.765301874006294	0.63258045307451	2.40085962380415E-07	-7.19013889697735E-07	1.97889722505609E-06	9.19746670563484E-06	0.880736076078644	0.449611841599463
7.2	0.812845654803362	0.569593203668747	1.38574340496213E-06	-2.41675681937403E-06	-1.01613604623232E-06	-8.57405709879586E-06	0.929692382133269	0.33589688871642
7.3	0.855134808471402	0.502726881398797	4.84540677193214E-06	7.22925739352741E-06	-9.72220404681778E-06	2.3422554827217E-06	0.963742466754163	0.216747851412874
7.4	0.892275412358423	0.432576260969855	5.09616656459285E-06	-6.87345401034154E-07	1.93231709812215E-06	-9.64149880047842E-06	0.982753543132144	0.0940628841123375
7.5	0.923766266525208	0.35965671580148	2.74087371286297E-06	-5.30656894621321E-06	2.09079896828955E-06	-7.27548471332186E-06	0.986226556865372	-0.0298561781043485
7.6	0.949685691206087	0.284238457087208	-3.15902668580055E-07	-5.63457500018247E-06	1.67666572188338E-05	3.8599090659482E-06	0.974465460450292	-0.153445107309478
7.7	0.969528057677795	0.206871934843717	3.51654817018406E-06	1.09781075744774E-07	3.22927965052248E-07	-2.92388638011105E-06	0.947458017852189	-0.274684192280627
7.8	0.983078124097165	0.12815292161062	-1.09734356190176E-05	-1.91733765245171E-06	-2.02464026739092E-07	3.43753852944863E-06	0.905606755124207	-0.391662180426473
7.9	0.99020766363905	0.0484292210676034	2.35607350523509E-06	2.0298950526164E-06	-6.94244610648858E-06	-4.70890777230452E-06	0.849509411724546	-0.502562144177542
8	0.990758525640014	-0.0314347103127089	2.35174718252718E-06	2.95051506710011E-06	-9.33333430239668E-06	-7.58848851209664E-06	0.779724176784974	-0.60567433588493
8.1	0.984907771027057	-0.110933711913989	3.82317161577175E-06	-3.06800367869152E-06	2.14462805248303E-06	-3.18260439014434E-06	0.697610575978409	-0.698805624153122
8.2	0.972786308141318	-0.189450614636472	-4.03335158575476E-06	1.41637970985537E-06	-6.7497247250942E-06	3.62106877231924E-07	0.604707533031301	-0.780904212898379
8.3	0.954016608621392	-0.267098990964569	9.86069479350846E-06	2.93204421935514E-07	6.24496230389078E-06	1.04439765052405E-05	0.502001159019321	-0.850639487895567
8.4	0.928926733937715	-0.343039415264177	1.28509913557301E-06	2.55586336619028E-06	3.46022730795159E-06	1.82187605101017E-06	0.391323551703598	-0.907130953825084
8.5	0.897760155738801	-0.416989913677772	-4.84224192603247E-06	4.96475264955781E-06	2.85348702564801E-06	-3.02305318825545E-06	0.273941566995848	-0.948997327602892
8.6	0.860597124496422	-0.488077706866258	-4.49953800447978E-06	2.09052612412941E-06	-3.03540757401104E-06	8.12242211923987E-06	0.152735134862851	-0.976006212757657
8.7	0.817924818844266	-0.555957426760358	-1.02117902767065E-06	1.21728503257789E-06	-6.43011515771014E-07	3.46560043444123E-06	0.0287492566166201	-0.987698952889868
8.8	0.769930485978601	-0.62001430201008	-1.58425185011926E-06	3.08195788596398E-06	-6.0115958365826E-06	1.28886301687008E-06	-0.0954746207475434	-0.983937544848302
8.9	0.717209471543022	-0.680023617296064	3.17549097365292E-06	-1.83473958392227E-06	-3.16762925189745E-06	-4.55617544487733E-07	-0.218695537756853	-0.964227975334175
9	0.659559264159914	-0.735500635351268	-7.28994596857892E-06	1.35635606292449E-06	-3.97959008715068E-06	7.28042040282842E-07	-0.338316758113995	-0.929390066054553
9.1	0.597870270646472	-0.786104511553063	-3.35738764868218E-06	-1.88184910264875E-06	-9.82884724498207E-07	2.13638634156114E-06	-0.452908417368885	-0.879637377996506
9.2	0.531860074699673	-0.8315807932174	5.98517637961641E-06	-1.64405465661486E-06	1.99175116010022E-06	8.48089903620118E-06	-0.560139625762536	-0.816220410537354
9.3	0.462430522904011	-0.871551341037249	-3.38824172289748E-07	1.07092542929006E-06	1.3675732610491E-05	1.18253366471684E-05	-0.658624095661893	-0.739306040071761
9.4	0.389645433635926	-0.905572853021254	1.73124199821242E-06	-2.66289447369717E-06	4.28917881041777E-06	1.7573964500602E-06	-0.746031719915238	-0.650690696485531
9.5	0.313796269516024	-0.933344769200412	-6.50915560681913E-06	-4.88857220943319E-06	-1.94752267562599E-06	-5.7049554745472E-06	-0.822339752941888	-0.551363818688009
9.6	0.235222424404032	-0.954613038248876	-1.16821619974586E-05	-2.60062363569847E-07	-5.92535062713385E-06	-4.01387814856825E-06	-0.885326625842357	-0.443315619397305
9.7	0.155321992780692	-0.969147719120004	1.46810021123067E-06	-4.78416202905966E-07	-2.91789734087476E-06	1.64182363654012E-06	-0.934451565251311	-0.327960366267902
9.8	0.0746358786236282	-0.976860706641367	2.20655334967807E-06	1.40054971375793E-06	1.51042459579463E-05	-3.50579972094464E-06	-0.96830150899947	-0.207493832157586
9.9	-0.00632459043862548	-0.977496881494153	-3.45979465707962E-06	8.97326528514585E-06	1.37616083648052E-05	4.98756291469092E-06	-0.987056084895011	-0.0834817846149202
10	-0.0861703668067738	-0.97088207423574	-3.64288252035188E-06	1.6191573326982E-06	1.92390144729633E-05	-1.81505758113576E-05	-0.98964468017488	0.0420186375985219
10.1	-0.164551420262137	-0.957781869130158	-1.48012399502035E-06	2.3035817638686E-06	-8.42529730886178E-06	-4.31303887451953E-06	-0.976617706045535	0.166796600014333
10.2	-0.241042695524959	-0.938506242451641	-2.31081083308504E-06	-1.24161191601554E-06	-1.29263807739502E-05	7.23316868818058E-06	-0.947547735118218	0.288933296082413
10.3	-0.314545874008606	-0.913006591724082	5.76863734177125E-06	3.92815630592475E-06	-6.15289982200878E-06	1.37949180504161E-06	-0.903660424092545	0.405950111381903
10.4	-0.385476451817007	-0.882333545952293	2.10207457113269E-06	1.04728824075169E-06	7.04230162584626E-07	-8.22384495224779E-06	-0.845128267786306	0.516197107593295
10.5	-0.453463360698596	-0.84519011913687	4.3656566718447E-07	-3.05742023013639E-07	-6.55045918206201E-07	-5.62770391661654E-06	-0.773457538314401	0.617948361544111
10.6	-0.516474962873704	-0.802602371504451	5.08319571891243E-06	-2.60364336141981E-06	-9.73985171394351E-06	-7.87043340895954E-06	-0.689340922838996	0.709884147193799
10.7	-0.575019126395557	-0.755853343454474	-2.81074547763917E-06	-5.01057899711331E-07	-5.22012647015712E-06	-7.15764132312435E-06	-0.594775448667157	0.790231817875628
10.8	-0.62911358064968	-0.706273921844142	-3.60967327577482E-06	-3.43792798962321E-06	-1.19444662822956E-05	9.13273582707715E-06	-0.490998401997258	0.858053724842191
10.9	-0.679587385851002	-0.654333037389437	-1.13656985026252E-05	-1.04015478420951E-05	-4.46598698098042E-06	1.0941632942962E-05	-0.380043121053075	0.91244015397627
11	-0.726288093150501	-0.600395220686463	1.00940078398677E-06	1.40761726560856E-06	8.6522660597519E-06	-5.49130819965982E-06	-0.262430861796385	0.952699117282451
11.1	-0.770113037615944	-0.543631669511686	-3.26023461555907E-07	-3.62863216250989E-06	1.01736884995936E-05	-1.01891091303677E-05	-0.140923773351108	0.977600321562491
11.2	-0.810696317693946	-0.483999221911441	-1.0303527065731E-06	-3.9101840464268E-06	2.16055962405448E-06	-6.30535222851464E-06	-0.0165730403723502	0.987143661666339
11.3	-0.847698056452895	-0.420647903091696	1.63601876249743E-06	-1.20349659875123E-05	3.56383245423726E-06	-2.81904975006326E-06	0.107949383804257	0.980892121989887
11.4	-0.879667598746745	-0.354304441560666	9.86228872274524E-07	1.8492593889811E-08	-5.68663875453866E-06	6.45807100897787E-06	0.231173497844029	0.959165630011348
11.5	-0.907174765902381	-0.285164849357254	6.54311857825784E-06	-1.23983065970756E-06	8.23390195689957E-06	-3.12008952731556E-07	0.349812513860006	0.921806647977512
11.6	-0.929370203888099	-0.213351400130172	-6.38586159881623E-07	-5.32428968461903E-06	1.4369830817476E-06	-3.0784251165839E-06	0.463299451836847	0.869849245773748
11.7	-0.945289843497599	-0.13849095146651	-9.41742707316161E-08	-6.04152731127675E-06	8.91477135122077E-07	-2.65558217521403E-06	0.569075856986784	0.803958765116068
11.8	-0.955153009992486	-0.0615872889932193	-1.070154245685E-06	-7.40065193365614E-07	5.15986496698155E-06	1.07735436789209E-06	0.665816675857093	0.725509379996421
11.9	-0.958674649254095	0.0170286093118153	-3.2137759878997E-06	-5.20265782327336E-06	-5.38244360373111E-06	-8.00083939952042E-06	0.751355906154658	0.636194489545867
12	-0.955491097335096	0.0959349526040966	-2.9425505126859E-06	1.64145566419551E-06	-1.67206526499038E-05	-8.74213334835149E-06	0.825007111225197	0.536914510196303
12.1	-0.946081121408699	0.174352668868206	8.24818259021348E-07	-1.56601223625936E-06	7.85147171646811E-06	1.22656833038423E-05	0.885363604708699	0.429043149657674
12.2	-0.929277780726021	0.252469491778011	-4.10235219011133E-06	5.54410981753794E-06	4.15116905293506E-07	3.30952550335956E-06	0.932165828958412	0.314538508206606
12.3	-0.906525047445853	0.328785929662157	7.82784914900987E-06	6.3834905347445E-06	4.19145405369856E-07	1.0884767267407E-05	0.964169381691341	0.19451975592447
