# GHZ S RI R 50
0.2	0.985884274299985	-0.156820199115893	2.56429179745478E-06	2.25030591206701E-06	6.57134148181262E-06	-4.86842058135199E-06	-0.966471526102648	0.251567657873489
0.3	0.969856410834722	-0.233901567420501	-8.73253454758417E-07	-5.45458381933261E-06	-3.46597980406212E-06	-7.94673095748391E-06	-0.926901767178397	0.371584144491184
0.4	0.948393472986613	-0.309221772282744	-7.27987769690181E-06	-9.92098050563878E-07	4.4416248881365E-06	1.54575395242768E-06	-0.87222220024587	0.485374699995937
0.5	0.921483867161808	-0.382727719677985	6.20040015219539E-06	2.10550895280889E-06	-2.41425365133684E-06	-1.90846120199655E-06	-0.803682675141009	0.591653053809862
0.6	0.88854582019263	-0.453732808399354	-1.05536354093036E-05	2.46010342783349E-06	-2.21871931112103E-06	-1.00753559245773E-06	-0.722192133035143	0.688009807718891
0.7	0.850415357243363	-0.521617915726627	2.7850495695981E-06	-1.17198097305175E-06	-2.98909774916547E-06	5.78937290725523E-06	-0.629607465909289	0.773518342215217
0.8	0.806997489830624	-0.586715792863426	1.17804456945976E-06	-8.4781594301292E-06	-6.62212666929236E-06	-3.07193077440189E-06	-0.526896648956135	0.846535618884182
0.9	0.75854955265406	-0.648373434562191	-1.14699742397456E-06	-6.81391679332176E-07	2.54795243763718E-06	6.54576353116782E-06	-0.415978746683764	0.90588748185521
1	0.705165276099321	-0.706200866782446	-2.74506594468943E-06	-3.22369442297162E-06	-4.04214008836276E-07	-7.31816805934115E-06	-0.298768894178918	0.95062102617646
1.1	0.648132944567032	-0.759659635624027	1.80810501452425E-06	-4.94185767493168E-06	2.27167983425975E-06	-5.13530300266055E-06	-0.176684566742347	0.980516110146105
1.2	0.585710166493508	-0.809280359748812	-2.49700931536452E-06	2.4915709224838E-06	9.26562168844821E-07	-9.10856556553508E-07	-0.0515551710105415	0.994589049039084
1.3	0.517984656116569	-0.853882606445352	-1.53859981771179E-06	7.19196391913514E-07	-1.35621973366352E-06	1.46335885126126E-06	0.0742734549822793	0.993038032810105
1.4	0.447193251939294	-0.892458315339842	3.92451388757059E-06	-3.24087855529621E-06	2.70162483635032E-06	1.09438549896733E-05	0.199448337483293	0.975186004073309
1.5	0.374383512242917	-0.924679958945127	-5.33928392284413E-06	1.10940736723493E-06	6.5928699954506E-06	-7.20842687674161E-06	0.321140810462501	0.941887899814196
1.6	0.300722260452323	-0.951083146495597	1.77778179077707E-06	-7.74149276776532E-06	3.63310951520025E-06	1.38339058505275E-06	0.437165612637363	0.893463193572876
1.7	0.226256797761699	-0.971295496390058	-1.94225374230276E-06	-9.69899004599984E-07	-2.35517983529602E-07	-2.08788171074584E-06	0.545539656276897	0.831635413827211
1.8	0.149601051577344	-0.985993043811684	2.85207135558754E-06	5.28178195332325E-06	4.0919403760579E-09	2.03249790538207E-06	0.645668237050177	0.756320809911618
1.9	0.0721037267212399	-0.994697889301658	5.67739649970054E-06	-2.63289477888149E-06	-2.99970394939763E-06	4.16001143573913E-07	0.735021401905858	0.669248636390094
2	-0.00510231429449215	-0.99735297781498	-1.54964704341279E-06	-2.02815845266647E-06	3.21521359703635E-06	1.14669288277377E-05	0.813192093900147	0.571318023145572
2.1	-0.0840284487499181	-0.99410547936289	-7.55984978649187E-06	2.45943290365111E-06	1.20986711395969E-06	5.15029911528891E-06	0.878114083340462	0.464493921984546
2.2	-0.160842540045555	-0.984588289314345	-8.83441101072985E-07	1.39579441103046E-06	3.00879624553917E-06	7.7825729296133E-06	0.929456141109409	0.350578082510253
2.3	-0.238081706135023	-0.968583677570118	1.82357561914683E-07	7.46011912624112E-06	7.40742261644019E-07	9.39330936883236E-07	0.965624405663082	0.231544619306954
2.4	-0.313984234623323	-0.946279025517511	1.58305338737961E-06	7.18027440665402E-06	1.52456341710128E-06	6.39292204284982E-06	0.987137714335975	0.107951116692077
2.5	-0.387263619362258	-0.918837000105799	4.3939103478123E-06	-2.31729246526986E-06	-1.91805177214003E-06	-7.57792241593228E-06	0.992526321546586	-0.0166030877608014
2.6	-0.458623508474887	-0.885205076798284	6.77449464298671E-06	-5.95248579173711E-06	-1.11070450346109E-05	1.08410645803549E-05	0.982588545629941	-0.141427104311467
2.7	-0.527235129606995	-0.846056536435675	-4.44320399668471E-06	9.15148378364647E-06	-2.87826068658511E-06	-9.16576149105687E-06	0.956642043297444	-0.264059984249233
2.8	-0.591588813545072	-0.802115447995602	2.45982101709958E-06	1.14370912215615E-06	-3.12992220667123E-06	1.24564482298278E-06	0.916290052984872	-0.381780078051397
2.9	-0.651931526563174	-0.753756886792666	-5.50114934593158E-06	6.02062422058281E-06	-9.19943512202726E-06	-2.80688369565238E-07	0.861117624481509	-0.493416664542717
3	-0.708991458674173	-0.700337643509824	4.72064009585929E-07	-1.47395164500773E-06	1.13317100131384E-05	1.45945336181534E-06	0.792390785761154	-0.597713842797232
3.1	-0.761769273173515	-0.642988896325091	2.41115966119048E-06	1.04996546392104E-05	4.32796686647378E-06	2.17304444344813E-06	0.711312117028526	-0.691897337775422
3.2	-0.809681174082585	-0.581771098979831	2.10830337184597E-06	6.46701160906695E-06	3.9967129863407E-06	-1.06107336519879E-05	0.619297842966537	-0.775376606189134
3.3	-0.852734688057263	-0.517119114002166	3.0850043696617E-06	4.96164170131906E-06	-2.23022474921643E-06	-9.67023061867043E-06	0.516403861283274	-0.847263796051889
3.4	-0.889867634677035	-0.449548223608743	2.12438609304674E-06	-2.6058490723359E-06	5.96021779150871E-06	1.37963967730658E-06	0.406686432238254	-0.905327341728281
3.5	-0.92232292622612	-0.377845433131362	-3.23990329649765E-06	9.49190777595546E-07	-2.07108693307457E-06	3.42573911582178E-06	0.289598350895978	-0.949434626738498
3.6	-0.949011423767536	-0.304241234989341	-1.81691091173253E-06	-3.74315808461794E-06	-7.82178017494017E-06	4.1149830940947E-06	0.167864694137839	-0.978362276963223
3.7	-0.969742104195589	-0.229187084794079	8.14054798418783E-07	-8.32971927647954E-06	1.07746107246185E-05	3.6870643482442E-06	0.0430541829196999	-0.991592158206809
3.8	-0.984776300783193	-0.151885219017877	9.36302079447803E-08	1.54710276025653E-06	-6.51426380353551E-06	5.95944449529732E-06	-0.0816661227886359	-0.989038202317309
3.9	-0.993364907166653	-0.0742224344113403	-2.63360812423006E-06	-5.0264324852787E-06	-3.69615810577793E-06	8.03160992970514E-06	-0.206861293629746	-0.970996832344232
4	-0.995978876869258	0.00468018153953002	7.13085313468427E-06	-3.89912836883186E-07	-1.04656968392349E-06	-1.20486939619983E-06	-0.326994639173442	-0.937472666762122
4.1	-0.992690815298075	0.082953343034242	6.19366178108936E-07	-4.44688557512566E-07	7.3501068446288E-06	-4.76561208722219E-06	-0.442733569407907	-0.888879032374582
4.2	-0.983309348791773	0.161039459327603	3.20887670196349E-06	2.10041993413499E-06	-7.19513327431994E-07	-7.61539135333837E-07	-0.551162188835794	-0.825665804829533
4.3	-0.967949026568319	0.23722631352215	-3.18969003718372E-06	1.37646989280449E-06	-4.99589652253451E-06	2.9887670662786E-06	-0.650522989882457	-0.750177157956446
4.4	-0.946563067640839	0.312167742636574	8.07320882297072E-07	2.64318783263935E-06	1.54589039528481E-06	-8.33908114434973E-06	-0.739613414430895	-0.662604852506293
4.5	-0.91910499056863	0.385333493988661	1.82402978985778E-06	-9.41799315742963E-07	7.63569821356339E-06	-2.62256102490511E-07	-0.817310037318224	-0.564467199599688
4.6	-0.88587983308996	0.45672772927513	-7.26046937034825E-07	6.13499887613561E-06	-1.23570214786575E-05	-6.48291357544209E-06	-0.881659846212936	-0.45716019763049
4.7	-0.847412008129818	0.52414757564638	1.20393993827357E-06	2.51276885460547E-06	1.42328994778603E-06	1.86748493779397E-06	-0.932418630402261	-0.342873233189695
4.8	-0.802923247877484	0.58961463247699	-5.1779306438586E-06	1.11423767080013E-05	5.24290632205985E-06	9.69806539157555E-06	-0.968039165051539	-0.2225322267059
4.9	-0.753722771210878	0.650644354243097	1.20134014601397E-06	2.93389458796744E-06	-4.8669057546619E-07	-6.91984143812034E-06	-0.988130678387228	-0.0983831752106439
5	-0.7000131473611	0.707635336463942	4.74505386100066E-06	-9.12810257729928E-07	-3.74507501804247E-06	2.42724286210439E-06	-0.992077004708557	0.0269521124215419
5.1	-0.641589013503342	0.76054649096139	4.13771647938155E-06	-1.43154534935422E-07	-2.66297003333147E-06	-9.82097507007923E-06	-0.980817965855221	0.151555427318637
5.2	-0.57949774840954	0.808863108709332	2.61623790226537E-06	-1.50060546793514E-05	1.38071741593879E-06	2.82396187359411E-06	-0.953942719100817	0.274106915290533
5.3	-0.513981684566113	0.852221143267471	-8.71856515357504E-06	-7.7796011494223E-07	-1.13582362647515E-06	1.59751295572606E-07	-0.911793694436773	0.392317185104235
5.4	-0.44535575025734	0.890341827011441	-7.19522199653673E-06	-1.10613078281678E-05	-1.37408347856167E-05	1.12102843124674E-05	-0.85483441165259	0.503877923611052
5.5	-0.374010176054953	0.922545442002114	1.90587159046257E-06	8.79822864095855E-08	-2.2451710952589E-06	1.78605929595937E-06	-0.785076672780769	0.607089683377345
5.6	-0.300365809311723	0.948727999661693	-2.40802231271834E-06	3.5175646870526E-06	-1.34184569937795E-06	1.29082896239399E-06	-0.702665563959045	0.70069565339462
5.7	-0.224792548876757	0.969507450423599	1.30741678457604E-06	1.2315278227997E-06	5.76556808535501E-06	-1.21722963515875E-07	-0.60936210829016	0.783166915335414
5.8	-0.147781039344348	0.983791781987012	2.70628373735177E-06	4.2601262194478E-06	-2.11116876685411E-06	4.2456340847951E-06	-0.506250485582074	0.853143702453463
5.9	-0.0700286519310082	0.992198570230978	-6.89247500497849E-06	-2.2983957308445E-06	-7.36487294096365E-08	6.29400368970888E-06	-0.395638018131004	0.909731290824901
6	0.00794697560786819	0.994371517569358	-1.79360642431597E-06	9.14128462582522E-08	-5.47022314278049E-06	-4.3883910087814E-06	-0.278723388242982	0.952013969857988
6.1	0.0858688795651492	0.990292056739792	3.5726863047089E-08	-9.91913948435062E-06	-9.85800158033883E-07	-3.21566614662363E-06	-0.157389758612712	0.979175955678883
6.2	0.163853164052382	0.980025948854256	-1.02053388126098E-06	3.11378817469585E-06	-1.75729322782602E-06	4.21612542126462E-06	-0.0329126249346185	0.990686477576288
6.3	0.241049069767398	0.963659349317273	-8.03932415585755E-07	2.83117011950352E-06	-2.93714177411561E-06	2.39752462398876E-06	0.0918963101177128	0.986464665555389
6.4	0.316789618148136	0.941267373754394	-5.96621142174026E-06	5.55037439836448E-06	-2.38278448040274E-06	-7.47881086221387E-07	0.215435940155606	0.966704910382929
6.5	0.390637155159146	0.91318372623529	1.40116139190476E-06	-5.27837673058278E-06	-1.45040497322775E-06	-2.37657006973806E-06	0.335294612230204	0.931488813709587
6.6	0.461809067200346	0.879168946390684	3.65611178854517E-06	2.07723403524508E-07	1.1309965828361E-05	-2.68674440240084E-06	0.449652099471568	0.881641720466502
6.7	0.529912789424351	0.839569249070127	-7.7611112970457E-07	8.48255367199523E-07	-3.76900911916843E-06	5.23545112264935E-06	0.556254244553119	0.818065572342232
6.8	0.594701402198923	0.794822145471664	-1.75290855238243E-06	4.4909513550338E-06	1.45382325613534E-06	-8.84733282772788E-07	0.654072803295702	0.741809626324765
6.9	0.655699645237818	0.745101064368535	5.92353999804799E-06	2.24583996647151E-06	-9.30146499671471E-07	2.41724845552222E-06	0.741496577782026	0.653934316936667
7	0.712480744323828	0.690503292400318	1.13887429405372E-06	-4.15279992312003E-06	-1.4273263114643E-06	2.91936924328303E-06	0.817179234860375	0.555779861632454
7.1	0.764635194985216	0.631891006293275	2.39773213452406E-07	-7.18362545467549E-07	1.97812210371638E-06	9.18853291562E-06	0.879938045781018	0.44908135420038
7.2	0.812080266987947	0.568996891773691	1.38426007654375E-06	-2.4145070925911E-06	-1.01567131242477E-06	-8.5657184246668E-06	0.928799704518391	0.335518956842154
7.3	0.854282285878153	0.502237094210349	4.84065290945262E-06	7.22216848035278E-06	-9.71266957894977E-06	2.33995598075162E-06	0.962783205386876	0.216538541146506
7.4	0.891343474613406	0.432205251970198	5.09110560950371E-06	-6.86384565560244E-07	1.93090115633304E-06	-9.63175057315201E-06	0.981748616371372	0.094035337833515
7.5	0.922784607134432	0.359430243070707	2.73886470329202E-06	-5.30085960785113E-06	2.08971771920588E-06	-7.26789010059986E-06	0.985236360332464	-0.0296830347803603
7.6	0.948674915728486	0.284153322165734	-3.14341030840364E-07	-5.62903165672179E-06	1.67490998126856E-05	3.85977422197933E-06	0.97352715223018	-0.153088734558982
7.7	0.968501348942686	0.206933624562996	3.51303103163494E-06	1.10661810505351E-07	3.23430612380081E-07	-2.92089681599541E-06	0.946588989391145	-0.274151406393615
7.8	0.982059845665888	0.128364519732068	-1.09620181480627E-05	-1.91929025159401E-06	-2.03465685651971E-07	3.43410088144458E-06	0.904846204159566	-0.390968663892061
7.9	0.989231265168787	0.0487969988217414	2.35297083676453E-06	2.02895657433264E-06	-6.93384142320873E-06	-4.70735480268942E-06	0.84890012016665	-0.501728826319491
8	0.989842264308056	-0.0309450927353506	2.34820603387674E-06	2.94888193648419E-06	-9.32119337775615E-06	-7.58581282534828E-06	0.779269759650989	-0.604752424535062
8.1	0.984053965925219	-0.110309046376585	3.82129645712578E-06	-3.06318593196154E-06	2.14434659214335E-06	-3.17856673682408E-06	0.69733010589783	-0.697795578341075
8.2	0.972026057294481	-0.188698740855131	-4.03061048685928E-06	1.41271613145507E-06	-6.74394038593962E-06	3.5776113759437E-07	0.604628097916499	-0.779846333623838
8.3	0.953370415364649	-0.266237561204979	9.85206987237982E-06	2.99480773505732E-07	6.23270976569585E-06	1.04391806569482E-05	0.502128742897314	-0.849578911950117
8.4	0.928410575343462	-0.342085610704315	1.28219620820272E-06	2.55470564657683E-06	3.45607842767355E-06	1.82289482396088E-06	0.391656681580744	-0.906106547558953
8.5	0.897387263528986	-0.415962945773287	-4.84242942008436E-06	4.95706873933975E-06	2.85367472591545E-06	-3.01844973816718E-06	0.274474388809457	-0.948053917984497
8.6	0.860380093536782	-0.486997178732387	-4.49808338561394E-06	2.08519391499452E-06	-3.04013919530171E-06	8.11400080257933E-06	0.153443180100472	-0.9751781865444
8.7	0.81787210432773	-0.554849055156285	-1.0216023340708E-06	1.21555286456234E-06	-6.45720094393354E-07	3.46271758503519E-06	0.0296125993703852	-0.987018252474249
8.8	0.770044652317898	-0.618904570821166	-1.58623714522157E-06	3.07858227023793E-06	-6.00919289328805E-06	1.2823436658135E-06	-0.0944879596701949	-0.983434743022996
8.9	0.717486980930991	-0.678936667816242	3.17559087921053E-06	-1.83057970899181E-06	-3.16545279369525E-06	-4.58523937955342E-07	-0.217623835420389	-0.963919274903983
9	0.659999900697062	-0.734457247055363	-7.28778176573366E-06	1.34809820349849E-06	-3.97839573777388E-06	7.23540146401831E-07	-0.337182266372324	-0.929291985438037
9.1	0.598465769686865	-0.785134000758211	-3.35392809989516E-06	-1.88470678164278E-06	-9.84793485603047E-07	2.13441823357768E-06	-0.451766501579009	-0.879771505624445
9.2	0.53259982458768	-0.83070378421573	5.98493371259878E-06	-1.63674347777629E-06	1.98150948314513E-06	8.48017493686688E-06	-0.559033605716328	-0.816579673307635
9.3	0.463300788389632	-0.870790558507446	-3.39974498033468E-07	1.07024145985187E-06	1.36582993659759E-05	1.18379894264347E-05	-0.657601755210852	-0.739883343049744
9.4	0.390627812977812	-0.904944854808288	1.734076462015E-06	-2.66033865467818E-06	4.28628586327086E-06	1.76215605527275E-06	-0.745137129564204	-0.651460157415785
9.5	0.314875860407913	-0.93288078557269	-6.50258823181621E-06	-4.89596713441791E-06	-1.94042092908632E-06	-5.70674566110597E-06	-0.821608410352915	-0.552314345857912
9.6	0.23635444560555	-0.954315206491532	-1.16816174942029E-05	-2.74219494746961E-07	-5.92036835115103E-06	-4.02098266389566E-06	-0.884790250568501	-0.444387623237724
9.7	0.156497185496921	-0.96901699511823	1.46877113006368E-06	-4.76645093563392E-07	-2.92007737948611E-06	1.6383433900287E-06	-0.934122171574268	-0.329130390620392
9.8	0.0758311130985501	-0.976907814367343	2.2051371514436E-06	1.40347391715317E-06	1.51107220290364E-05	-3.4876434705046E-06	-0.968202079555272	-0.208723578616772
9.9	-0.00513023169047291	-0.977729512327735	-3.4717280101265E-06	8.97106888014972E-06	1.37586347718589E-05	5.00578988546808E-06	-0.987198618690791	-0.0847241256470259
10	-0.0850153074968982	-0.971299306427826	-3.64604772928497E-06	1.61518021395313E-06	1.92675776719386E-05	-1.81326466596088E-05	-0.990029113500828	0.0408089605891618
10.1	-0.163459106951689	-0.958371556102002	-1.48355710947109E-06	2.30270870216546E-06	-8.42345462535731E-06	-4.32514474434137E-06	-0.977238123412777	0.165669310170939
10.2	-0.240039362506435	-0.939265778277999	-2.31047018334277E-06	-1.24503151125754E-06	-1.29416281028326E-05	7.22116610379197E-06	-0.948384595575136	0.287934717355568
10.3	-0.313661831164255	-0.913920548486813	5.76742007649249E-06	3.93731763123076E-06	-6.15819098468643E-06	1.37303214947785E-06	-0.904687534455361	0.405122546053772
10.4	-0.384735303494641	-0.883380223843007	2.10231637937946E-06	1.05041893671473E-06	7.14148534973695E-07	-8.22868362824672E-06	-0.846307546088681	0.515582804609293
10.5	-0.452882368542409	-0.84634532719012	4.3723691736087E-07	-3.05496532825962E-07	-6.4935955114316E-07	-5.63274289102185E-06	-0.774730983708041	0.617563868391901
10.6	-0.516067731766883	-0.803840808735286	5.09025361614596E-06	-2.60044978354697E-06	-9.7397307022997E-06	-7.88741851414033E-06	-0.690684155577412	0.709739332314901
10.7	-0.574795689655538	-0.757150655980974	-2.81284163556299E-06	-5.04378638601809E-07	-5.21769146716253E-06	-7.16958061158119E-06	-0.596141753972183	0.790345852233482
10.8	-0.629083406981432	-0.707602919982801	-3.61000235983692E-06	-3.44487324333896E-06	-1.19653127658695E-05	9.13044110368344E-06	-0.492337350201097	0.858433947703737
10.9	-0.67974899935112	-0.655656693636936	-1.13686240413874E-05	-1.04230508414993E-05	-4.48068346238322E-06	1.09494498149452E-05	-0.381298822219456	0.913082182560434
11	-0.726630135036921	-0.601703001644988	1.00937450573947E-06	1.41009325124115E-06	8.66688240020189E-06	-5.49032447223724E-06	-0.263556375025316	0.953575431709919
11.1	-0.770655923305972	-0.544896251442606	-3.23630822229114E-07	-3.63334943241358E-06	1.01940558777518E-05	-1.01938168457613E-05	-0.14186703856537	0.978694730284018
11.2	-0.811423819587864	-0.485185621676915	-1.02898879773981E-06	-3.91594736097982E-06	2.16769815665483E-06	-6.31201117735338E-06	-0.0172903556647479	0.988407852066683
11.3	-0.848604247782976	-0.421732927416116	1.64555660070231E-06	-1.20501904035263E-05	3.57035354331753E-06	-2.82067798506835E-06	0.107478682484404	0.98227470993879
11.4	-0.880731375040201	-0.355263900941582	9.87599000905485E-07	1.9038187224048E-08	-5.69799841968089E-06	6.46411003869334E-06	0.230973242526794	0.96062479424987
11.5	-0.908384746958248	-0.285980406073402	6.55316010341356E-06	-1.23877003809528E-06	8.24599256412122E-06	-3.08862087226307E-07	0.349900946801953	0.923292140163725
11.6	-0.930703639882733	-0.213985493654462	-6.37724821775403E-07	-5.33244574407614E-06	1.44017415800896E-06	-3.0825256284186E-06	0.463674829289736	0.871304267523621
11.7	-0.946713654940785	-0.138932238034889	-9.2830938461348E-08	-6.05076614066905E-06	8.93490591307096E-07	-2.65941354163673E-06	0.569731053437649	0.805329570000034
11.8	-0.956637646221024	-0.0618230947214339	-1.07170749170552E-06	-7.4137513132174E-07	5.16772538999261E-06	1.07979819679735E-06	0.666736909022251	0.726746534585621
11.9	-0.960213653610915	0.0170174662900398	-3.21858929081727E-06	-5.21108311375381E-06	-5.3905437187933E-06	-8.01382007634314E-06	0.752489618058827	0.63724638082067
12	-0.957019591638144	0.0961404533544306	-2.94718194066537E-06	1.64425215187635E-06	-1.67479673025042E-05	-8.75523941157606E-06	0.826360966631619	0.537732156338033
12.1	-0.947594814515702	0.174777619434768	8.25904164592695E-07	-1.56866963971791E-06	7.86607021860727E-06	1.2284252580837E-05	0.886847973598919	0.429587704105148
12.2	-0.930733374846542	0.253113660804795	-4.10756839077099E-06	5.55417221746349E-06	4.16650505175955E-07	3.31478797765686E-06	0.933749199530081	0.314795797174085
12.3	-0.907892924417172	0.329643542118883	7.8429182974944E-06	6.39098656785883E-06	4.23829107464067E-07	1.09023030848975E-05	0.965794908064338	0.19446721497955
