# GHZ S RI R 50
0.2	0.985885263792346	-0.156843113493911	2.56435501772451E-06	2.25022863612768E-06	6.57119244339517E-06	-4.86860784842381E-06	-0.966456613652209	0.251601430559762
0.3	0.969846802716239	-0.233937092585884	-8.73486676199455E-07	-5.45450493489124E-06	-3.46630329027677E-06	-7.94651962536017E-06	-0.926870677062464	0.371627474785298
0.4	0.948366999662231	-0.309263749949079	-7.27979902639847E-06	-9.91673308849676E-07	4.44162939946205E-06	1.5454774884029E-06	-0.872170774488703	0.485419736672779
0.5	0.921446630795522	-0.382767859771695	6.20038136696879E-06	2.10509167681417E-06	-2.41431102142794E-06	-1.90827346343421E-06	-0.803621977140009	0.591692796088316
0.6	0.888491342010974	-0.453779202796428	-1.05531276007302E-05	2.46085252196122E-06	-2.21873142084564E-06	-1.00733245168568E-06	-0.722109368953881	0.688054782002809
0.7	0.850340282984307	-0.521656936949523	2.78481923232394E-06	-1.17217034175383E-06	-2.98845478518037E-06	5.78936790725268E-06	-0.629501423052294	0.773549034301184
0.8	0.806906442300319	-0.586742470243546	1.17718349672221E-06	-8.47775930772203E-06	-6.62201470130834E-06	-3.07112878691204E-06	-0.526773894672734	0.846547029727338
0.9	0.758446629091566	-0.648384657505167	-1.14697855574885E-06	-6.81229091446638E-07	2.54840141240746E-06	6.54502795775108E-06	-0.415842691592821	0.905875142629577
1	0.705052499094736	-0.706197909676554	-2.74514813741257E-06	-3.22312886576343E-06	-4.04919886821186E-07	-7.31747494633748E-06	-0.298624278901388	0.950578072044149
1.1	0.648009772401592	-0.759636031997327	1.80740516118408E-06	-4.94150984209444E-06	2.27091025288948E-06	-5.13498169267457E-06	-0.176541101671434	0.980436426104727
1.2	0.585582351050301	-0.80923280775035	-2.4964524268446E-06	2.49149540921919E-06	9.26356843805633E-07	-9.10830272552542E-07	-0.0514285767220869	0.99446903899622
1.3	0.517858825424492	-0.853805975417384	-1.53832053942381E-06	7.1922299007388E-07	-1.35590403907042E-06	1.46326424252077E-06	0.0743653435700732	0.992888812340578
1.4	0.447078778165592	-0.892355327372225	3.9236806915766E-06	-3.24067668590568E-06	2.70202166508644E-06	1.09419982177958E-05	0.199508767619462	0.975024088758685
1.5	0.374278630946389	-0.924549240917082	-5.3383282199003E-06	1.10959875177211E-06	6.59128112888126E-06	-7.20770306413163E-06	0.321175083858603	0.941715175800093
1.6	0.300649225331723	-0.950928280995235	1.77700416894465E-06	-7.74021455249142E-06	3.63254225871776E-06	1.38292749633002E-06	0.437177687442468	0.89327982221011
1.7	0.226212697969855	-0.971138632765624	-1.94193804304797E-06	-9.6962608598948E-07	-2.35573294190567E-07	-2.08748162621398E-06	0.545521556802072	0.831441128626916
1.8	0.149577158035413	-0.985846706894455	2.85173366736485E-06	5.28068402852047E-06	4.16719829880711E-09	2.03211630934148E-06	0.645616368097051	0.756121375170553
1.9	0.0720797564769955	-0.994564948354827	5.67622908003643E-06	-2.63260101352403E-06	-2.99912213540437E-06	4.16030205853568E-07	0.734931725642553	0.669043024359269
2	-0.0051371316008177	-0.997214487035713	-1.54939742920953E-06	-2.02771046010432E-06	3.21490513836919E-06	1.14645559667998E-05	0.813039494336913	0.571120639660977
2.1	-0.0840788613043964	-0.993952099569493	-7.55830604135008E-06	2.45920050135864E-06	1.2097989871135E-06	5.14926243770358E-06	0.877924057966808	0.464333404531637
2.2	-0.160898701576852	-0.984388958953254	-8.83193507861683E-07	1.39554061863779E-06	3.00851064161842E-06	7.78080490341133E-06	0.929230013488942	0.350448139384117
2.3	-0.238111371442143	-0.968332091990437	1.82670432090572E-07	7.45835061216072E-06	7.40612334389637E-07	9.39074014795207E-07	0.9653674817376	0.231455091663531
2.4	-0.313961630119656	-0.945987608271435	1.5829367848061E-06	7.1782879811727E-06	1.52442884128674E-06	6.39114852622916E-06	0.98685740876379	0.107905701239582
2.5	-0.387180976146012	-0.918525887720316	4.39253498645037E-06	-2.31673568872306E-06	-1.91770921592373E-06	-7.57561279701813E-06	0.992225786137173	-0.0166012823822954
2.6	-0.458479439640208	-0.884889165799769	6.77221592816306E-06	-5.95063344407802E-06	-1.11032954891026E-05	1.08376755914277E-05	0.982272574002095	-0.141371122225306
2.7	-0.527030837967492	-0.845747545686504	-4.44176592565148E-06	9.1482446265582E-06	-2.87714947151784E-06	-9.16260450249703E-06	0.956322303747176	-0.263935810417594
2.8	-0.591325558802694	-0.801824202647499	2.45888270306428E-06	1.1433860344957E-06	-3.12883046798456E-06	1.24507315607118E-06	0.915988240684962	-0.381584389888002
2.9	-0.651612782154259	-0.753497395383967	-5.49948849647138E-06	6.01800120191384E-06	-9.19596838956471E-06	-2.81195939076835E-07	0.860851667967673	-0.493153915342248
3	-0.708633249833606	-0.70011751543172	4.72029541638267E-07	-1.47335391081951E-06	1.13273242181647E-05	1.46000116133612E-06	0.792176098590824	-0.597387394812135
3.1	-0.761355740918159	-0.642806292262257	2.40891763185549E-06	1.04959344079569E-05	4.32603578780765E-06	2.17275520173026E-06	0.711168707933365	-0.691509982201194
3.2	-0.809230007533455	-0.581645969038353	2.10652783774895E-06	6.46487765773807E-06	3.99679904888264E-06	-1.06061070118727E-05	0.619236498395157	-0.774961637112978
3.3	-0.852249759227811	-0.517059471089588	3.08294992032351E-06	4.96033272241066E-06	-2.22764259233721E-06	-9.66699737242158E-06	0.516433773149256	-0.846832398565903
3.4	-0.889361353734589	-0.449562311169645	2.12413842499915E-06	-2.60445126954648E-06	5.95773605701741E-06	1.38035635064214E-06	0.40680837258128	-0.904905899187954
3.5	-0.9218014024378	-0.37793188170342	-3.23890439290998E-06	9.481037561184E-07	-2.07108492506842E-06	3.42398863360968E-06	0.289793121902966	-0.949032076166953
3.6	-0.948482087932876	-0.304423492310163	-1.81523090408831E-06	-3.74223086047721E-06	-7.81992728078106E-06	4.11135257189242E-06	0.168152622346514	-0.977992328605432
3.7	-0.969232527405853	-0.229466204314847	8.16249718519779E-07	-8.32635430970578E-06	1.07694675595041E-05	3.68891667704003E-06	0.0434134210292876	-0.991280354081281
3.8	-0.984304595294697	-0.15226273813049	9.30627421023536E-08	1.54655008343874E-06	-6.51385063818737E-06	5.9549512034245E-06	-0.0812474149270305	-0.988787372861962
3.9	-0.992955802137898	-0.0746982648952586	-2.63057072792967E-06	-5.02559918748788E-06	-3.69801974830411E-06	8.02706948144183E-06	-0.206384942387325	-0.97081278746326
4	-0.995663757589077	0.0041163860005656	7.12849495802764E-06	-3.86276574470987E-07	-1.04560467020284E-06	-1.20495185980842E-06	-0.326455605765204	-0.93737078599471
4.1	-0.992495670910926	0.0823255372128677	6.19433337247443E-07	-4.44201971986021E-07	7.35061235711181E-06	-4.7599915077546E-06	-0.442148916511066	-0.888900934547275
4.2	-0.983251830885795	0.160385607853506	3.20684167428119E-06	2.10196942046051E-06	-7.18874355724964E-07	-7.61821860983882E-07	-0.550579925403226	-0.825828483125973
4.3	-0.968023754730807	0.236587976308794	-3.190153208179E-06	1.3741748747318E-06	-4.99717113763727E-06	2.98505641359465E-06	-0.64999058406006	-0.750467324764723
4.4	-0.946744841001332	0.311570387302234	8.05492832904114E-07	2.64354180391227E-06	1.55136829762965E-06	-8.33745560956283E-06	-0.739156097782028	-0.662993268841219
4.5	-0.919384583567445	0.384787207569338	1.82465477626781E-06	-9.40536307949039E-07	7.63578851341808E-06	-2.57012172683966E-07	-0.816937964360326	-0.564931132944749
4.6	-0.886222943949667	0.456256009773128	-7.30279717979231E-07	6.1347918299657E-06	-1.23531686598365E-05	-6.49167635291756E-06	-0.881376609611752	-0.4576733867084
4.7	-0.847804968093875	0.523734766291581	1.20233497291635E-06	2.51383339833564E-06	1.42214770036052E-06	1.86863791019853E-06	-0.932225304905608	-0.343428161868573
4.8	-0.803362450835703	0.589253998904049	-5.18634129896972E-06	1.11404070267691E-05	5.2369810580465E-06	9.70306206214265E-06	-0.967942757447819	-0.223122872949605
4.9	-0.754203595034393	0.650334726526304	1.19954828101446E-06	2.93527210151089E-06	-4.82023287882086E-07	-6.9214765545257E-06	-0.988140296855513	-0.0989948288155726
5	-0.700532539537474	0.707390504798464	4.74677930358968E-06	-9.09847037391001E-07	-3.74757980748635E-06	2.42530488373561E-06	-0.992209107567328	0.0263519580726936
5.1	-0.642131497758262	0.760354978369836	4.13888834607221E-06	-1.40501701889126E-07	-2.65727917348683E-06	-9.82526695816888E-06	-0.981053001425486	0.15098479563408
5.2	-0.580072948028422	0.808736234234033	2.62646507435111E-06	-1.50088379107549E-05	1.3793459360651E-06	2.82566576526768E-06	-0.954291623665505	0.273586363933226
5.3	-0.514575863625273	0.852176011027596	-8.72098386309177E-06	-7.83428601933141E-07	-1.13629479010983E-06	1.5912524092611E-07	-0.9122445806506	0.391882305527538
5.4	-0.44594761843394	0.890386545238509	-7.19168043557778E-06	-1.10693103697653E-05	-1.37520383961994E-05	1.12067073663191E-05	-0.855359775589052	0.503555385337054
5.5	-0.374576655683525	0.922681906482356	1.90656484937415E-06	8.89960049001296E-08	-2.24695909163448E-06	1.78559732469842E-06	-0.785640063770897	0.606893006597669
5.6	-0.30087385933538	0.948945717841581	-2.41064566005773E-06	3.51795272047704E-06	-1.34300207344688E-06	1.29076224920411E-06	-0.703230167086446	0.700625371981411
5.7	-0.225207211359151	0.969774938146323	1.30750930398235E-06	1.23252856217605E-06	5.76803197608537E-06	-1.19639297992741E-07	-0.609869364645827	0.783214291571647
5.8	-0.148095346826484	0.984059503884038	2.70621120851542E-06	4.26258851396054E-06	-2.11318404332108E-06	4.24677183775421E-06	-0.5066736833641	0.853260147390008
5.9	-0.0702645285254033	0.992393481877649	-6.89441912514113E-06	-2.30034531953906E-06	-7.47430639959027E-08	6.29612309232178E-06	-0.395969673422751	0.909842512460713
6	0.00768560974421536	0.994438429009602	-1.79396403338571E-06	9.12350154735514E-08	-5.47080495347566E-06	-4.38983797465498E-06	-0.279035239355326	0.952040795307539
6.1	0.0854607033593259	0.990296638497444	3.72625945209106E-08	-9.91953045327503E-06	-9.85342160479131E-07	-3.21594717025021E-06	-0.157805186766204	0.979142091769077
6.2	0.163246931599051	0.980118348508322	-1.02141600483434E-06	3.11330147190541E-06	-1.75846612401567E-06	4.21535299577375E-06	-0.03350987731658	0.990718160069911
6.3	0.240339732108746	0.964007416105813	-8.0531785576761E-07	2.83076687715913E-06	-2.93830775470885E-06	2.39607693703937E-06	0.0911760885895044	0.986738842281434
6.4	0.316155502896782	0.941896604539969	-5.97075989982275E-06	5.54756749009351E-06	-2.38272626599488E-06	-7.49518116106701E-07	0.214767525047558	0.967273962005801
6.5	0.390192431081848	0.914029952116886	1.40533036611393E-06	-5.27960109284077E-06	-1.44938653309233E-06	-2.37853724319071E-06	0.334813960658028	0.932304750103804
6.6	0.461602819874795	0.880118199594471	3.65825657171567E-06	2.10140383646649E-07	1.13186838463954E-05	-2.68133905837511E-06	0.449436197142039	0.882584880757592
6.7	0.529911494371938	0.840552246640202	-7.77168526597208E-07	8.48480840471036E-07	-3.77475368376508E-06	5.2374004604791E-06	0.556284438528145	0.819046557999721
6.8	0.594884612135492	0.795804899593344	-1.75651045659705E-06	4.49402952758653E-06	1.45549331200405E-06	-8.84825531556383E-07	0.654331746450997	0.742774160254139
6.9	0.656051249844605	0.746053612796044	5.92821833075623E-06	2.25022705268046E-06	-9.31949560405291E-07	2.41915229097085E-06	0.741963271298232	0.654834736795402
7	0.712984449364413	0.691409325860143	1.14128551428928E-06	-4.15652097295006E-06	-1.42963645774996E-06	2.92178989602307E-06	0.817827443401378	0.556586381833224
7.1	0.765284459841305	0.63273562258278	2.40205161696342E-07	-7.1903815950834E-07	1.97777732248734E-06	9.19847917123815E-06	0.880752839170772	0.449768162964182
7.2	0.812867419309817	0.569762538892331	1.38623464338182E-06	-2.41681536091129E-06	-1.01502174152069E-06	-8.57511026388087E-06	0.929759322337354	0.336058012583376
7.3	0.855203065086506	0.502907060141808	4.84496671717997E-06	7.23098380177825E-06	-9.723889467382E-06	2.341093377025E-06	0.963868772287464	0.216905589396705
7.4	0.892398784023805	0.43275851897553	5.0971709239387E-06	-6.8662933128117E-07	1.93423739386471E-06	-9.64286844745587E-06	0.982948072653111	0.0942008681054507
7.5	0.923950770500466	0.359820046653351	2.74237562438885E-06	-5.30729566483788E-06	2.09248554752037E-06	-7.2767604408057E-06	0.986490234870111	-0.0297693631764786
7.6	0.94991986349009	0.284355468456451	-3.15130910234727E-07	-5.63613314369916E-06	1.67705641829325E-05	3.8634920017158E-06	0.974772914202568	-0.153441655095032
7.7	0.969786624809511	0.206920276046398	3.51758309960777E-06	1.10159881976796E-07	3.23311815880066E-07	-2.92472408468237E-06	0.947757353302413	-0.2747813536427
7.8	0.983324446194202	0.128121878085902	-1.09765858616476E-05	-1.91803047322328E-06	-2.02565880080429E-07	3.43853038803862E-06	0.905836835712603	-0.391844426953243
7.9	0.990401778581824	0.0483216324608702	2.35679472208744E-06	2.03013641272237E-06	-6.94445346400301E-06	-4.70933095438295E-06	0.849623825068828	-0.502784293360406
8	0.990917400774695	-0.0316123184177588	2.35261824852187E-06	2.95052382972253E-06	-9.33605325065065E-06	-7.58792278844297E-06	0.779748264685603	-0.605894188275167
8.1	0.984963551231373	-0.111160904704927	3.82244182116349E-06	-3.06887757694754E-06	2.14387925990572E-06	-3.18308797753187E-06	0.697531515711209	-0.698964077144372
8.2	0.972736001789982	-0.189698969855012	-4.03250988901713E-06	1.41705798324316E-06	-6.74874780663125E-06	3.63509448231079E-07	0.604579586262606	-0.780995131991018
8.3	0.953852228291783	-0.267317912221702	9.85851667797643E-06	2.9165648019795E-07	6.24512447847149E-06	1.04406843867629E-05	0.501851513017088	-0.850659582490316
8.4	0.928675482343557	-0.343177099787337	1.28493062895241E-06	2.55509001284198E-06	3.45942540111038E-06	1.82114971620446E-06	0.391178161231568	-0.907081176956981
8.5	0.897473339820311	-0.417021561844119	-4.84094473889993E-06	4.96340043813998E-06	2.85272282331254E-06	-3.02223003486499E-06	0.273825069379547	-0.948887245308839
8.6	0.860324726577375	-0.488010741293486	-4.49850954931041E-06	2.08976438641927E-06	-3.03506210067579E-06	8.12021222338319E-06	0.152667794924565	-0.975853185373819
8.7	0.817696957426026	-0.555818814764677	-1.02104770537259E-06	1.21692739574475E-06	-6.43148375354008E-07	3.4647664256008E-06	0.0287357614345127	-0.987528487182074
8.8	0.769765440014054	-0.619834402923992	-1.58425829220055E-06	3.08119407366954E-06	-6.01055447826599E-06	1.28799572713194E-06	-0.0954321626977437	-0.983776174705684
8.9	0.717109276495733	-0.679831505493993	3.17519612672049E-06	-1.83407829493977E-06	-3.16707019312108E-06	-4.55911878066585E-07	-0.218611910693265	-0.96409949448405
9	0.659516906170038	-0.73531862446605	-7.28926710412796E-06	1.35527888672934E-06	-3.97921793167953E-06	7.27455453460761E-07	-0.338216487423308	-0.929311410908237
9.1	0.597873148012899	-0.785946789132927	-3.35691346658295E-06	-1.88215721792911E-06	-9.83095447772281E-07	2.13611251897798E-06	-0.452819284668329	-0.879611193034365
9.2	0.531896513391306	-0.831444767389195	5.9852725828427E-06	-1.64323807148594E-06	1.99060079579687E-06	8.48099110741538E-06	-0.560081268244132	-0.816229358202356
9.3	0.462497443866553	-0.871430812122809	-3.38975313289526E-07	1.07090923310986E-06	1.36745311851657E-05	1.18274679912604E-05	-0.65860297305635	-0.739332545495104
9.4	0.389748048113578	-0.905460327220458	1.73173364454321E-06	-2.66284096529659E-06	4.2892359101189E-06	1.75811591913106E-06	-0.746042224173303	-0.650718743402003
9.5	0.31394428555717	-0.933247145474403	-6.5092285201955E-06	-4.89006326168087E-06	-1.94694598221622E-06	-5.70589861276095E-06	-0.822377116386496	-0.551382310109271
9.6	0.235433132488757	-0.954533958801742	-1.16840267168117E-05	-2.61863209560597E-07	-5.92571210253652E-06	-4.01542421467213E-06	-0.885372848880384	-0.443322257482832
9.7	0.155613562237236	-0.969117001262938	1.46850295184158E-06	-4.78287172160889E-07	-2.91880853823347E-06	1.6417206456718E-06	-0.934501191855393	-0.327962403507529
9.8	0.0750106547023387	-0.976927680767513	2.20698782293214E-06	1.40131751587345E-06	1.51093011062947E-05	-3.50444289483251E-06	-0.968355379918216	-0.207498790327534
9.9	-0.00589843966921509	-0.977723116071063	-3.46233485019503E-06	8.97628110167389E-06	1.37662760481478E-05	4.99133517493491E-06	-0.987127081475946	-0.0834976946028725
10	-0.0857815185902167	-0.971323031713223	-3.64472705299214E-06	1.61971830141186E-06	1.92493255582763E-05	-1.81581457909154E-05	-0.989748283912086	0.0420040216398637
10.1	-0.16433726485412	-0.958423916193542	-1.48075085307007E-06	2.30493083890948E-06	-8.43015038037738E-06	-4.31473923999987E-06	-0.976758534391959	0.166812242634311
10.2	-0.241123209002681	-0.939223088811428	-2.31229449224716E-06	-1.24168771094957E-06	-1.29312455128126E-05	7.24000261868188E-06	-0.947696353247345	0.289009079686466
10.3	-0.314917105234964	-0.913606238922626	5.77234522840405E-06	3.92748121929228E-06	-6.15474400914927E-06	1.38235435195831E-06	-0.903764100568758	0.406076992780341
10.4	-0.386006422045303	-0.882691999796373	2.10295105927232E-06	1.04660757965791E-06	7.00872344554099E-07	-8.22582910701787E-06	-0.84516270110963	0.516319593965062
10.5	-0.454006589781536	-0.845309802131271	4.3646695518123E-07	-3.05922987837241E-07	-6.57237177270802E-07	-5.62769452003885E-06	-0.773456809320268	0.61801593782878
10.6	-0.516930090756645	-0.802598045679021	5.08226221594445E-06	-2.60505876239015E-06	-9.74185770213416E-06	-7.86730349006298E-06	-0.689342591059411	0.709935336827725
10.7	-0.575400817764328	-0.755738885800041	-2.81061213573482E-06	-5.00422638538524E-07	-5.2211918312791E-06	-7.15593203818666E-06	-0.594813098015265	0.790258036549676
10.8	-0.629434282990661	-0.706040366733475	-3.60973667029298E-06	-3.43693635990769E-06	-1.19415419136298E-05	9.13339230862757E-06	-0.491098375969383	0.858066621063871
10.9	-0.67984147138093	-0.654043954044264	-1.13652947830276E-05	-1.03990106342074E-05	-4.46426844174062E-06	1.09406684898113E-05	-0.380176056047224	0.912485228477065
11	-0.726475047479445	-0.600071523394018	1.00937638033745E-06	1.40737396384954E-06	8.65082076083484E-06	-5.49124546525197E-06	-0.26256800337139	0.952793287906021
11.1	-0.770233919174364	-0.54327901235471	-3.26170086483605E-07	-3.6282015962067E-06	1.01720114375098E-05	-1.01884618866832E-05	-0.14104141536434	0.977741419710564
11.2	-0.810746774835455	-0.483631279756631	-1.0303802311106E-06	-3.90973668404844E-06	2.16011298052754E-06	-6.30476373739017E-06	-0.0166575715578588	0.987323417724292
11.3	-0.847673857550312	-0.420285485310002	1.63559320532348E-06	-1.20338588209439E-05	3.56343046705964E-06	-2.81886178096179E-06	0.10791689981167	0.981099053990786
11.4	-0.879578152515346	-0.353962388877788	9.86151804954061E-07	1.84795725538309E-08	-5.68611735225814E-06	6.45763165794376E-06	0.231194390839233	0.959391280778945
11.5	-0.907035804935655	-0.284851249718649	6.54275050726671E-06	-1.23979860330304E-06	8.23344571440025E-06	-3.12037512920312E-07	0.349887164683998	0.922041442031927
11.6	-0.929187519347094	-0.213084485007016	-6.38564836682226E-07	-5.32415141595738E-06	1.43694831434499E-06	-3.07834358668171E-06	0.463441680370308	0.870083051519159
11.7	-0.945079446659224	-0.138280951120885	-9.41487317194254E-08	-6.04160983150252E-06	8.91501038309293E-07	-2.65561430628254E-06	0.569297064157495	0.80418043594972
11.8	-0.954929119686439	-0.0614316327666531	-1.07022271267971E-06	-7.40110355874375E-07	5.16019164618236E-06	1.07741513647492E-06	0.666128147314683	0.725700881823869
11.9	-0.958424680165263	0.0170630618349957	-3.21424510402436E-06	-5.20334366823116E-06	-5.38322477456073E-06	-8.00189133346643E-06	0.751842656726022	0.636298324328517
12	-0.95526895644916	0.0959275552707883	-2.9430262055952E-06	1.64193934367923E-06	-1.6724378196098E-05	-8.7428763953145E-06	0.825581517929745	0.536879519313433
12.1	-0.945873644653913	0.174179311912569	8.24822173685402E-07	-1.56648747916251E-06	7.85485584343191E-06	1.22676428192717E-05	0.886041317376357	0.428707677851789
12.2	-0.929189580278339	0.252173393250663	-4.1021638736947E-06	5.54640093273642E-06	4.15947608564255E-07	3.31026439447234E-06	0.932736204713697	0.313850135755646
12.3	-0.906639680116881	0.328434968880522	7.83147311627733E-06	6.3823763193236E-06	4.22631328645792E-07	1.0886904082192E-05	0.964404280132812	0.193556757638985
