# GHZ S RI R 50
0.2	0.985884910833958	-0.156842037613845	2.5643551606231E-06	2.25022632493888E-06	6.57118710059783E-06	-4.86860935385809E-06	-0.966455938184015	0.251603387356307
0.3	0.969847122847026	-0.233935197812362	-8.73488833392512E-07	-5.45449954180919E-06	-3.4663044536899E-06	-7.9465105837528E-06	-0.926868319542479	0.371629849464271
0.4	0.948368269244066	-0.309261630000103	-7.27978957246723E-06	-9.91669823997299E-07	4.44162390997394E-06	1.545474102941E-06	-0.872166835861917	0.485421334692367
0.5	0.921448622308979	-0.382765896638453	6.20037124836209E-06	2.10508863383067E-06	-2.41430701966395E-06	-1.90827052301871E-06	-0.803617264055522	0.591693094219906
0.6	0.888493779800079	-0.453777385051598	-1.05531102608014E-05	2.46084443687835E-06	-2.21872722141075E-06	-1.00733151711569E-06	-0.722104571105551	0.688054050771227
0.7	0.850343114349468	-0.521654994435611	2.78481495844695E-06	-1.1721669400959E-06	-2.98845241423718E-06	5.78935636984386E-06	-0.629496661493805	0.773548013855079
0.8	0.806909965655659	-0.586740070057927	1.17718368891256E-06	-8.47774436803028E-06	-6.62200246746456E-06	-3.07112522375898E-06	-0.526768463127194	0.846546634470111
0.9	0.75845157260902	-0.648381654138401	-1.14697691303817E-06	-6.81227133491367E-07	2.54840094793571E-06	6.54501450952105E-06	-0.415834666413876	0.90587613178096
1	0.705060004948471	-0.706194836928795	-2.7451510210774E-06	-3.22311368260968E-06	-4.04939769990112E-07	-7.3174570482762E-06	-0.298609804288541	0.95058031699936
1.1	0.648020788985462	-0.759634944865131	1.80736083692351E-06	-4.9415033549136E-06	2.27086260201523E-06	-5.13497789230334E-06	-0.176513706940091	0.980436829366704
1.2	0.585594580616557	-0.809238500484119	-2.49639135738223E-06	2.4915097983411E-06	9.26334389737598E-07	-9.10835740212658E-07	-0.0513824752886874	0.994457424535456
1.3	0.517866210280928	-0.853824188837167	-1.53827643748653E-06	7.192447910618E-07	-1.35584639980076E-06	1.46326845669232E-06	0.0744239173042877	0.992848756087203
1.4	0.447073101373375	-0.892389601411383	3.92352689195942E-06	-3.24068985968955E-06	2.70219558444412E-06	1.09417038883908E-05	0.199548920518481	0.974955563378737
1.5	0.374250887367608	-0.924600975978962	-5.33826045314809E-06	1.10967182507424E-06	6.59110609219299E-06	-7.2077381733362E-06	0.321175903991224	0.941645988002823
1.6	0.300580999499432	-0.950974058203538	1.77684362639359E-06	-7.74028194506179E-06	3.63258574515396E-06	1.38285420970657E-06	0.437152728029701	0.893236632552837
1.7	0.226108824802318	-0.971156542117171	-1.94198751911813E-06	-9.69562359977697E-07	-2.3565109671494E-07	-2.08748823243114E-06	0.545487009912108	0.83142345022696
1.8	0.149458741033771	-0.985814401059285	2.8519786448815E-06	5.28052932265364E-06	4.26506269145858E-09	2.03210943181729E-06	0.645580318581651	0.756124293022376
1.9	0.0719782188695264	-0.994476880597392	5.67597885241772E-06	-2.63283696688402E-06	-2.99903968127039E-06	4.161747770887E-07	0.734901801592058	0.669063488852368
2	-0.00519257825653524	-0.997086177926625	-1.54942649792726E-06	-2.02756695343525E-06	3.2152789230433E-06	1.14639841137839E-05	0.813021261561554	0.571154516442017
2.1	-0.0840744447442586	-0.99381514378712	-7.5578770695932E-06	2.45928056759616E-06	1.2098759776676E-06	5.14898242563105E-06	0.877920780491894	0.464374820213321
2.2	-0.160844419768848	-0.984274477783252	-8.83142817036399E-07	1.39547996488679E-06	3.00841688310444E-06	7.78041678716969E-06	0.929241389116202	0.350492427185178
2.3	-0.238030231872647	-0.968254582815876	1.82587818005995E-07	7.45808203102933E-06	7.40575911657256E-07	9.39047509485864E-07	0.965393223641526	0.231501347300254
2.4	-0.313874487423884	-0.945945537259845	1.58277737431822E-06	7.17819779497178E-06	1.52428499500101E-06	6.39107036233327E-06	0.986902588212935	0.107952014078729
2.5	-0.387096404885123	-0.918511093760582	4.3925929528479E-06	-2.31665725713399E-06	-1.91756780501827E-06	-7.57567242735364E-06	0.992295972037141	-0.0165592132478763
2.6	-0.458400181105861	-0.884896067253536	6.77241975029833E-06	-5.9506752450239E-06	-1.11036420344271E-05	1.08377658015673E-05	0.982371266407216	-0.141348519842688
2.7	-0.526957130494903	-0.845773805287128	-4.44184159504779E-06	9.14851245838172E-06	-2.87727105488796E-06	-9.16283752038227E-06	0.956437800077576	-0.263954919865507
2.8	-0.591256979716016	-0.801869436541813	2.4589443900303E-06	1.14334551098301E-06	-3.1288464786134E-06	1.24516340125762E-06	0.916087154469655	-0.381659439632453
2.9	-0.651547166124228	-0.753565340507084	-5.4992015637375E-06	6.01798518140139E-06	-9.19574364180898E-06	-2.80962118669146E-07	0.860887304878163	-0.493264928017395
3	-0.708577980003601	-0.700217868483062	4.72009640295832E-07	-1.47325105861151E-06	1.13265509015371E-05	1.45999399061949E-06	0.792131767279917	-0.597482848261689
3.1	-0.761334356138257	-0.642939548460031	2.40805805384469E-06	1.0495255046867E-05	4.32555417337157E-06	2.17285831883664E-06	0.711077258347933	-0.691546411057887
3.2	-0.809257254954023	-0.581790242501462	2.10566625486003E-06	6.46474805644407E-06	3.99778490118815E-06	-1.06050405007158E-05	0.61914898907843	-0.77493075162535
3.3	-0.852322703711635	-0.517190001774878	3.08217993657141E-06	4.96065783946514E-06	-2.22622636304112E-06	-9.66709655736563E-06	0.516376248412745	-0.846761248701116
3.4	-0.889467689412711	-0.449666228488607	2.12455709778451E-06	-2.60415271138881E-06	5.95758423575306E-06	1.3812796601739E-06	0.406783622833469	-0.904815423334328
3.5	-0.921928418545255	-0.37800376372672	-3.23917410178742E-06	9.47622842524971E-07	-2.07170600850564E-06	3.42378443360174E-06	0.289801369657932	-0.948932262847058
3.6	-0.948623841411071	-0.304457747731491	-1.81475797702009E-06	-3.74276328647745E-06	-7.82109018645558E-06	4.11038517925122E-06	0.1681900194109	-0.977893576035067
3.7	-0.969377212659519	-0.229459019180011	8.17597021307017E-07	-8.32703092925251E-06	1.07699414679419E-05	3.69091261650424E-06	0.0434817185062766	-0.991192061085448
3.8	-0.984439570215949	-0.152209734091081	9.2869113487462E-08	1.54676331847622E-06	-6.51548871677456E-06	5.95485815262693E-06	-0.0811543907364049	-0.988723101130798
3.9	-0.993064128226846	-0.0745974014312856	-2.63052534104085E-06	-5.02665337298674E-06	-3.6993636201263E-06	8.02801643892476E-06	-0.20628393259188	-0.970783197093291
4	-0.995723541249097	0.00426198184513237	7.12976881392287E-06	-3.86117373066611E-07	-1.04575124488616E-06	-1.20519847780264E-06	-0.326368124399875	-0.93737069892223
4.1	-0.992482348487859	0.0825007069369351	6.19519540591075E-07	-4.44302245639892E-07	7.35165626310729E-06	-4.76109525015883E-06	-0.442084276361035	-0.888911562822879
4.2	-0.983147089104858	0.160560146266147	3.20752005773357E-06	2.10189341715505E-06	-7.19059433659234E-07	-7.61844669206363E-07	-0.550529258873032	-0.825835700675655
4.3	-0.967821495060695	0.23672190025598	-3.19016569554422E-06	1.37487220215946E-06	-4.99703838907799E-06	2.98621759911467E-06	-0.649943727885699	-0.75047211135291
4.4	-0.946458119660336	0.311616019891849	8.06158358114539E-07	2.64333494464606E-06	1.54926353258152E-06	-8.33783508830187E-06	-0.73911608972855	-0.662996648258962
4.5	-0.919057820487415	0.384693245685214	1.82413704357797E-06	-9.40935405301092E-07	7.63468278694341E-06	-2.59179341677234E-07	-0.816898659553976	-0.564923801328212
4.6	-0.885942261891551	0.456005635597962	-7.28572743321182E-07	6.13322838111501E-06	-1.2351247854829E-05	-6.48681339656641E-06	-0.881321723531102	-0.457664434736224
4.7	-0.847647537432183	0.523389044849901	1.20221819870417E-06	2.51272248144647E-06	1.42186130400319E-06	1.86774120177014E-06	-0.932153174910631	-0.343433931123228
4.8	-0.803339310689024	0.5888970470409	-5.18405194637582E-06	1.11360381518498E-05	5.23506421376861E-06	9.69907303803336E-06	-0.967868038648582	-0.22314964395617
4.9	-0.754279501658537	0.650018321775183	1.19888488586744E-06	2.93423450226076E-06	-4.81355479026236E-07	-6.91886588822695E-06	-0.988074022681465	-0.0990402217644484
5	-0.700667134165493	0.707134692716847	4.74525822441322E-06	-9.08906076961012E-07	-3.74660417178568E-06	2.42397182706329E-06	-0.992152612799385	0.0262939582798079
5.1	-0.642293603245984	0.760158840006598	4.13765580500395E-06	-1.3972871361327E-07	-2.654738265465E-06	-9.82275106490621E-06	-0.981004265079117	0.150914579488599
5.2	-0.580244584220598	0.808588034645689	2.62896467352306E-06	-1.50043532723294E-05	1.37838507100231E-06	2.82521932172266E-06	-0.954251282948616	0.273499190860889
5.3	-0.514752802987654	0.852061267495014	-8.71885529815115E-06	-7.85412928016738E-07	-1.13608208799256E-06	1.58808748571E-07	-0.912218699588101	0.391771638529273
5.4	-0.4461368098989	0.890294784070254	-7.18716336718352E-06	-1.10693554608024E-05	-1.37527506120954E-05	1.12006784807574E-05	-0.855360966817406	0.50341649218901
5.5	-0.374792786171578	0.922612013602738	1.90626466016834E-06	8.96376191145582E-08	-2.24725399011372E-06	1.7845737806211E-06	-0.785688430742326	0.606726362761502
5.6	-0.301134748047601	0.948911444190291	-2.41190711452257E-06	3.51665956214553E-06	-1.34342688307321E-06	1.29009730836152E-06	-0.703353359372362	0.700443796752378
5.7	-0.225527971750911	0.969809434772299	1.30691600111605E-06	1.23321684249467E-06	5.76822207579899E-06	-1.16727883280072E-07	-0.610104051123941	0.783049425354469
5.8	-0.148457755793842	0.98422357677087	2.70421627981445E-06	4.26499892904133E-06	-2.1160914202588E-06	4.24633849892652E-06	-0.507027725606451	0.853187780627809
5.9	-0.0705924355989279	0.992745474304698	-6.89614658086708E-06	-2.30553234610371E-06	-7.85655603045317E-08	6.29891979492317E-06	-0.396395501289019	0.909961383533368
6	0.00752668141741753	0.994963334503097	-1.79533883454178E-06	9.0497729790589E-08	-5.47290249331976E-06	-4.39555719169539E-06	-0.279389069573565	0.952406365899017
6.1	0.0855686826773601	0.990860725356582	3.85407733699964E-08	-9.92861292495102E-06	-9.85841495516517E-07	-3.21901683026187E-06	-0.15791955172785	0.979666522732978
6.2	0.163586867062169	0.980550510275895	-1.02158753175356E-06	3.11626594933677E-06	-1.75902728967849E-06	4.21945406917922E-06	-0.0333409080206883	0.991206941498689
6.3	0.240772798871235	0.964212406332509	-8.04493290262572E-07	2.83303359501464E-06	-2.93910851134323E-06	2.39907927578071E-06	0.0915207568057028	0.987031098413119
6.4	0.316540732785608	0.941912866936208	-5.96989288263819E-06	5.55326967240623E-06	-2.38411371549492E-06	-7.48422842665099E-07	0.215127018248261	0.967360272778115
6.5	0.390473307861676	0.913947153410847	1.402576531468E-06	-5.28123810372937E-06	-1.45096015760011E-06	-2.37809987271025E-06	0.33509628536656	0.932256561829739
6.6	0.461792828589164	0.880004838638196	3.65833198462651E-06	2.08379996895482E-07	1.13173153593053E-05	-2.68676237780421E-06	0.449627566826744	0.882477600875948
6.7	0.530042754783309	0.840435108764147	-7.7675564015294E-07	8.48690693345523E-07	-3.77231537302086E-06	5.2382993019339E-06	0.556404463403067	0.818921669393767
6.8	0.594979270295941	0.795686477969438	-1.75482930950381E-06	4.49381698486115E-06	1.45497604227938E-06	-8.8512598472143E-07	0.654399891143877	0.742646421615299
6.9	0.656120421378647	0.745930016154921	5.92753679924592E-06	2.24827995172277E-06	-9.31152131477345E-07	2.41887758369383E-06	0.74199192010772	0.65470911191357
7	0.713026068798291	0.691277593815147	1.14019802290356E-06	-4.15572439807125E-06	-1.42871829996065E-06	2.92135188855534E-06	0.817817249957864	0.556467570176988
7.1	0.765293621736145	0.632597866768149	2.40038856322184E-07	-7.18868176532118E-07	1.97847964128907E-06	9.19561256341936E-06	0.880704399632037	0.449666518652637
7.2	0.812838837561328	0.569630108198761	1.38565291448424E-06	-2.41613004537044E-06	-1.01520336828168E-06	-8.57233020003624E-06	0.929680043009813	0.335993149826963
7.3	0.855143750681412	0.502802094874487	4.8429654337647E-06	7.22893042643242E-06	-9.72087899636789E-06	2.33975444855185E-06	0.963791561078207	0.216900138298496
7.4	0.892345122559684	0.432698850111856	5.09603871663728E-06	-6.85357672849956E-07	1.93583102907264E-06	-9.64002929371173E-06	0.982944095275442	0.0942456022240162
7.5	0.923955043341473	0.359768615470398	2.74393701120007E-06	-5.30628797760672E-06	2.09467616186738E-06	-7.27589514315253E-06	0.986612648482974	-0.0297897879975638
7.6	0.949943423974108	0.284235075517806	-3.14018139627681E-07	-5.63736415709828E-06	1.67732237010812E-05	3.86779564341817E-06	0.974893630914962	-0.153647791456128
7.7	0.969751401203899	0.206738138917921	3.51870842615361E-06	1.10194603644389E-07	3.23414814568454E-07	-2.92565978113998E-06	0.947715225906807	-0.275117670100146
7.8	0.983194301843946	0.127982350571795	-1.09797267070509E-05	-1.91709319438115E-06	-2.02167447544752E-07	3.43946196616514E-06	0.905618415945566	-0.392111021719595
7.9	0.990243764850259	0.0483004960967855	2.35748027143678E-06	2.03023614660614E-06	-6.94632134829173E-06	-4.70938569658778E-06	0.849370267752895	-0.502889670666198
8	0.9907683982293	-0.0315152985665385	2.35314252952146E-06	2.95085127270122E-06	-9.33790907328954E-06	-7.58858570086441E-06	0.779536462349096	-0.605877925146013
8.1	0.984916367015907	-0.110971656845985	3.82330690277006E-06	-3.06948980560375E-06	2.14438359574538E-06	-3.18374683130559E-06	0.697429820492385	-0.698904501258404
8.2	0.972812745464546	-0.189467898633083	-4.03372307886334E-06	1.41741912938661E-06	-6.75074929338346E-06	3.63519880304653E-07	0.604555923133972	-0.780943798958251
8.3	0.954063785590524	-0.267111742930182	9.8620559604164E-06	2.91380401014213E-07	6.24776231533263E-06	1.04441797442211E-05	0.501878767030341	-0.850644524581454
8.4	0.928994031701712	-0.34306044598626	1.28571991948264E-06	2.55591037691419E-06	3.46095517598134E-06	1.82143509506384E-06	0.391225747109268	-0.907115791768596
8.5	0.897844216075779	-0.417031286028326	-4.84173426825142E-06	4.96617379709724E-06	2.8531688332905E-06	-3.02389996460407E-06	0.273862073719425	-0.948968575103023
8.6	0.860690339614996	-0.488152416449987	-4.49939988860667E-06	2.09165800471734E-06	-3.03384696593493E-06	8.12366144101614E-06	0.152671492656281	-0.975961937475796
8.7	0.81800975522572	-0.556077479189755	-1.02090249963562E-06	1.21757359266692E-06	-6.42162469280004E-07	3.46585577004714E-06	0.0287054536551702	-0.987633619088396
8.8	0.76997627223844	-0.620181896142496	-1.58330668618288E-06	3.08220498675578E-06	-6.01087280236935E-06	1.29043829938669E-06	-0.095474927167847	-0.983844852315407
8.9	0.717180017683809	-0.68021608189915	3.17440598118417E-06	-1.835159433176E-06	-3.16711183978626E-06	-4.54744109517038E-07	-0.218607743493318	-0.964132596439958
9	0.659439241490949	-0.735667870691952	-7.28741285642386E-06	1.3567236233285E-06	-3.97820863675456E-06	7.28246742240158E-07	-0.338130057054289	-0.929382988604131
9.1	0.597683677700475	-0.786196543597365	-3.3560776521863E-06	-1.88150602430821E-06	-9.82739477782601E-07	2.1355717842702E-06	-0.452727378247375	-0.879791585264901
9.2	0.531656739539	-0.831577795170765	5.98417478222478E-06	-1.64230283187208E-06	1.98934668047287E-06	8.47940228109877E-06	-0.560093712229644	-0.81647314344043
9.3	0.462253162561876	-0.87146739258394	-3.39068629227663E-07	1.07073106809995E-06	1.36713033000704E-05	1.18277135622242E-05	-0.658723493428898	-0.739528384613649
9.4	0.389518340537612	-0.905440928645696	1.73183449694691E-06	-2.66249621198793E-06	4.28876906550526E-06	1.75835435401028E-06	-0.746213805436278	-0.650812216652106
9.5	0.313719210361674	-0.933188210858632	-6.50847487261152E-06	-4.889944465195E-06	-1.94653413609394E-06	-5.70551184288081E-06	-0.822525233455735	-0.551404664059789
9.6	0.235194160330733	-0.954444917785692	-1.16827519505832E-05	-2.61812462638235E-07	-5.92507295322754E-06	-4.0149747063183E-06	-0.885489001382896	-0.443287564145204
9.7	0.155341344685567	-0.968981986444815	1.46825719531166E-06	-4.78266291135178E-07	-2.91829489960491E-06	1.64157168814059E-06	-0.934581574354199	-0.327888868257993
9.8	0.0746992979467024	-0.97670738433783	2.20657899949801E-06	1.40089248485297E-06	1.51058024626662E-05	-3.50448209395865E-06	-0.968397829269932	-0.207392911430159
9.9	-0.00621139311077609	-0.977365811292877	-3.46095433351698E-06	8.97380667157173E-06	1.37624680284734E-05	4.98931087974502E-06	-0.98711843538464	-0.0833577075543882
10	-0.0860179476109728	-0.970786449248967	-3.64342328143895E-06	1.61907056229003E-06	1.92425901776812E-05	-1.81512225850395E-05	-0.989671857272539	0.0421613695921831
10.1	-0.164365721257646	-0.957739302963967	-1.4804448244245E-06	2.30383626460263E-06	-8.42628132893227E-06	-4.31405654324346E-06	-0.97660090267713	0.166958187200667
10.2	-0.240842704318488	-0.938538208524633	-2.311204717255E-06	-1.24182304154815E-06	-1.29285816802395E-05	7.23440315236779E-06	-0.947467466766596	0.289110308859132
10.3	-0.314367994687676	-0.913130561643829	5.7700379154415E-06	3.92840702086931E-06	-6.15392999087684E-06	1.38026081168222E-06	-0.90348192561385	0.406121236742324
10.4	-0.38537903968324	-0.882546644773994	2.10260446217282E-06	1.04702749827442E-06	7.02692833091138E-07	-8.22523944961056E-06	-0.844820102909787	0.516290615643373
10.5	-0.453508617417034	-0.845441501282509	4.36488019875463E-07	-3.05882685483208E-07	-6.56753808640649E-07	-5.62768801387717E-06	-0.773071520486626	0.617840970064667
10.6	-0.516674360692241	-0.802794466349258	5.08171842374816E-06	-2.60481819127562E-06	-9.74089182514656E-06	-7.86642775087799E-06	-0.689057536711012	0.709537359234958
10.7	-0.575306770914376	-0.755907461555483	-2.8101362320291E-06	-5.00361078934433E-07	-5.22025799959603E-06	-7.15477227698617E-06	-0.594740296567438	0.789787857076347
10.8	-0.629399508712215	-0.706182209424116	-3.60897387990589E-06	-3.43664992305077E-06	-1.19403288564221E-05	9.13125487678335E-06	-0.49118106887589	0.857693218986609
10.9	-0.679808101676725	-0.654135607762141	-1.13629248776642E-05	-1.03988245578481E-05	-4.46476403826255E-06	1.09389136790996E-05	-0.380326995134197	0.912237213589643
11	-0.726434986492619	-0.600135110399011	1.00914055031088E-06	1.40734598607581E-06	8.65057658913262E-06	-5.4898618280195E-06	-0.262726723848029	0.952637651918177
11.1	-0.770183279748546	-0.543332225356301	-3.25795992789099E-07	-3.62796907227139E-06	1.01722550827734E-05	-1.01867382182837E-05	-0.141181939744208	0.977641571592299
11.2	-0.810686353895394	-0.483682138274686	-1.02996509352859E-06	-3.90958010792662E-06	2.16053931598082E-06	-6.30416952674364E-06	-0.0167779386416801	0.987252309199429
11.3	-0.84760842667066	-0.420331230500324	1.63649121741522E-06	-1.20329546069866E-05	3.56343786169109E-06	-2.81838506245501E-06	0.107804039979379	0.981039460931942
11.4	-0.879496528046979	-0.354008517049151	9.86079622682968E-07	1.85596793969794E-08	-5.68624318523574E-06	6.4566994504625E-06	0.23108728927367	0.959338073139269
11.5	-0.906920640526791	-0.284909028850372	6.54230497016331E-06	-1.23910595410989E-06	8.23277304069546E-06	-3.11272095700957E-07	0.349788136440302	0.921995396093441
11.6	-0.929032300774767	-0.213166146870982	-6.37940444266973E-07	-5.32367143583981E-06	1.43712376529794E-06	-3.07787650752465E-06	0.463342608671862	0.87003902424518
11.7	-0.944879373278892	-0.138421526746154	-9.33422055604575E-08	-6.04090902018304E-06	8.91745424015644E-07	-2.65518344229853E-06	0.569198038181338	0.804132811629043
11.8	-0.954709798893345	-0.0616927156926373	-1.06996886572151E-06	-7.4020299165414E-07	5.15938998045744E-06	1.07816062702771E-06	0.66603250356899	0.725631426657122
11.9	-0.958200228552245	0.0166609405292369	-3.21270762591851E-06	-5.20353757842132E-06	-5.38081409814051E-06	-8.0022910252208E-06	0.751735157120257	0.636221912033845
12	-0.955347623024639	0.0954038727720437	-2.94316637705886E-06	1.64122139694525E-06	-1.67214460753808E-05	-8.74573683535816E-06	0.82530111833532	0.536702757146971
12.1	-0.94626314030462	0.173737493817358	8.25098527722927E-07	-1.56626838450875E-06	7.85216519793559E-06	1.22687294862468E-05	0.885531528089284	0.428610747537457
12.2	-0.929766767117141	0.252064626564177	-4.10294819291013E-06	5.54536177942774E-06	4.15326260900291E-07	3.31016256870095E-06	0.932047052065899	0.31407287962441
12.3	-0.907114840383422	0.328684586359254	7.82964663154272E-06	6.38358961328105E-06	4.20347227056606E-07	1.08862919378196E-05	0.963836087145207	0.194201416344803
