# GHZ S RI R 50
0.2	0.985888886029462	-0.156839989012451	2.56435353511577E-06	2.25022448608356E-06	6.57118196879095E-06	-4.86860647663389E-06	-0.966450532786366	0.251605321203213
0.3	0.969852770861181	-0.233935037953463	-8.73485841122602E-07	-5.45449428459806E-06	-3.46629784490261E-06	-7.94650376789968E-06	-0.926860959871698	0.371628658569263
0.4	0.94837427422228	-0.309263827882673	-7.27978063554884E-06	-9.91675626587113E-07	4.44161756694123E-06	1.54547661006556E-06	-0.872159583281248	0.485416538877882
0.5	0.921454081361284	-0.382770313353593	6.20036183291694E-06	2.10509574395124E-06	-2.4143017309503E-06	-1.90827218937179E-06	-0.803611510976033	0.591685117745915
0.6	0.888498116313436	-0.453783827874579	-1.05531064093457E-05	2.46082104377073E-06	-2.2187233292088E-06	-1.0073351601296E-06	-0.722101196120289	0.688043393067127
0.7	0.850345807138679	-0.521663389073106	2.78481637370971E-06	-1.17215897853425E-06	-2.98846576176271E-06	5.78934515013342E-06	-0.629496476652999	0.773534984803441
0.8	0.80691029970804	-0.586750408534721	1.17721205870906E-06	-8.47773835559883E-06	-6.62199049929523E-06	-3.07114686732982E-06	-0.526772656531951	0.846531433307016
0.9	0.758448453747126	-0.648393777643	-1.14697420130707E-06	-6.81232598732869E-07	2.5483719775328E-06	6.54502838489226E-06	-0.415845286385407	0.905859167525223
1	0.705051883663687	-0.706207964522573	-2.7451340976715E-06	-3.22313662218538E-06	-4.04892414755411E-07	-7.3174709215211E-06	-0.298630349720915	0.950563108227591
1.1	0.648006153093585	-0.759646898180874	1.80741748456673E-06	-4.94150708874678E-06	2.27092318171982E-06	-5.13497789706274E-06	-0.17654919117053	0.980424264000768
1.2	0.58557453781282	-0.809244990042723	-2.49645380904665E-06	2.49150343429136E-06	9.26357374952128E-07	-9.10833224614405E-07	-0.0514352540639014	0.994461307727394
1.3	0.517844016309434	-0.85382044412799	-1.53831931814271E-06	7.1923993306494E-07	-1.35589521431359E-06	1.46328214059812E-06	0.0743661932385311	0.992885371273661
1.4	0.447052356483114	-0.892371841852103	3.92363024573801E-06	-3.24076796853398E-06	2.70225228012853E-06	1.09419851491614E-05	0.199518921635634	0.975019825941453
1.5	0.374236455372835	-0.924562830399738	-5.3383017244855E-06	1.10975683493761E-06	6.59107693098973E-06	-7.20790492079832E-06	0.321187641379674	0.941705526233216
1.6	0.300590623685151	-0.950929868148002	1.7767181519631E-06	-7.74024286586966E-06	3.6325752540964E-06	1.38279074994402E-06	0.437184902083773	0.893265068350223
1.7	0.226141681899708	-0.971117246065216	-1.94195159689717E-06	-9.69533827389614E-07	-2.35655342737947E-07	-2.08744403661195E-06	0.545519928888049	0.831425344961272
1.8	0.149504183402218	-0.985790360635916	2.85188721226825E-06	5.28041684337313E-06	4.25582014014869E-09	2.03206122835721E-06	0.645606267069417	0.756109215603446
1.9	0.0720258992696822	-0.994469535865218	5.67587113701472E-06	-2.63271639081833E-06	-2.99897278606068E-06	4.16134199656741E-07	0.73491678904002	0.669038174671159
2	-0.0051480081699083	-0.997091655686525	-1.54936182615417E-06	-2.02754008179636E-06	3.21504499424695E-06	1.14637559715192E-05	0.813024896684618	0.571123078829147
2.1	-0.0840350609260035	-0.993829980540531	-7.55772950936479E-06	2.45909552207171E-06	1.2097614844796E-06	5.14887426381059E-06	0.877912388903934	0.464339570535614
2.2	-0.160811033985813	-0.984296083606002	-8.83145392188271E-07	1.39542464079172E-06	3.00818459433313E-06	7.78026088867874E-06	0.929219196995523	0.350455225579938
2.3	-0.238003396763761	-0.968281130825958	1.82408959326242E-07	7.45785031549551E-06	7.40530689124184E-07	9.39034987426199E-07	0.965354194776625	0.23146495102212
2.4	-0.313855715692378	-0.94597562290709	1.58250509464052E-06	7.17797314541013E-06	1.52403822025676E-06	6.39087375186841E-06	0.986841771015489	0.107922653782645
2.5	-0.387085229095611	-0.918541699245831	4.39249284931274E-06	-2.31638182016247E-06	-1.9171835828151E-06	-7.57541738581202E-06	0.992212067283618	-0.0165724728077781
2.6	-0.458396290657923	-0.884924673935364	6.7724309806462E-06	-5.9500199120893E-06	-1.11037203876905E-05	1.08366404836543E-05	0.982267281008177	-0.141330348644819
2.7	-0.52695960235144	-0.845798348771813	-4.44236273874196E-06	9.14779046087986E-06	-2.87644518957334E-06	-9.16267927485047E-06	0.956330172526317	-0.263887824135693
2.8	-0.591266048830167	-0.801888247450694	2.45878537365448E-06	1.14356744726346E-06	-3.12891126717857E-06	1.24483060389484E-06	0.916009699533044	-0.381536083345469
2.9	-0.651565010037093	-0.753573335630716	-5.49997431859039E-06	6.01758720214921E-06	-9.1959713369887E-06	-2.81916274681247E-07	0.860882987363065	-0.493111110227756
3	-0.708599649545262	-0.700203296748339	4.72151108559607E-07	-1.47332739049518E-06	1.1327293977645E-05	1.46091919103486E-06	0.792212451129353	-0.597352516544672
3.1	-0.761340611252101	-0.642899102269617	2.40811219894807E-06	1.04962509675348E-05	4.32591467912343E-06	2.17312490651756E-06	0.71120505453631	-0.691486502327694
3.2	-0.809230820387808	-0.581742672793956	2.10601127856476E-06	6.46514014045351E-06	3.99774463758564E-06	-1.06059101678716E-05	0.619270714626427	-0.774940746812814
3.3	-0.852269716867221	-0.517156450326619	3.08256157511507E-06	4.9606851602176E-06	-2.22682469480763E-06	-9.66735028676408E-06	0.516464794627917	-0.846813995686093
3.4	-0.889401443369016	-0.449654635046572	2.12442539855104E-06	-2.60430662132916E-06	5.95772998399351E-06	1.3809410982063E-06	0.406837169894085	-0.904886894512714
3.5	-0.921861083287569	-0.378013689476199	-3.23908813452403E-06	9.47809451994001E-07	-2.07148134225321E-06	3.42387864448491E-06	0.289823703581263	-0.949010122635485
3.6	-0.948560434849437	-0.304486395837964	-1.8149255114594E-06	-3.74256509427329E-06	-7.82065788788028E-06	4.11072721876871E-06	0.168186870925913	-0.977969991276817
3.7	-0.969323280991298	-0.229502145591255	8.17109017419228E-07	-8.32675645269058E-06	1.07697308858101E-05	3.6901804622657E-06	0.0434549783690826	-0.99126236589617
3.8	-0.984397848747902	-0.152263835503145	9.2944286247772E-08	1.54667973844076E-06	-6.5148492409544E-06	5.95489142699282E-06	-0.0812020457458542	-0.988781818181182
3.9	-0.993036437352381	-0.0746595193198197	-2.63058724073019E-06	-5.02620621784049E-06	-3.69875301297411E-06	8.02766738724196E-06	-0.206348774860385	-0.970823973648414
4	-0.99571140738104	0.0041933139927922	7.12917874494867E-06	-3.86338316043238E-07	-1.04570932443934E-06	-1.20506405719796E-06	-0.326443404786322	-0.93738714050065
4.1	-0.99248862805725	0.0824257948191778	6.19451357547471E-07	-4.44267272756934E-07	7.35085474486808E-06	-4.76073106757749E-06	-0.44215943984925	-0.888898584982348
4.2	-0.983179000713901	0.160479243108034	3.20709699459283E-06	2.10172126636409E-06	-7.18957930289754E-07	-7.61772106671917E-07	-0.550588859859102	-0.825792958218175
4.3	-0.967894262824667	0.236643741982766	-3.18990774870359E-06	1.37444931226835E-06	-4.99670295928835E-06	2.98545829393938E-06	-0.649970604363726	-0.750410578355191
4.4	-0.946585690210353	0.311566432672847	8.05668425098219E-07	2.64326470938386E-06	1.5504978142578E-06	-8.33694996707093E-06	-0.739100310328996	-0.662940695862445
4.5	-0.919225019131228	0.384721603816408	1.8243921052522E-06	-9.40565156722111E-07	7.63495093090808E-06	-2.57527640179856E-07	-0.816856518987211	-0.56490240770939
4.6	-0.886086023070287	0.45613689882112	-7.2988366985932E-07	6.1340606514287E-06	-1.2351945722869E-05	-6.49025072383881E-06	-0.88128569590614	-0.457678095334194
4.7	-0.847702928524988	0.52357936394112	1.20224902471355E-06	2.51345429106021E-06	1.42201192736123E-06	1.86833978868552E-06	-0.9321388359143	-0.343462882709192
4.8	-0.803302203634695	0.589078794848682	-5.18546531857218E-06	1.11388878824336E-05	5.23635737197242E-06	9.70161748333797E-06	-0.967869252262449	-0.223179701229794
4.9	-0.754185357427929	0.650154215012291	1.19935906692206E-06	2.93486206728729E-06	-4.81910969280522E-07	-6.9204948505585E-06	-0.988084084725318	-0.0990695809248134
5	-0.700553020257514	0.707216897607753	4.74615375873181E-06	-9.09593451727582E-07	-3.74713231012626E-06	2.42487083882962E-06	-0.992171125811215	0.0262640081751069
5.1	-0.642185448078491	0.760195754916402	4.1383709381389E-06	-1.40274071353624E-07	-2.6564443102262E-06	-9.82415649262149E-06	-0.981033114056187	0.150885692577381
5.2	-0.580155653075731	0.80859348891218	2.62732385552687E-06	-1.50069350884375E-05	1.37897195636562E-06	2.82545189534861E-06	-0.954290663080956	0.273475498296541
5.3	-0.514686460448006	0.852048165078402	-8.72003830632373E-06	-7.84281995438506E-07	-1.13619946845086E-06	1.58988232730629E-07	-0.912266553311681	0.391757614066845
5.4	-0.446090576450264	0.890272041579386	-7.18951322480076E-06	-1.10693936608755E-05	-1.37524624870912E-05	1.12038237112234E-05	-0.855413262399703	0.503415718220754
5.5	-0.374761900501538	0.92258381049843	1.90641905172882E-06	8.93383516733839E-08	-2.24713271808917E-06	1.78506541358242E-06	-0.785739214569454	0.606741089187554
5.6	-0.301115123508374	0.948876595082432	-2.41136122716071E-06	3.51722525939604E-06	-1.34324358923716E-06	1.29038766246207E-06	-0.70339419691072	0.700472820922964
5.7	-0.22552224960623	0.969764191831512	1.30713751563806E-06	1.23292693876366E-06	5.76807699992135E-06	-1.17890296116889E-07	-0.610128069700461	0.783086023978425
5.8	-0.148477837918031	0.984157074244376	2.70477165731456E-06	4.26390953380561E-06	-2.11494560862627E-06	4.24625592242136E-06	-0.50703071502545	0.853212305723461
5.9	-0.0706733082732072	0.992664355704308	-6.89462811124162E-06	-2.30390734432655E-06	-7.76264572269413E-08	6.29723737979686E-06	-0.396400471503814	0.909949947684532
6	0.0073533400149016	0.9949239560793	-1.79464506271793E-06	9.03861798492803E-08	-5.47058885095616E-06	-4.39408204336426E-06	-0.279448666319306	0.952370737805256
6.1	0.0853463605314986	0.990946521963052	4.15775831513424E-08	-9.9250276626957E-06	-9.84497599919139E-07	-3.21816118088945E-06	-0.158050647993854	0.97968062023482
6.2	0.163425986214759	0.980764571656245	-1.02293221058017E-06	3.11521942266836E-06	-1.76078204382535E-06	4.21785328704812E-06	-0.0334724421505997	0.991321835863961
6.3	0.24073140852159	0.964467743347753	-8.05976944502565E-07	2.83272377465152E-06	-2.94044712929664E-06	2.3976578329983E-06	0.0914622703849231	0.987211328988879
6.4	0.316591398055778	0.942116849636789	-5.9732869684395E-06	5.55160271252802E-06	-2.3841841640293E-06	-7.49579589184192E-07	0.215150283532248	0.967525002097081
6.5	0.390556066832465	0.914072652888184	1.40460686576433E-06	-5.28189946754758E-06	-1.45048814091802E-06	-2.37908084776263E-06	0.335161673155816	0.932368056127258
6.6	0.461867989066619	0.880066782115903	3.65906075446578E-06	2.09296362603033E-07	1.13203639574789E-05	-2.68463640860637E-06	0.449699872336945	0.882537353456331
6.7	0.530096519229512	0.840458042813269	-7.77056228199296E-07	8.48725092965718E-07	-3.77396784962357E-06	5.23868796316601E-06	0.556467581012109	0.818945017917121
6.8	0.595012294261347	0.795689330731209	-1.75571664203193E-06	4.49443356064035E-06	1.45535710310191E-06	-8.85108938283372E-07	0.654451046553699	0.742646920162407
6.9	0.656136331667818	0.745923021588912	5.92840806683777E-06	2.24921870268563E-06	-9.31537689307731E-07	2.41923189809149E-06	0.742031583816634	0.654693063094905
7	0.713033179085897	0.691265263007166	1.14061937753329E-06	-4.15643580430492E-06	-1.42913057668182E-06	2.92182024203206E-06	0.817850616089291	0.556435336149843
7.1	0.765297688949838	0.632577710876951	2.40085448605305E-07	-7.19009633116133E-07	1.9788758157649E-06	9.19741799112925E-06	0.880731008560653	0.44961002089414
7.2	0.812841282606569	0.569591342589571	1.38574113145711E-06	-2.4167396467722E-06	-1.01610998024586E-06	-8.57401016470173E-06	0.929687395911289	0.33589650687111
7.3	0.855130391358193	0.502726161304316	4.84535270778389E-06	7.22923574089448E-06	-9.72215916994473E-06	2.3422058383448E-06	0.963738100105785	0.216749103704009
7.4	0.892271814349223	0.432577210437836	5.09614886054565E-06	-6.87311736272072E-07	1.932366930316E-06	-9.6414458201703E-06	0.982751314651114	0.0940658996159498
7.5	0.92376505218007	0.359657180672445	2.74090600083564E-06	-5.30655319033095E-06	2.09084300778035E-06	-7.2754731366028E-06	0.986227618170259	-0.0298553325935883
7.6	0.949684083993619	0.284238174840819	-3.1588017213414E-07	-5.63458155602069E-06	1.67666573107171E-05	3.85998050419563E-06	0.974465712294502	-0.153445749961123
7.7	0.969526598950712	0.206871774744428	3.51655313411942E-06	1.09792143815003E-07	3.22937517178858E-07	-2.92388978925994E-06	0.947458103575632	-0.274685310517681
7.8	0.983076863022032	0.128152624641711	-1.09734515813476E-05	-1.91736023727942E-06	-2.02470400701138E-07	3.43754422680257E-06	0.905606294953826	-0.391663760229551
7.9	0.99020667799657	0.0484278539552934	2.35607807290775E-06	2.02989710839878E-06	-6.94245898306855E-06	-4.7089118650469E-06	0.84950791022177	-0.502564559002059
8	0.990754140061881	-0.0314380094361638	2.3517524086076E-06	2.95049949723008E-06	-9.33333997945717E-06	-7.5884364610071E-06	0.779718135572269	-0.60567549192354
8.1	0.984901397926094	-0.110933204729083	3.82314565507113E-06	-3.0679882251481E-06	2.14461223875835E-06	-3.1825868005136E-06	0.69760569443761	-0.698801224576861
8.2	0.972780677656315	-0.189448157008986	-4.03332662612542E-06	1.4163658560855E-06	-6.74968070019285E-06	3.62096912514316E-07	0.604705535751413	-0.780898344467187
8.3	0.95401169620412	-0.267095353959884	9.86062764957221E-06	2.93225799112617E-07	6.2448954857393E-06	1.04439209149741E-05	0.502001436125632	-0.850633287286245
8.4	0.928922583788116	-0.343034872828394	1.28508100533265E-06	2.55585083767131E-06	3.46019718657125E-06	1.82187652066921E-06	0.391325951476489	-0.90712513991899
8.5	0.897756760835927	-0.41698445377465	-4.84223905463194E-06	4.96470274795293E-06	2.8534857938955E-06	-3.0230232519916E-06	0.273944839620741	-0.948992495261574
8.6	0.86059502628878	-0.488071568826833	-4.49952289335249E-06	2.0904964553669E-06	-3.03542516680967E-06	8.12236665266848E-06	0.152739792573161	-0.976000881297676
8.7	0.81792383720719	-0.555951059004808	-1.02117856331051E-06	1.21727346516369E-06	-6.43023247993649E-07	3.46557758954766E-06	0.0287560610110215	-0.987694121298871
8.8	0.769930503735932	-0.620007672066832	-1.58425719189209E-06	3.08193004373683E-06	-6.01156361702159E-06	1.28882439165207E-06	-0.09546563831779	-0.983933590467237
8.9	0.71721080750576	-0.680016483650502	3.17547815236447E-06	-1.83470461509738E-06	-3.16760158851507E-06	-4.55634603760269E-07	-0.218683412465205	-0.964225523872923
9	0.659562652626423	-0.735494151436442	-7.28990809603316E-06	1.35627356160772E-06	-3.97956928848791E-06	7.27997090178001E-07	-0.338302642440795	-0.92939302623308
9.1	0.597874352025792	-0.786098842381419	-3.3573508828716E-06	-1.88187523872052E-06	-9.82902431105932E-07	2.13636521991394E-06	-0.452896235720792	-0.879643545957521
9.2	0.53186523748889	-0.831575821400396	5.98517335574961E-06	-1.6439827928001E-06	1.9916505250415E-06	8.48089102310262E-06	-0.560129232805942	-0.816229066243725
9.3	0.462436629748478	-0.871547457601708	-3.38835190208992E-07	1.07091989570128E-06	1.36755806762664E-05	1.18254643129732E-05	-0.658616352583147	-0.739316173876456
9.4	0.389652868699732	-0.905570693699057	1.73127031256331E-06	-2.66287762606349E-06	4.28916236158789E-06	1.75744163181697E-06	-0.746026679192997	-0.65070171598259
9.5	0.313801651875352	-0.933346240887537	-6.50913664553903E-06	-4.88862770323143E-06	-1.94748794388913E-06	-5.70498154410214E-06	-0.822338749303344	-0.55137314585807
9.6	0.235226146746087	-0.954612503765975	-1.16821568642908E-05	-2.6013042835011E-07	-5.92532537891466E-06	-4.01391147030386E-06	-0.885323978489699	-0.44332281812557
9.7	0.155326978043892	-0.969146960446551	1.4681031478632E-06	-4.78405903743408E-07	-2.91790796661439E-06	1.64180298809294E-06	-0.934448827488433	-0.327969009666992
9.8	0.0746418586263187	-0.976860887449263	2.20654468802264E-06	1.40056702509082E-06	1.51042831408596E-05	-3.50569106092119E-06	-0.96830013253235	-0.207503462536458
9.9	-0.00631810108013407	-0.977498759431981	-3.45986569683228E-06	8.97325737602052E-06	1.37615985242974E-05	4.98767126099529E-06	-0.987056525211719	-0.0834917270807808
10	-0.0861646097141539	-0.970884886321384	-3.64290279062282E-06	1.61913566192916E-06	1.92391890347203E-05	-1.81504847707946E-05	-0.98964733742737	0.0420093651543698
10.1	-0.164545176940243	-0.957785821137398	-1.48014492161767E-06	2.30358057754693E-06	-8.42530030356905E-06	-4.31311126770324E-06	-0.976621300594182	0.166789064080753
10.2	-0.241037310092357	-0.938511834932608	-2.31081451904806E-06	-1.24162981021934E-06	-1.29264771613399E-05	7.23313191738072E-06	-0.947551607342243	0.288927218569132
10.3	-0.31454184320117	-0.913012838759969	5.76864776091842E-06	3.92819581412525E-06	-6.15293231487447E-06	1.37947428273848E-06	-0.903663837868654	0.40594555357708
10.4	-0.385473309829047	-0.882339873718307	2.10207934587749E-06	1.04729633199778E-06	7.04250430203124E-07	-8.22387101921163E-06	-0.845129641190774	0.516193105575908
10.5	-0.45346112524879	-0.845197083683686	4.36566858128406E-07	-3.05741012144115E-07	-6.55030447909394E-07	-5.62770995127673E-06	-0.773458868600595	0.617940710876715
10.6	-0.516440972348372	-0.802659400250945	5.08337482278227E-06	-2.60367159694611E-06	-9.74006763378272E-06	-7.87076721349745E-06	-0.689326111495986	0.70992218012898
10.7	-0.575020072724045	-0.755859882421037	-2.81075048886826E-06	-5.0107297289535E-07	-5.22010532978776E-06	-7.15768584691808E-06	-0.594782521302976	0.790226432803364
10.8	-0.629115500790073	-0.706279148750335	-3.60966971124756E-06	-3.43795592400411E-06	-1.19445478234975E-05	9.13271203479227E-06	-0.491006008367242	0.858050667875618
10.9	-0.67958822860508	-0.654337540742388	-1.13656843525255E-05	-1.0401642791081E-05	-4.4660590648734E-06	1.09416479810101E-05	-0.380050988838418	0.912438576490224
11	-0.72629048866641	-0.600402784162909	1.00939916994738E-06	1.40763227336116E-06	8.65235416734804E-06	-5.49129364401141E-06	-0.262439454202875	0.952700764893901
11.1	-0.770118410532217	-0.543636814681423	-3.26015262936202E-07	-3.62865771421952E-06	1.01737867491011E-05	-1.01891490647843E-05	-0.140928916675483	0.977603590283499
11.2	-0.810701540194795	-0.484002842670019	-1.03034919395797E-06	-3.91020904009501E-06	2.16058728646726E-06	-6.3053833018922E-06	-0.0165767707063782	0.987146317031828
11.3	-0.847703002595271	-0.420650987141956	1.63605902556129E-06	-1.20350232915152E-05	3.56385817522141E-06	-2.81905474650728E-06	0.107946205460333	0.98089427598626
11.4	-0.879672804807194	-0.354307970149372	9.86234167422263E-07	1.8495667145676E-08	-5.68668907544992E-06	6.45808890594772E-06	0.23117083987034	0.959168085966819
11.5	-0.90718245598925	-0.285166775467855	6.54315988739164E-06	-1.23982623986473E-06	8.23395168518221E-06	-3.11995937778265E-07	0.34981080317185	0.921809645536855
11.6	-0.929376111039461	-0.213350826004274	-6.38579997916989E-07	-5.32431766010225E-06	1.43699575311995E-06	-3.07843810874481E-06	0.463298805382679	0.869852709732927
11.7	-0.945294376496434	-0.138490335049263	-9.41624102568763E-08	-6.04156020059089E-06	8.91487397113642E-07	-2.65559472179623E-06	0.569076653974294	0.803962809956601
11.8	-0.955156745289379	-0.0615870718440595	-1.07015957880294E-06	-7.40072007002748E-07	5.15989560266681E-06	1.07737140347492E-06	0.665819786008259	0.725514003506576
11.9	-0.958678013015137	0.017027417952476	-3.21379599039047E-06	-5.20270346265836E-06	-5.38247791589371E-06	-8.00091008698993E-06	0.75136337930006	0.63619802501476
12	-0.955496625884499	0.0959322864532957	-2.94257098997323E-06	1.64147202722099E-06	-1.67207921457232E-05	-8.74217901992578E-06	0.82501485150966	0.536912253490522
12.1	-0.946089277981221	0.174350475331383	8.24823394456429E-07	-1.5660247059954E-06	7.85154005715938E-06	1.2265770724555E-05	0.885369983685515	0.429040556066737
12.2	-0.929287972918894	0.252469429773227	-4.10237882224559E-06	5.54416395291745E-06	4.1512565672331E-07	3.30955333766032E-06	0.932172749629066	0.314534430204973
12.3	-0.906535874130381	0.328788800381819	7.82793752822042E-06	6.38352251838828E-06	4.19182565580996E-07	1.08848615693105E-05	0.964175754421965	0.194513563043279
