# GHZ S RI R 50
0.2	0.98587642612104	-0.156845818885203	2.5643462573009E-06	2.25024369164677E-06	6.57122328170658E-06	-4.86857969688914E-06	-0.96646941524564	0.251589342265462
0.3	0.96983702740674	-0.233937594689863	-8.73468084832628E-07	-5.45452370211649E-06	-3.46628239680287E-06	-7.94655543562561E-06	-0.926888146431465	0.371621360564698
0.4	0.948352081588439	-0.309265270640137	-7.27978364304964E-06	-9.91645136331309E-07	4.44162332093742E-06	1.54545786168067E-06	-0.872178181637432	0.485422560865601
0.5	0.921419645395588	-0.382745553745623	6.20018018404737E-06	2.10511428843128E-06	-2.41421837248946E-06	-1.90825180572723E-06	-0.803613502539731	0.591665151075346
0.6	0.88849641445799	-0.453744729368296	-1.05531819756555E-05	2.46045684549807E-06	-2.2186868964253E-06	-1.00741044803208E-06	-0.722140719866016	0.6880262569003
0.7	0.850356118740186	-0.521631835977725	2.78487321225001E-06	-1.17210135053786E-06	-2.98863948669782E-06	5.78932834665379E-06	-0.6295330896359	0.77354258933317
0.8	0.806926677233313	-0.586717871183807	1.1773870711329E-06	-8.47779098628261E-06	-6.62198985169571E-06	-3.07130272605985E-06	-0.526795968031149	0.846550826936042
0.9	0.758476634211744	-0.648350901636699	-1.14696588901056E-06	-6.81256663580664E-07	2.54825946243623E-06	6.54510124696709E-06	-0.415850696845122	0.905885995511807
1	0.705118657956178	-0.706163951884553	-2.74506916034596E-06	-3.22320608593911E-06	-4.04730153314538E-07	-7.31749858470191E-06	-0.298603064047448	0.950588730755189
1.1	0.648089493808481	-0.759627017256644	1.80747753887274E-06	-4.94144256717528E-06	2.27098260411499E-06	-5.13490498520051E-06	-0.176485437848845	0.980418661795077
1.2	0.585674836229616	-0.809239581217398	-2.49640933186972E-06	2.49135206648985E-06	9.2634057699091E-07	-9.1077759378726E-07	-0.0513491926579536	0.994381635206494
1.3	0.517960824520273	-0.853828042073421	-1.53825314600594E-06	7.19083054943693E-07	-1.3558926056816E-06	1.46308214144155E-06	0.0743910200368302	0.992710220803705
1.4	0.447215004369094	-0.892408706155457	3.92389758960742E-06	-3.24004524504427E-06	2.70055315838191E-06	1.09418250409473E-05	0.199425936727421	0.974854169730116
1.5	0.374370409413841	-0.924718392477834	-5.3386641917049E-06	1.10899258549555E-06	6.59240457358859E-06	-7.20717473390456E-06	0.321038874483327	0.941609433451349
1.6	0.300644490996308	-0.951060670191797	1.77776652919409E-06	-7.74061431276091E-06	3.63268469023396E-06	1.38332400263505E-06	0.437032360373896	0.893288790368356
1.7	0.226204012093849	-0.971248290760963	-1.94205748081352E-06	-9.69832196096903E-07	-2.35468853464E-07	-2.08768716656605E-06	0.545433934690207	0.831515856001135
1.8	0.149568925776464	-0.985959461941357	2.85185671227431E-06	5.28143658051469E-06	4.08327731935595E-09	2.0323604898523E-06	0.645595510334898	0.756238160151643
1.9	0.0720414189728133	-0.994711436861363	5.67713589395527E-06	-2.63317444004833E-06	-2.99962287045459E-06	4.1616741007222E-07	0.735043259637178	0.669164592059374
2	-0.00528188519074977	-0.997286306811395	-1.54979366322846E-06	-2.02759093189545E-06	3.21682903584425E-06	1.14647220107658E-05	0.813179834779307	0.571013932274096
2.1	-0.0841218654903411	-0.993943607861421	-7.55818660597759E-06	2.45927364333885E-06	1.20985414393282E-06	5.14918730850002E-06	0.877889651724958	0.464312352487525
2.2	-0.160907129464543	-0.984416254889747	-8.83261163589617E-07	1.39561290530503E-06	3.00860060436199E-06	7.78129685391614E-06	0.929271116189689	0.350511768619108
2.3	-0.238118754108477	-0.968371904382745	1.82814206797351E-07	7.45908728630219E-06	7.40701612862747E-07	9.39154678577322E-07	0.965500310641881	0.231514079336902
2.4	-0.313965352208754	-0.946030125543548	1.58361745163423E-06	7.17902854677997E-06	1.52504848469487E-06	6.3917999758622E-06	0.987080384002644	0.10789997626343
2.5	-0.387175101483104	-0.918582604716151	4.39266262588714E-06	-2.31749146436926E-06	-1.91881790604488E-06	-7.57608772342854E-06	0.9924726545402	-0.0167406430693565
2.6	-0.458486316251121	-0.884956221255571	6.7716189201134E-06	-5.95210856135509E-06	-1.11021364813637E-05	1.08401571001642E-05	0.982475756348052	-0.141634340281358
2.7	-0.527049330437664	-0.845800831424381	-4.44000415800627E-06	9.14885526928665E-06	-2.8787553980502E-06	-9.1618822938647E-06	0.95637990550301	-0.264272682940136
2.8	-0.591322338558085	-0.80184494905931	2.45884221995921E-06	1.14292407064624E-06	-3.12837887269119E-06	1.24543049493813E-06	0.915926144026611	-0.381866190830397
2.9	-0.651504316792476	-0.753525385143264	-5.4980571225839E-06	6.01759840138945E-06	-9.19457085336916E-06	-2.80266992686105E-07	0.860750421761139	-0.493365582556806
3	-0.708519357487262	-0.700384290618481	4.7205830381116E-07	-1.47308201041462E-06	1.13253885196457E-05	1.46057300660164E-06	0.792041371461322	-0.597561527376599
3.1	-0.761453760077557	-0.643037358009388	2.40772958125105E-06	1.04957512808836E-05	4.32563196006304E-06	2.17311428089768E-06	0.711015364332538	-0.691587148943562
3.2	-0.809344717867738	-0.581810166551989	2.10575097111768E-06	6.46511353268178E-06	3.99805556739197E-06	-1.06056042713278E-05	0.619141098686927	-0.774954832106981
3.3	-0.852363652155178	-0.517207735152716	3.08230015931942E-06	4.96107223873133E-06	-2.22619174747646E-06	-9.66782865850763E-06	0.516439585654663	-0.846775438115865
3.4	-0.889504679023368	-0.449763882121379	2.12511818764764E-06	-2.60446960559803E-06	5.9585518874759E-06	1.381941920995E-06	0.407010097935728	-0.904904391260862
3.5	-0.922175833203181	-0.378041948575815	-3.24017579256062E-06	9.48513968356671E-07	-2.07186742438675E-06	3.42536593631792E-06	0.289890662960378	-0.949382782007
3.6	-0.948713857833361	-0.304291268715858	-1.81599780791187E-06	-3.74268027184569E-06	-7.82082861059142E-06	4.11301166221099E-06	0.168038991794394	-0.978113297703148
3.7	-0.969344195903161	-0.229350068408409	8.16040363299717E-07	-8.32781725141515E-06	1.07714702563407E-05	3.68909770766076E-06	0.0434428075360194	-0.991338019108317
3.8	-0.98436142001861	-0.152165441171054	9.31740631581755E-08	1.54691320894419E-06	-6.515059405882E-06	5.95674554050397E-06	-0.0811385007982737	-0.988941543547926
3.9	-0.992966468913968	-0.0746316201206964	-2.6321692166358E-06	-5.02650135510232E-06	-3.6976120636823E-06	8.02990007887516E-06	-0.206340810472672	-0.971127365749197
4	-0.995689624655208	0.00413506444673842	7.12928233975495E-06	-3.88225342700218E-07	-1.04605651988096E-06	-1.20482359358328E-06	-0.326649059960471	-0.937647032636132
4.1	-0.99254208413062	0.0823913811269565	6.19398268599497E-07	-4.44365177401885E-07	7.35029886387831E-06	-4.76188353958736E-06	-0.442342198662697	-0.88902938247925
4.2	-0.983260631787416	0.160505872669317	3.20759298132631E-06	2.10149627828561E-06	-7.19103986174475E-07	-7.61743764260091E-07	-0.550754549726088	-0.825893006841225
4.3	-0.967948365997581	0.236767751617933	-3.19015639734064E-06	1.37517941951806E-06	-4.996955318826E-06	2.98672591799719E-06	-0.650142381411432	-0.750485827380808
4.4	-0.946440711915772	0.31178324986516	8.06755177323443E-07	2.64337430763494E-06	1.54769454536301E-06	-8.33878755348876E-06	-0.739280744707426	-0.662947106916739
4.5	-0.918880786239237	0.384576527264229	1.82356301019063E-06	-9.41151367006616E-07	7.6330959521249E-06	-2.60820189119447E-07	-0.816952381908848	-0.564874281985017
4.6	-0.886052947177361	0.455914646764746	-7.28718372148189E-07	6.13243111490554E-06	-1.23494483393073E-05	-6.48647720470554E-06	-0.881397261361372	-0.457640513819817
4.7	-0.847722358598197	0.523439724659979	1.20209158154319E-06	2.51267971503243E-06	1.42174950873168E-06	1.86772757238365E-06	-0.932194936444278	-0.343357118483881
4.8	-0.80330662245739	0.588969806659085	-5.18413841155461E-06	1.11352618625985E-05	5.2344592480781E-06	9.69871919030586E-06	-0.967799322940684	-0.223039519672271
4.9	-0.754157933974165	0.649941685481571	1.19823277446549E-06	2.93404664743414E-06	-4.80129020194437E-07	-6.91802879496372E-06	-0.98779532472293	-0.0990580192303307
5	-0.70090291581068	0.70697827432182	4.7463994988695E-06	-9.06983702865401E-07	-3.74824788928032E-06	2.42272217061812E-06	-0.992137817937452	0.0259019848379915
5.1	-0.642401095124921	0.760381023121744	4.13914703757312E-06	-1.39137185838274E-07	-2.65415905849191E-06	-9.82665120224255E-06	-0.981137570424047	0.150866346796161
5.2	-0.580143935332024	0.808749832689651	2.63100467559799E-06	-1.50092010335186E-05	1.37863150089233E-06	2.82627635105284E-06	-0.954235582061727	0.273450907146874
5.3	-0.514602054559392	0.852139246186053	-8.72259787778722E-06	-7.85761526327172E-07	-1.136570093116E-06	1.58875454989905E-07	-0.912238798362122	0.391650433479559
5.4	-0.445949429890082	0.890337892085038	-7.193695702168E-06	-1.10735616510349E-05	-1.37574277912694E-05	1.12100136319946E-05	-0.855487827024366	0.503349554836176
5.5	-0.374613533767386	0.922584913678346	1.90682925274477E-06	8.85055318010018E-08	-2.2467732112889E-06	1.78641431673675E-06	-0.785812166360838	0.606863994011848
5.6	-0.300935861722912	0.948961373218487	-2.41042049482371E-06	3.51783516446087E-06	-1.34289534809566E-06	1.29073194278808E-06	-0.703277341493611	0.700665269012257
5.7	-0.225199141044739	0.96985285208129	1.30746201410906E-06	1.23271490061162E-06	5.76834299920297E-06	-1.19106132455324E-07	-0.609863602051643	0.783246600697767
5.8	-0.148010979122202	0.984222100551271	2.70613093283176E-06	4.26401391409904E-06	-2.11436926807444E-06	4.24739968236543E-06	-0.506650514768029	0.853333780644698
5.9	-0.0699053421349714	0.992698961582756	-6.89864431771669E-06	-2.30230474963728E-06	-7.52423537781417E-08	6.30012697092805E-06	-0.395812127954635	0.910072672102002
6	0.00850711010211949	0.994253864147719	-1.79515071546144E-06	9.26147312813069E-08	-5.47784807103792E-06	-4.38889245110322E-06	-0.27844537358987	0.95203806903305
6.1	0.0859087584971581	0.989779147602506	2.90651282750565E-08	-9.92097484101748E-06	-9.88141945109905E-07	-3.21559064512183E-06	-0.15740092166143	0.978825414610561
6.2	0.163563563190714	0.97958439581464	-1.01876179322713E-06	3.11399496266384E-06	-1.75485306390511E-06	4.21660575334045E-06	-0.0331738082405161	0.990349099606503
6.3	0.240611082827097	0.963438803712909	-8.02648051775856E-07	2.83068519499443E-06	-2.93542753246523E-06	2.39795964048518E-06	0.0915085908185101	0.986292180777799
6.4	0.316477651575866	0.941112959153658	-5.96215469961031E-06	5.54989723993982E-06	-2.38204246891906E-06	-7.46872838059493E-07	0.215172623053265	0.966569088688923
6.5	0.389828500620492	0.912945213197456	1.40127615371243E-06	-5.27394185566206E-06	-1.44873095473504E-06	-2.37504919121086E-06	0.334525086332036	0.931223295222525
6.6	0.461087211817543	0.879703504928751	3.65522595101538E-06	2.10521460925482E-07	1.1309810991142E-05	-2.6774290100847E-06	0.448930499711082	0.882166915200237
6.7	0.529548505950351	0.84025572262154	-7.76923271964043E-07	8.47820298391369E-07	-3.77381985162622E-06	5.23355889766964E-06	0.555912156839367	0.818768579243279
6.8	0.594549161353664	0.795594145545544	-1.75720963070127E-06	4.4916551762648E-06	1.45518093033107E-06	-8.84009508543515E-07	0.653989708125006	0.74260341979399
6.9	0.655798790794379	0.74592349417538	5.92648781596727E-06	2.25221616319163E-06	-9.32759295812049E-07	2.41844077180311E-06	0.741733731863516	0.654751132566449
7	0.712748101000947	0.691223292125455	1.14128253049749E-06	-4.15686319581203E-06	-1.42968227862816E-06	2.92204406618593E-06	0.817596061484706	0.556387991772522
7.1	0.764987730418104	0.632648715893133	2.40085662252141E-07	-7.18797316866843E-07	1.97753190743664E-06	9.19515142104959E-06	0.880406536186096	0.449739726657891
7.2	0.812583031595749	0.569776989188245	1.38611199210942E-06	-2.41541862131064E-06	-1.01274670828159E-06	-8.57140788758539E-06	0.929470843490267	0.336203924257613
7.3	0.854936091222538	0.503083663265207	4.83889406878814E-06	7.23006094434166E-06	-9.720475427071E-06	2.33491588490223E-06	0.963699046995183	0.21727546883847
7.4	0.8923654173539	0.433245896152337	5.09675165418312E-06	-6.8090357509708E-07	1.94432768628594E-06	-9.63854325888486E-06	0.983263260012107	0.0948643563787955
7.5	0.924538363987141	0.360034211410976	2.75027480317233E-06	-5.30893889891878E-06	2.10189630567252E-06	-7.28076178885756E-06	0.987538721383297	-0.0298217555954306
7.6	0.950338458927054	0.284237501481299	-3.13027941698404E-07	-5.64135514839938E-06	1.67840686980799E-05	3.87408416317686E-06	0.975399950024968	-0.153944580584273
7.7	0.970219118360546	0.206734934336554	3.52108485819282E-06	1.1096337629431E-07	3.2421199397379E-07	-2.92758999052933E-06	0.948262808158583	-0.275453272728222
7.8	0.983825199479893	0.127804297409461	-1.09887681830116E-05	-1.91880580788554E-06	-2.02375061878583E-07	3.44229897612362E-06	0.906191041105254	-0.392718270404364
7.9	0.991014445240002	0.0476061444337568	2.36080401628652E-06	2.03094091117251E-06	-6.95544597416067E-06	-4.71024388928441E-06	0.849722305057163	-0.504048985994208
8	0.990604185906477	-0.032976119443357	2.35759017859158E-06	2.94776587417673E-06	-9.34966100317521E-06	-7.57594813147907E-06	0.778532233989945	-0.607081368617293
8.1	0.984139508939547	-0.11159927487223	3.81799718359279E-06	-3.06989731613335E-06	2.14031945541658E-06	-3.18281671884326E-06	0.696441812475489	-0.698856437194073
8.2	0.972123120564854	-0.189735076612664	-4.02987307509333E-06	1.41731018547011E-06	-6.74485735826924E-06	3.65060971607834E-07	0.604018100697378	-0.780603588270854
8.3	0.953421989945453	-0.267190331964661	9.85341419653435E-06	2.91190645747441E-07	6.24221947211995E-06	1.04350714400756E-05	0.501635837604829	-0.850215486138866
8.4	0.928389521413037	-0.342988682004495	1.28374751311501E-06	2.55407590379103E-06	3.457303622129E-06	1.82096174543795E-06	0.391279857064132	-0.906722476852888
8.5	0.897257302487486	-0.416764616656798	-4.84223339964047E-06	4.96085029735476E-06	2.85352017114124E-06	-3.02071426210267E-06	0.273898218603756	-0.948801535598507
8.6	0.860275568875533	-0.487713369499208	-4.4983173815755E-06	2.0892348529024E-06	-3.03547260708544E-06	8.11931737776131E-06	0.152713539744774	-0.975573894999374
8.7	0.817734054821979	-0.555567149982855	-1.02080137491392E-06	1.21663330370148E-06	-6.42993765550243E-07	3.46392956615346E-06	0.0289633210445444	-0.987172725809125
8.8	0.769827446194313	-0.619579370940003	-1.58346475078006E-06	3.07979726738783E-06	-6.00774501669437E-06	1.28751527399326E-06	-0.0949765033742925	-0.983335681443079
8.9	0.71726355683516	-0.679460884276899	3.17273553746091E-06	-1.83184916716017E-06	-3.16417994080097E-06	-4.56112509206952E-07	-0.217575485822537	-0.963655788672401
9	0.659964585724262	-0.735080760277933	-7.28497081218699E-06	1.34710702250505E-06	-3.97686046554027E-06	7.23003981836126E-07	-0.336809137349193	-0.929899273995409
9.1	0.598277615687118	-0.785837838284103	-3.35389892250146E-06	-1.88503151270469E-06	-9.84992686715728E-07	2.13441625554613E-06	-0.451982378868827	-0.880558424368162
9.2	0.532386601751994	-0.831395638669802	5.98686882778073E-06	-1.63655345212919E-06	1.98114139080929E-06	8.48287909054182E-06	-0.559566147337778	-0.817388442596787
9.3	0.463070058027864	-0.871505782950206	-3.40204542736218E-07	1.07088427209992E-06	1.36663383445062E-05	1.18454817326464E-05	-0.658512278494971	-0.740542940104298
9.4	0.390540017560281	-0.90580469966319	1.73553591177647E-06	-2.66305736088096E-06	4.29058108558619E-06	1.76350857486284E-06	-0.746303221590065	-0.651977180748297
9.5	0.314068893654116	-0.934328937043549	-6.51626240709001E-06	-4.89563449018869E-06	-1.94893025589348E-06	-5.71224011760962E-06	-0.823514983684518	-0.552077215171896
9.6	0.235056896703151	-0.954827825771406	-1.16867383434972E-05	-2.58605861113273E-07	-5.92818940333081E-06	-4.01464858403882E-06	-0.885857964272013	-0.443183903386877
9.7	0.155522407897618	-0.969125100279437	1.4684784853619E-06	-4.78294031071624E-07	-2.91875359994977E-06	1.64172481942023E-06	-0.934572819712743	-0.327969788869927
9.8	0.0751120103126552	-0.976934180220614	2.20677821658941E-06	1.4015335541595E-06	1.51093427864954E-05	-3.50265750510425E-06	-0.968317715747683	-0.207641582096868
9.9	-0.00575060981619345	-0.977855214484223	-3.46308853679596E-06	8.97558857326523E-06	1.37652455068805E-05	4.99250346406887E-06	-0.987029608541212	-0.083761956823547
10	-0.0858005493265782	-0.971286477276104	-3.64432760462508E-06	1.61861471156948E-06	1.92492536444886E-05	-1.81503591654016E-05	-0.989797280952979	0.0416404785664692
10.1	-0.164011649259462	-0.958294397530482	-1.481539766835E-06	2.30433145007477E-06	-8.42835510771399E-06	-4.31765594659613E-06	-0.976815701102566	0.166615566534269
10.2	-0.240673187570069	-0.939272362234983	-2.31218709105101E-06	-1.24241520601587E-06	-1.29343832397347E-05	7.23728284186635E-06	-0.947638435382805	0.288889242961441
10.3	-0.314437528596825	-0.913775421432581	5.77270931136252E-06	3.92854213651808E-06	-6.15566859278312E-06	1.38193942581328E-06	-0.903489739650217	0.406020663154503
10.4	-0.385467921287979	-0.882969489885912	2.10305822938433E-06	1.04616441224229E-06	6.99285493402394E-07	-8.22560625662786E-06	-0.844342920554629	0.516069951331255
10.5	-0.453471077920244	-0.84582904239921	4.3619726627106E-07	-3.05706216364429E-07	-6.56571557974583E-07	-5.62407709865511E-06	-0.77278140652833	0.616539108256297
10.6	-0.516540082448209	-0.803262182605629	5.08137687087499E-06	-2.60093235815612E-06	-9.73280077074201E-06	-7.86920022878908E-06	-0.689746466310654	0.708469538195585
10.7	-0.575240029852398	-0.756439349037416	-2.8096937075981E-06	-5.0221141722319E-07	-5.21529367473433E-06	-7.15796679659655E-06	-0.595695175270948	0.789234327822196
10.8	-0.629402942441132	-0.706527488585161	-3.60727609280784E-06	-3.43874112025287E-06	-1.19457583358297E-05	9.12521069573402E-06	-0.492013918521919	0.857500838972191
10.9	-0.679395985585667	-0.6544623497021	-1.13546516722979E-05	-1.04064121272711E-05	-4.47242159528868E-06	1.0934975696443E-05	-0.381071782475709	0.912029089575677
11	-0.726347373268164	-0.60136462229205	1.0084126835676E-06	1.40929193012337E-06	8.66182732039906E-06	-5.48491132341833E-06	-0.263875766699625	0.952908982650667
11.1	-0.770747383946704	-0.543970356155372	-3.25152974654389E-07	-3.63079224723881E-06	1.0182444094287E-05	-1.01919473201718E-05	-0.141641971051261	0.978306879621545
11.2	-0.81107737469151	-0.484011605340153	-1.03003452975343E-06	-3.91160463458312E-06	2.16229448211792E-06	-6.30701004129782E-06	-0.0169440192384663	0.987728850738641
11.3	-0.847847782569056	-0.420648114811662	1.63898326677074E-06	-1.20374552365673E-05	3.56527735041125E-06	-2.81895138648518E-06	0.107728224541233	0.981421115207392
11.4	-0.879789974836995	-0.354556063774474	9.86588643241368E-07	1.87722957018179E-08	-5.69052946479579E-06	6.45888705953091E-06	0.231103566401437	0.959700413106323
11.5	-0.907817210164178	-0.285090113996061	6.54606639800007E-06	-1.24111688568872E-06	8.23774551218333E-06	-3.13039813935682E-07	0.34988888560278	0.92231133343796
11.6	-0.929404881804263	-0.212856100396395	-6.39085657996974E-07	-5.32504246085866E-06	1.43696606380619E-06	-3.07899721224894E-06	0.463556367873312	0.870400184097175
11.7	-0.944948426710551	-0.138240086511722	-9.36890935630508E-08	-6.04261666749246E-06	8.91857396131309E-07	-2.65598348761241E-06	0.56960610052558	0.804501149328786
11.8	-0.95462511182169	-0.0616413930011025	-1.07037984229617E-06	-7.40483389645327E-07	5.161365544899E-06	1.07856013643945E-06	0.666733552787181	0.725978391840494
11.9	-0.958042418327364	0.0164648349158811	-3.2153666922517E-06	-5.20633967249666E-06	-5.38517549596806E-06	-8.00654334897282E-06	0.753030351231688	0.636181360875015
12	-0.955361906174179	0.0949474509468572	-2.94327943498585E-06	1.64329226122907E-06	-1.67314917974671E-05	-8.73990916027456E-06	0.826092697558009	0.535456820110294
12.1	-0.946432153069945	0.173298666324258	8.24978611938639E-07	-1.56666942733234E-06	7.8555217529409E-06	1.2269501511503E-05	0.885714319905685	0.427913835477748
12.2	-0.930059829503998	0.251689107156011	-4.10355135025575E-06	5.5481370138632E-06	4.16041600856552E-07	3.311335076775E-06	0.93246333745527	0.313408291252687
12.3	-0.907471170272076	0.328489271027306	7.83544767930242E-06	6.3831310037725E-06	4.2485551958172E-07	1.08906574010975E-05	0.964204983072273	0.193207594239741
