# GHZ S RI R 50
0.2	0.000496175415281552	0.00358799902930819	6.30688342069197E-06	-1.0065799336025E-06	1.06686812614829E-05	1.04995947959879E-05	0.999699792697042	-0.00691933766863568
0.3	0.00114957919512557	0.00326906817374485	5.81774829031099E-06	5.03902320224181E-06	8.09806982460159E-06	2.95500524185877E-06	0.999536157267247	-0.00984077090431038
0.4	0.00164153107643748	0.00315848284176679	-2.71002203507919E-06	7.87251298882625E-06	-4.81114449258615E-07	-4.43245956336264E-06	0.999612833060187	-0.0124971240661305
0.5	0.0020190302847037	0.00308865101642889	2.30896528338011E-06	1.4793840597703E-06	7.51373157229176E-06	-1.05383963934341E-06	0.999365745074138	-0.0157102368313964
0.6	0.00233755577169622	0.00309559304051516	3.2236883346049E-07	3.54081554652496E-06	2.73275845018611E-07	-7.66322426512054E-06	0.9994083860474	-0.0185551089678373
0.7	0.00256585251535235	0.00313772614450704	4.16814196899033E-06	5.04286735280556E-07	-3.89678694394642E-06	-3.46158432874179E-09	0.999112905171948	-0.0215119236082363
0.8	0.00285698456899211	0.00320330390528982	-2.88902780229486E-06	2.96582468907208E-06	-6.82474107280096E-06	1.3210624837106E-06	0.998908011341113	-0.0237104918201544
0.9	0.00307421021195111	0.00325139965890639	6.03988996151375E-06	8.9882505206151E-07	-7.34548915725501E-06	-1.83246540882597E-06	0.998768008152854	-0.0261108730098115
1	0.00329515976969791	0.0032618873381601	2.36171464144517E-06	2.94517177840948E-06	-9.04768237741836E-06	-2.58825404174037E-07	0.998504471722405	-0.0277666870083814
1.1	0.00339184730246291	0.00319986687415842	6.44152302686006E-07	3.55813978282968E-08	-5.30278613926135E-06	1.40369419996604E-06	0.998140304928678	-0.0297498333037041
1.2	0.00337756523802072	0.00285802464127667	-5.2956051287915E-06	-3.29042264452843E-06	-1.11881620255227E-05	-1.26606379003649E-05	0.997566216223924	-0.0307065722286638
1.3	0.0030291047373152	0.00217904475466868	3.05101345399929E-06	3.10425068117005E-06	6.95972579946302E-06	-4.08628541669873E-06	0.997711385945913	-0.0316016840173944
1.4	0.00255835924976133	0.00145807692322637	-2.80002567009207E-06	-1.11365142774928E-06	5.71457705675821E-06	6.18962503517504E-08	0.997522174746196	-0.0336533673607591
1.5	0.00238430885412896	0.00116488165425283	1.24074813948062E-06	-2.53474040929761E-06	8.02420834350851E-07	2.51303237351055E-06	0.998126741622414	-0.037065640240349
1.6	0.00246172556555541	0.00122670606622575	-9.34753675320038E-07	-6.41901009002673E-06	3.1865594582262E-06	-4.24657717843254E-06	0.997717456076506	-0.0405685110044553
1.7	0.0027213019708222	0.00136396590455778	3.40764622875102E-06	6.32802540392775E-07	2.23712561178109E-06	3.85418081368187E-06	0.997965357510277	-0.0431359894788894
1.8	0.00296051719603035	0.00155797945280865	-2.37812132108133E-06	2.90005718206239E-06	-1.01593348780396E-06	-3.99960736193013E-06	0.997818848717778	-0.0458852230018669
1.9	0.00320030925150765	0.00160775256779866	-3.73473272730615E-06	-1.7602363101843E-06	5.63334244097907E-06	3.02779537662148E-06	0.997716771989684	-0.0481378331987554
2	0.00339993334266074	0.00164079892971887	-6.18213149907043E-06	-5.75348237079525E-06	-2.07863414078481E-06	9.1611498901999E-06	0.997277834927376	-0.0509041004126437
2.1	0.00351218740547532	0.00156865610706863	1.17420677784765E-06	4.60866472733894E-06	4.48688010472101E-06	3.9924949732434E-06	0.996965262711295	-0.0531932369218793
2.2	0.00352724873155719	0.00153297619314177	6.5700840286237E-07	9.07260997608726E-07	-3.63496779107397E-06	-1.09450872966988E-05	0.996980027417506	-0.0555733655758489
2.3	0.00347017962798461	0.00144656411388691	-2.28565412646519E-06	3.56361630752836E-06	-5.36522466313461E-07	-2.79805296992428E-06	0.996649372687101	-0.0574384144750591
2.4	0.00330628581796119	0.0014030616852352	-1.55856813434503E-06	-1.45618067406259E-06	1.28478089505446E-06	-1.00009348598555E-06	0.996581848837733	-0.0605336807291775
2.5	0.00306257823855588	0.00142637936722706	7.79627722415071E-06	4.05916162474799E-06	-2.35291306406287E-06	-7.23297314086654E-06	0.996211483726701	-0.06278309258742
2.6	0.00288308133118148	0.0015970613529255	4.88393703049233E-07	2.11883381480605E-06	-1.46573047861843E-06	4.69068211434736E-06	0.99614460435138	-0.0656275568325512
2.7	0.00286994683990139	0.00183394352617012	-7.86980519924963E-06	5.25059668974394E-06	2.54205977376552E-06	9.72753840180593E-06	0.995840829123433	-0.0686375284223488
2.8	0.00306765098008521	0.00210163893160111	-7.74478763872188E-06	7.96842335023491E-06	6.03622810579991E-06	1.99305390306862E-05	0.995933024948975	-0.0706548516489987
2.9	0.00345470978134563	0.00221031918103794	-1.1902009102134E-06	8.61810192300448E-07	-8.12927934846224E-06	-2.95759561613091E-06	0.995681544275482	-0.0727147017915369
3	0.00390675215080907	0.00221482254981632	-6.15062097949251E-07	-4.47573001631919E-06	-2.18019511183762E-06	6.44683398225738E-06	0.995573675565255	-0.0752414214383287
3.1	0.00434363980041189	0.00204859438645274	-2.59059761930916E-06	9.18423721877852E-08	1.10220314490823E-05	-3.54103050994689E-06	0.995178322384684	-0.0772635790264725
3.2	0.0046356667548018	0.00181072553796834	-9.80364205512587E-06	2.55992751870738E-06	1.21760961424197E-05	4.25340439920816E-06	0.994960565963696	-0.0790279857127358
3.3	0.00481342517386978	0.00145645967720801	-3.4693386919699E-06	9.37978178693922E-07	-5.01366858877673E-06	-1.37752140003148E-07	0.994755114380338	-0.0822832654665096
3.4	0.00481688901574149	0.00114299946979696	5.35058892196271E-06	4.80902497998852E-07	1.35011651427322E-06	4.45483099141882E-07	0.99468039268404	-0.0842869006515693
3.5	0.0047330793351079	0.000843800067640993	2.77202686260729E-06	1.55557730959664E-06	1.31413975730572E-06	7.91201396042748E-07	0.994505048367782	-0.0870989301160058
3.6	0.00454664833368985	0.000667428246787727	-7.1512681072333E-06	-1.23884662044062E-07	1.86100404884945E-06	-3.50123519360578E-06	0.994181077171142	-0.0896433589366218
3.7	0.00435359544636506	0.0005811891628157	5.776955811097E-06	-1.52069230036491E-06	-3.2752116214738E-07	-1.73273585122579E-06	0.993954558137728	-0.0923289398245703
3.8	0.00425471383528136	0.000600244304686346	-2.0016902992768E-06	8.79823605430037E-07	-5.1947225516702E-06	3.05728266729726E-07	0.993573883278195	-0.0943422381076763
3.9	0.00427121384933546	0.000644892522316759	-8.36636741580668E-06	1.7923890665493E-06	-4.12103474007005E-06	-1.4945659376761E-06	0.993520711513753	-0.0974312740327569
4	0.004382911492675	0.00064101342888137	-5.82733094423581E-06	3.75988358048041E-07	-9.51412159524843E-06	-8.44107505115677E-06	0.993196894268736	-0.0988614715583142
4.1	0.00453048212375338	0.000568368570821828	-3.98250075134078E-06	4.07250326593171E-06	-1.87332206856656E-06	5.58564764196097E-06	0.993022093630503	-0.100684053376749
4.2	0.00466056360412913	0.000394709409309132	4.61536719218327E-06	-4.39265160081788E-06	6.75671488662532E-06	7.45516434221304E-07	0.992540546590284	-0.103320740245918
4.3	0.00472180264303857	0.000182417715678594	-3.79527531623339E-06	1.13258508216703E-06	3.54806301280959E-06	-1.21149865865625E-06	0.992423881844775	-0.105372389863666
4.4	0.00465084375703371	-4.9189415697112E-05	-3.15600044289286E-06	-4.93141572626184E-06	9.28690751871967E-07	-1.03773686059049E-06	0.991984006761114	-0.10767869681972
4.5	0.00446915565762662	-0.000208004993540756	-1.38858475639513E-06	2.03201468703469E-06	2.13225610632244E-06	-8.47623230633355E-06	0.991932352748028	-0.10982246257181
4.6	0.0042047838453106	-0.000320316092145182	5.40499676042E-06	9.58955977327607E-06	-1.41906741730136E-05	9.8281024868784E-06	0.991714000089637	-0.112672447586479
4.7	0.00397637476009964	-0.000332596781254623	-7.60038738501093E-06	-9.55614888558947E-06	-1.14529632599764E-06	-1.3395146080714E-07	0.991594718658823	-0.114759340602498
4.8	0.00379824841555089	-0.000248845024015306	-8.74594703204855E-06	-2.68152935495711E-06	-4.37637335907937E-06	4.54678023574078E-06	0.991131243996592	-0.117313104583787
4.9	0.00379266124505751	-0.0001529845938718	5.77849212137069E-06	8.31237962114392E-06	-7.25386200817764E-06	3.28504937733234E-06	0.990714892038784	-0.119123659930251
5	0.00395190230273109	-0.00019023981572536	4.27506509769134E-06	-8.54597929319941E-06	-4.29625531166477E-06	-6.17832280040791E-06	0.990615965589481	-0.12072311386544
5.1	0.00421016933510863	-0.000322399485332498	1.52196283051479E-05	-1.02557037036352E-05	3.48600237994519E-06	-8.7290545509968E-06	0.990641379385052	-0.122123421296041
5.2	0.00444926386315001	-0.000618345470317503	-4.23615814245133E-06	-4.71582925124117E-06	-3.16456089639533E-06	5.25442467001151E-07	0.990399435595077	-0.12440920685021
5.3	0.0045824853891602	-0.00098885775600931	4.77907295299805E-06	3.37326093438374E-06	-9.29916635887769E-06	-4.74379605485602E-06	0.990170820465888	-0.126737969817833
5.4	0.0045518068237636	-0.00135620107192657	5.18042220459092E-06	1.19904572922652E-06	-4.72806522519259E-07	1.04562195523476E-05	0.990166360731286	-0.129557203069349
5.5	0.00433658646549648	-0.00162033861315379	-1.8125486289624E-06	-1.98065064619171E-06	8.88191116332526E-06	5.07800090153717E-07	0.989947898761948	-0.132439269534322
5.6	0.00405667047335848	-0.00178103435923605	4.24575540472266E-06	7.227909236896E-06	-4.65748044100813E-07	-8.61208926532125E-06	0.989635952401318	-0.13501233877785
5.7	0.00367498317403128	-0.00182366185383201	2.05531167998133E-06	-7.22066597917446E-07	5.47132999155897E-06	2.45376628267122E-06	0.989363942211485	-0.137537439181267
5.8	0.0032799462963841	-0.00174976081999828	3.91235203322714E-06	1.96025664671122E-06	2.73316567388109E-06	7.83341985897898E-06	0.989209687470706	-0.139765611517049
5.9	0.002895524606664	-0.00153445948278815	-3.78312398352389E-06	-3.05679725094521E-06	-4.6993526197394E-06	-1.77930110161865E-06	0.988888185977717	-0.142041158274179
6	0.00252395884888602	-0.00131386047263472	-2.07674991627096E-06	1.70414706605116E-06	1.04313328723119E-05	-2.66054808181205E-06	0.988478026480284	-0.143790686909984
6.1	0.00222385558423388	-0.00107272341441757	-7.3275871693963E-06	-1.10454162260955E-06	-7.25243822972181E-07	-2.48363913581323E-06	0.988361674491403	-0.145087362476935
6.2	0.00195316740006329	-0.000934454086529248	-1.06148267961155E-06	1.98899092597896E-06	-3.48332476867396E-06	-5.36208671362667E-06	0.98799797063314	-0.146513102990097
6.3	0.00176881605668822	-0.000895711468798312	1.57769692011049E-06	2.82985274561909E-06	1.14778051458663E-06	5.97129265564278E-06	0.987599922284904	-0.148504891731512
6.4	0.00154776758420916	-0.00098837172751354	2.06970838317382E-06	5.03493201968549E-06	-3.33160272263509E-07	2.27283315432048E-07	0.987123893416957	-0.150654734525534
6.5	0.00132750021578878	-0.00107887769564105	4.66661682412316E-06	-1.87793531892387E-06	-4.68849238907713E-06	-1.54793278875173E-06	0.98686942508211	-0.153278838126174
6.6	0.00109141047771224	-0.00106968735978015	3.25863841594423E-07	-1.06865436845522E-06	9.2938313404224E-06	3.33766992436596E-06	0.986678801208836	-0.155908797690064
6.7	0.000873770387066695	-0.00092799617967627	5.2762103984547E-07	5.61114525099117E-06	-1.79076537250948E-06	4.97206814836874E-06	0.986423230652937	-0.15833417028639
6.8	0.000661921062630029	-0.000675263915647003	1.76357699548152E-07	-1.58618972135576E-06	-3.47452681787198E-06	-5.12030077720858E-06	0.985950336258006	-0.160652303596486
6.9	0.000470933909964342	-0.000348915419798218	-6.64619306867429E-06	6.71506028440926E-06	2.28668551320932E-06	1.35480241065656E-06	0.985599197810292	-0.162764374015529
7	0.000348440390660373	3.90210395591637E-05	8.07742417453632E-06	3.16786309397819E-06	4.56505953804823E-06	5.86441028181734E-06	0.985011822425149	-0.16458693868756
7.1	0.000197868230721044	0.000434861493643476	1.39531265809059E-06	7.84240555991999E-07	-2.27004825893424E-06	-4.47673911022792E-06	0.984510679051859	-0.166250548853677
7.2	6.63722221410599E-05	0.00084832987503269	-1.38691568052446E-07	4.39655977521599E-06	-5.00955043810907E-06	-6.61455177889351E-07	0.983855362747189	-0.167991554041093
7.3	-0.000131676122820062	0.00128296394404482	1.35505349226905E-06	-5.26121139203846E-06	-2.34552133567353E-06	-2.79008127030494E-06	0.982871699798693	-0.169708365166406
7.4	-0.000417887628859752	0.00172367795389811	1.83357076669843E-06	4.42073484122655E-06	-7.27044553961803E-07	-1.06929735504696E-06	0.98197222115684	-0.171921000838494
7.5	-0.00071430802286229	0.00222678764451896	-5.73835360775427E-06	-1.49294329132324E-06	-1.57399803776902E-06	-8.89748122847109E-06	0.981176689446613	-0.174335338984769
7.6	-0.000879464785437333	0.00275390687942443	5.62379385415576E-06	-3.38333443992992E-06	1.02093769317148E-06	3.1898216296775E-06	0.980567727874242	-0.177254989476183
7.7	-0.00101686758609528	0.0032209410857444	-6.50157602820421E-06	-2.86344949658385E-06	4.3745657625143E-06	5.67054215539346E-06	0.980159256601835	-0.180435620718048
7.8	-0.000854104377078395	0.00355747239732635	-1.08260211058749E-06	-5.35545429084238E-06	-2.13408097750304E-07	1.14329838495679E-06	0.979915181740591	-0.183620453577256
7.9	-0.00049610045511916	0.00376059679467332	-3.34730428994878E-06	7.20873960956055E-06	4.71804199096589E-07	-6.87920415774439E-06	0.97977404658919	-0.18682003218563
8	-6.15406327363486E-05	0.00385987587892295	-2.34088848274662E-07	7.38405700560392E-06	1.77235980765425E-06	-4.45685960180057E-06	0.979360837248802	-0.189841214731268
8.1	0.000347289435209546	0.00394831981643444	-7.37553781655599E-07	-6.46785575311282E-06	-1.748391605747E-06	-1.06382454919095E-06	0.978823872162673	-0.192504706897027
8.2	0.000693838311728379	0.00402952881175375	-3.82822102751079E-06	1.65203734405204E-06	-1.09722114470067E-05	-2.61714934327428E-06	0.978538375133652	-0.194915416910745
8.3	0.000974261882507778	0.00414137793339088	-5.54868469845086E-06	-9.86317228918718E-06	-7.78945739760071E-06	3.02057407766153E-06	0.977946103430408	-0.197605145561013
8.4	0.00119657124481802	0.00438154407772946	6.77260686132641E-07	-6.10316865193129E-07	-1.41663033185526E-06	4.40734751079458E-07	0.97722942026708	-0.200236843691443
8.5	0.00144301173321917	0.00467399907705877	-1.75297251690359E-06	-2.57112734897278E-07	-7.82614576497124E-09	1.804149531366E-06	0.976529198047304	-0.202996359864053
8.6	0.00173782487128829	0.00503857196225773	2.42778799350255E-06	-3.9734119137775E-06	-4.56529747525962E-06	-5.92374481630753E-06	0.976036350641234	-0.205587491874232
8.7	0.00215210379784177	0.00539603891836163	-1.49918880129627E-06	-2.09483602847937E-06	-3.55871914666775E-06	3.6388532499471E-06	0.975641099186384	-0.208159935506143
8.8	0.00269419006420887	0.00573289947642477	-5.49894516032233E-06	-2.12108348249378E-06	-7.23578514507945E-06	-1.26921293303849E-06	0.975246860236934	-0.210480191601231
8.9	0.00341538882112843	0.00588945255041817	8.55964886258564E-06	4.096858229233E-06	-1.41758261887855E-06	3.20109803307339E-06	0.975233487741421	-0.212539116581241
9	0.00423567347605384	0.00580350911432301	-4.99463869036581E-07	4.16303895508104E-06	-7.82136324485941E-06	1.2314885731293E-06	0.975083365848619	-0.214894860068847
9.1	0.00506596277664813	0.00545365971255801	-2.55526256604955E-06	6.63857583230749E-06	4.10535264463897E-06	-3.08391238864088E-06	0.974781263255702	-0.217119205047629
9.2	0.00574535601563165	0.00490566110840873	-1.17583358388581E-06	3.42581707013037E-06	-2.24713480496393E-06	-2.057715796794E-06	0.974316705466993	-0.21970936880628
9.3	0.00623704439446266	0.00431347845726866	2.3245897192665E-06	-4.04270251914284E-06	-7.93842281645379E-07	-1.78107222670357E-06	0.973847385266692	-0.222266372602919
9.4	0.00658731588828597	0.00371923456386894	-1.79865529302961E-06	3.89759148968131E-06	-2.06976208261602E-06	-3.57997456327923E-06	0.973193572661462	-0.225158589920772
9.5	0.00676805011260566	0.00334163228106561	3.49777744823642E-06	6.29497654415983E-06	3.66012681429315E-07	-2.15042467330325E-06	0.972430380166727	-0.227979211094742
9.6	0.00687700387285769	0.00301288875073144	4.62356150764183E-06	7.07714038767603E-06	-8.22787961247544E-06	1.28063779080259E-05	0.971694672209035	-0.231051129157748
9.7	0.00696702172963528	0.00280350997067016	-2.88266728618709E-06	-1.53344899694509E-06	-1.38749277427236E-06	-3.97125862891892E-06	0.971021625868836	-0.233605613621073
9.8	0.00706877864374634	0.00265975087595645	1.29776387773062E-07	-3.59713033963061E-06	3.04648881509934E-06	2.40062660932843E-06	0.97071578326698	-0.235705132014577
9.9	0.00720000141119443	0.00264720355610469	5.80217097045831E-06	-6.14592570452559E-07	-2.56932257042716E-06	6.73040336900068E-06	0.97025270973327	-0.237595600442913
10	0.00740517836754995	0.00260642322563164	-1.14212791706098E-06	-5.7897607388203E-07	1.36466777636754E-06	-1.18726393465487E-06	0.969792244956984	-0.239242431729158
10.1	0.00771237316406032	0.00256743660855099	7.12496458030815E-07	-8.42248388643351E-06	6.15887779152453E-06	3.60811306316883E-06	0.969315014736327	-0.240843680475214
10.2	0.00814107204648871	0.00245720146175955	7.49938696819933E-06	8.32192893518444E-06	5.2276375171676E-06	3.53123423452445E-06	0.96890409396396	-0.242287795112433
10.3	0.00863261825347915	0.00221707709833496	1.75581075045789E-06	-6.95843193367372E-06	1.42679901378492E-06	2.86821891349515E-06	0.968272979809448	-0.244126056174963
10.4	0.00917653529281862	0.00182626616726304	-4.02697347078834E-06	-3.63889556387303E-06	1.9533881399236E-06	-5.5963313735217E-06	0.967441021575264	-0.246229619333669
10.5	0.00967487964344846	0.00132556094610345	3.75255414978783E-07	-7.06552767790698E-06	-5.7296953762491E-06	4.07120305404438E-06	0.966672238080209	-0.248661116236941
10.6	0.0101509589666678	0.000743160223856109	5.4887510615414E-06	6.73639553046104E-06	2.43387520063515E-06	1.19428901895692E-06	0.965960587305704	-0.251194457318039
10.7	0.0105500448826505	0.000160378391538801	-7.07758342975639E-06	-1.69029257636143E-06	-7.73291980511972E-07	1.55967976757586E-06	0.965248992786724	-0.253962986315715
10.8	0.0109483351892413	-0.000480421742828022	1.48721124864588E-06	4.44298325877003E-06	9.41453005641404E-06	-4.47045763142355E-06	0.964497116978056	-0.256020568817167
10.9	0.0112553951699086	-0.00117238995021693	3.26605447963386E-07	7.42119653067599E-06	-5.16346907738885E-06	2.08725670800227E-07	0.964146347309628	-0.257986021138266
11	0.0116196812346756	-0.00192347242506802	-2.22663393599767E-06	-3.82586793359593E-06	1.20437357029446E-05	-3.55900504722066E-06	0.963620780250661	-0.259716379550444
11.1	0.0119453139832267	-0.00277377734221919	-6.12123216345548E-06	-4.93470188104224E-06	9.51978620715685E-07	5.58014389032345E-06	0.962942978329619	-0.261381244451766
11.2	0.0122233142191073	-0.00379793095637199	3.3179567531708E-06	4.30629217598911E-06	1.06171333304222E-06	-7.88262008217154E-06	0.962157922448458	-0.263137406250767
11.3	0.0124461761467128	-0.00501124045716703	7.12340477098254E-07	-2.65968793194954E-06	-4.84066914229112E-06	9.12250117269915E-06	0.961588809978773	-0.26498282552915
11.4	0.0123550065828071	-0.00632392137759293	1.47735665928504E-06	-2.20436569036481E-06	-3.01417484100487E-06	-7.44157483776321E-06	0.960624029964107	-0.26751876567124
11.5	0.0120177787913949	-0.00767843659870492	9.48313869301354E-07	-1.01073540353188E-06	-9.02702805404978E-07	-8.71799365004434E-07	0.95954829943209	-0.27024128039796
11.6	0.0115289301959466	-0.00906335503653253	1.12343455665929E-05	-3.28064798800447E-06	-5.42838934622164E-06	-6.83630020433925E-06	0.958368955977414	-0.273730215047402
11.7	0.0108397155907994	-0.010420709284139	5.33035238928982E-06	-2.90131961833877E-06	-4.41333091933501E-06	1.65484721944826E-06	0.95717588951955	-0.277198362730424
11.8	0.0100022860210545	-0.0116362296435225	-4.52111840073252E-07	-2.54951654691932E-06	1.06847421131557E-06	1.32722158809665E-05	0.956167111637337	-0.280721141662479
11.9	0.00915648775658391	-0.012736571445082	3.32747752337356E-06	1.99042035455072E-06	-1.27774347187828E-08	1.27444061043134E-05	0.95565730318384	-0.28320855900765
12	0.0080423520993786	-0.0137756820810706	2.00518489083287E-06	4.8404107580346E-07	-3.70169111098761E-06	-9.70371324738361E-07	0.954945334195396	-0.285687060022821
