# GHZ S RI R 50
0.2	0.000415886131918425	0.003647655350155	6.3075008979348E-06	-1.00643620033877E-06	1.06692686660672E-05	1.05009596499621E-05	0.999711711325599	-0.00682324484830428
0.3	0.00109111614770214	0.00335141355177569	5.81796062183598E-06	5.03976867537401E-06	8.09858924545489E-06	2.95570086503189E-06	0.999562510042225	-0.00970448528313541
0.4	0.00161032084852771	0.00325584947209564	-2.71078586500491E-06	7.87290553059641E-06	-4.80833788251191E-07	-4.43282387049463E-06	0.999657043349722	-0.0123296513641074
0.5	0.00201745535314402	0.00319240449015487	2.3089847325981E-06	1.47967543064484E-06	7.51429738818928E-06	-1.05326287571285E-06	0.999429010534384	-0.0155222716925163
0.6	0.00236497943597318	0.00319757151480607	3.22041739365088E-07	3.54103151019615E-06	2.74034395446672E-07	-7.66359735941335E-06	0.999490097083105	-0.0183575753963619
0.7	0.00261850294285128	0.00323126373387174	4.16826533261319E-06	5.04747749550001E-07	-3.89695164019872E-06	-3.87276211248588E-09	0.999210507860313	-0.0213146142667037
0.8	0.00292832155647898	0.00328584774447419	-2.88946333996452E-06	2.96561366902273E-06	-6.82513937965941E-06	1.32035425471431E-06	0.999019178704854	-0.0235188841769514
0.9	0.00315675816061499	0.00332750371438358	6.04003523209162E-06	8.99550260543305E-07	-7.34558156886546E-06	-1.83337770240521E-06	0.99889469996582	-0.0259229485230822
1	0.00338400534720132	0.00334741464820202	2.36152002233317E-06	2.94563534075049E-06	-9.04822702610982E-06	-2.59900770584575E-07	0.998660039425474	-0.0275668947112822
1.1	0.00349259272624742	0.00332800062370921	6.44225146763486E-07	3.56666312062702E-08	-5.30359904998733E-06	1.40319618248913E-06	0.99836467406983	-0.0295008004885781
1.2	0.00351903273381938	0.00307323939723817	-5.29629694980653E-06	-3.29195869303964E-06	-1.11887633013725E-05	-1.26651635405198E-05	0.997936281437469	-0.0303490930699371
1.3	0.00326238459362409	0.00249388831109644	3.0514809471201E-06	3.10595912145553E-06	6.96300933821567E-06	-4.0863552169665E-06	0.998305722053098	-0.0311017095571628
1.4	0.00289226781965731	0.00178491538696256	-2.8009228832056E-06	-1.11480287358364E-06	5.71694991512039E-06	6.33223169558905E-08	0.99828158660505	-0.0330978184605875
1.5	0.00274756520007918	0.00139372767515231	1.24185222101399E-06	-2.5353564047638E-06	8.02074283557967E-07	2.5141622473182E-06	0.99886763463906	-0.036597012193041
1.6	0.00278533146510477	0.00133468716318235	-9.33522802269297E-07	-6.42096642743238E-06	3.1884052808335E-06	-4.24699158778777E-06	0.998321378446091	-0.0402428476666082
1.7	0.00297736854010665	0.00138174346395977	3.40814909358165E-06	6.33588516483755E-07	2.23678012740111E-06	3.8553297248059E-06	0.998413585969314	-0.0429319399454084
1.8	0.003148096079436	0.00152339092589966	-2.37887289091796E-06	2.90002565542583E-06	-1.01541489082298E-06	-4.00025243100234E-06	0.998133914085937	-0.0457669207516938
1.9	0.00332812071737672	0.00154988071074777	-3.7347992045308E-06	-1.76084096307536E-06	5.63339589674836E-06	3.02873611370956E-06	0.997927244267973	-0.0480753784547244
2	0.00348032574674417	0.00157955584065623	-6.1818925391156E-06	-5.7543376657591E-06	-2.07959028285789E-06	9.16139804935638E-06	0.997411027181599	-0.0508755946551875
2.1	0.0035586048340554	0.00151692308615068	1.17394002374245E-06	4.6088823084041E-06	4.4867547888593E-06	3.99291124097804E-06	0.997045649381317	-0.0531820100103015
2.2	0.00355196077338616	0.00149653315441007	6.56984659903079E-07	9.07306484689669E-07	-3.63459357491058E-06	-1.09454601792972E-05	0.997027492469101	-0.0555709035136936
2.3	0.00348163382549285	0.00142739391454293	-2.28575322469417E-06	3.56362062317863E-06	-5.3647611669629E-07	-2.7981010062474E-06	0.996675404704991	-0.0574400398472354
2.4	0.00330858741334089	0.00140214520216517	-1.55857792074982E-06	-1.45618684971324E-06	1.28478672508838E-06	-1.00010012191233E-06	0.996589363102368	-0.0605365486734153
2.5	0.00305593122562939	0.00144680368566503	7.79630558451751E-06	4.05896031827565E-06	-2.35305262076428E-06	-7.23286603717771E-06	0.996195844137192	-0.0627842177853178
2.6	0.00286833396621443	0.00164725962720856	4.88480600425687E-07	2.11875364071111E-06	-1.46546945612275E-06	4.69062490300888E-06	0.996100276190786	-0.0656227897719627
2.7	0.00285517109933422	0.00192249293859109	-7.86900048654121E-06	5.2509551970743E-06	2.54269922499726E-06	9.72685455757302E-06	0.995771720216746	-0.068624043392131
2.8	0.00306865294180957	0.00222984336884658	-7.74334834928322E-06	7.96876524639481E-06	6.03809495778219E-06	1.99284894312308E-05	0.995858727820695	-0.0706357468445351
2.9	0.00348902251857634	0.00236717085863958	-1.18998168419216E-06	8.6192244631663E-07	-8.12910302014883E-06	-2.9561564575861E-06	0.995630136058612	-0.0727009923074396
3	0.00398468564955458	0.00238001947688435	-6.15814960312417E-07	-4.47530386058827E-06	-2.17889372227255E-06	6.44676571787018E-06	0.995568911636102	-0.0752480657553294
3.1	0.00446326818559974	0.0022001030978065	-2.59043463285934E-06	9.23448636086895E-08	1.10207207008814E-05	-3.54299211083766E-06	0.995228157724664	-0.0773027260033835
3.2	0.00479212152303854	0.00193277949187491	-9.80275408448885E-06	2.5618538395673E-06	1.21765251129682E-05	4.2507386722512E-06	0.995065283025793	-0.0791086040334124
3.3	0.00499000550649506	0.00153932315819057	-3.46908301817977E-06	9.38675926520663E-07	-5.01360669576856E-06	-1.36716913813681E-07	0.994897754359075	-0.0824045961462225
3.4	0.00499824332299625	0.00118653646194832	5.35066638472142E-06	4.79837836988319E-07	1.35020045881923E-06	4.45213357395093E-07	0.994842296116675	-0.0844415900696536
3.5	0.00490728815029121	0.000855528862835204	2.77232770830461E-06	1.5550617894987E-06	1.31429247062685E-06	7.90957172833248E-07	0.994666615095333	-0.0872752893425362
3.6	0.004707437438774	0.000659078060416699	-7.15130114507762E-06	-1.22630044111557E-07	1.86039263725362E-06	-3.50156727146333E-06	0.99432828109236	-0.0898274749348223
3.7	0.00450339621900286	0.000563007404125289	5.77665509945757E-06	-1.52163233414822E-06	-3.27804223971593E-07	-1.73266687287963E-06	0.994080949048033	-0.0925116525829149
3.8	0.00439919701083263	0.000576602789221908	-2.00150566602551E-06	8.80121942955415E-07	-5.19455760975823E-06	3.06546801373072E-07	0.99368132540068	-0.0945229264214001
3.9	0.00441494464848529	0.0006131257299306	-8.36579378168064E-06	1.79364511564774E-06	-4.12112683858912E-06	-1.49386450068108E-06	0.993614479874082	-0.0976173360646383
4	0.00452388114440677	0.000594249071655281	-5.82702912095643E-06	3.76898199239554E-07	-9.51506686941611E-06	-8.43921336856114E-06	0.993280914754515	-0.0990626557907026
4.1	0.00466104832983185	0.000502664167197519	-3.98170257979838E-06	4.07296672908308E-06	-1.87237016491062E-06	5.58571959210644E-06	0.993097497494531	-0.100902517229009
4.2	0.00477049884896142	0.000310741827887475	4.61456510745737E-06	-4.39321514002938E-06	6.75662322228489E-06	7.44474633985489E-07	0.992605050504368	-0.103552102125806
4.3	0.00480242237270466	8.76186744547947E-05	-3.79505262093414E-06	1.13309177947312E-06	3.54783365032555E-06	-1.21196971050074E-06	0.992472726849037	-0.105603764119788
4.4	0.00469918894876157	-0.000142460149513295	-3.15657033194528E-06	-4.93101736904772E-06	9.28563119428855E-07	-1.03784203703459E-06	0.992014667026997	-0.10788979321363
4.5	0.00448880401123321	-0.000287425948981466	-1.38840229221505E-06	2.0321514818943E-06	2.13148011992414E-06	-8.47646411691033E-06	0.99194586000068	-0.109994587692851
4.6	0.00420593874097203	-0.000374841757128642	5.40565420819326E-06	9.58929097055803E-06	-1.41901592564088E-05	9.82909011606744E-06	0.991716202223528	-0.112791835740646
4.7	0.00397157139763763	-0.000360424620795162	-7.60078105775984E-06	-9.55591950066295E-06	-1.14530741844964E-06	-1.33909886373316E-07	0.991591447048114	-0.114825006295169
4.8	0.00379771541192731	-0.000252818239972563	-8.74597040167558E-06	-2.68141731681504E-06	-4.37631169061424E-06	4.54682953989367E-06	0.991128630198434	-0.117330049176815
4.9	0.00380140397051146	-0.000139120368443066	5.77838506919789E-06	8.31236231255962E-06	-7.25383335832156E-06	3.28496903351545E-06	0.990717706965796	-0.119102083371043
5	0.00396821339032478	-0.000163676675685519	4.27523357833719E-06	-8.5458035930131E-06	-4.29607030463188E-06	-6.17837302525625E-06	0.99062731771511	-0.120672489568147
5.1	0.00423153641629947	-0.000282843860541745	1.52199610315639E-05	-1.02550954332471E-05	3.48631858638478E-06	-8.72889298565132E-06	0.990664665739486	-0.122047055332888
5.2	0.00447683832021335	-0.000564420316677957	-4.23593228225811E-06	-4.71607817004204E-06	-3.16460570707559E-06	5.25278385362622E-07	0.990439655819434	-0.124304680327543
5.3	0.00462189072339372	-0.000920602687569709	4.7789004819813E-06	3.37364488432625E-06	-9.29895929749334E-06	-4.74451810268929E-06	0.990233480528349	-0.12660247450971
5.4	0.00461112004236975	-0.00127877979597193	5.18040465659007E-06	1.19953725402422E-06	-4.73764291263314E-07	1.04563609551867E-05	0.990255598095957	-0.12939302079131
5.5	0.00442091362634249	-0.00154367855199389	-1.81235888260976E-06	-1.98088157498889E-06	8.88199500988461E-06	5.08786913507374E-07	0.990063465276757	-0.132256526927784
5.6	0.00416766757741406	-0.0017161824796604	4.24486825474084E-06	7.22848671924544E-06	-4.64664372941821E-07	-8.61219794349049E-06	0.989771076768235	-0.13482478940263
5.7	0.00380633877839815	-0.00178292024375559	2.05539545030717E-06	-7.21775922780668E-07	5.47094633556503E-06	2.4545052984762E-06	0.989507579459153	-0.137360073417118
5.8	0.00342304618733819	-0.00174030300187924	3.9119737164309E-06	1.96077693628665E-06	2.73196392333343E-06	7.83362798485505E-06	0.989350074726613	-0.139610837646474
5.9	0.00303790694361794	-0.00155613457489322	-3.7825412344913E-06	-3.05722829396232E-06	-4.69891977577E-06	-1.77991219808883E-06	0.989014654203222	-0.141916449801615
6	0.00265309691360408	-0.00135953370734752	-2.076889512761E-06	1.70378596080173E-06	1.04312266034713E-05	-2.65900032193064E-06	0.988582707336907	-0.143695395070072
6.1	0.00233363831023389	-0.0011240940231672	-7.32716563191824E-06	-1.10543080901452E-06	-7.2490025270041E-07	-2.48363605393905E-06	0.988452937647297	-0.145008049611972
6.2	0.00205010398071789	-0.000972449925141821	-1.06169640335636E-06	1.98884003379316E-06	-3.48265714381939E-06	-5.36241051812741E-06	0.988098747361183	-0.146435994951709
6.3	0.00186901969011051	-0.000911370901854234	1.57742776915908E-06	2.83007566053464E-06	1.1471697329654E-06	5.97153167461483E-06	0.987736650669461	-0.148419558120109
6.4	0.00166192625174608	-0.000988700516177353	2.0692971750248E-06	5.03540890181777E-06	-3.33201147063739E-07	2.27260830551887E-07	0.98730680133181	-0.150562274180979
6.5	0.00145191589268952	-0.00108321271036581	4.66713478925475E-06	-1.8775709507975E-06	-4.68864994869474E-06	-1.5485340808704E-06	0.987079273474823	-0.153190774946369
6.6	0.00121222821470736	-0.00109083185060826	3.25998361596298E-07	-1.06869217606966E-06	9.29410710385184E-06	3.33887380697807E-06	0.98688400308607	-0.155838242464897
6.7	0.000975305357099691	-0.000967767325332153	5.27095316699755E-07	5.61149291144274E-06	-1.79135019280609E-06	4.97215343947036E-06	0.986593314447008	-0.158286813880942
6.8	0.000735534587882107	-0.000725030778189377	1.7650035925861E-07	-1.58622728780889E-06	-3.47420085018941E-06	-5.12077077991588E-06	0.986071125927477	-0.160624082092392
6.9	0.000516031057807639	-0.000396819006362568	-6.64675669984665E-06	6.71471051988998E-06	2.28662858262132E-06	1.3549801241811E-06	0.985671022706608	-0.162748707160269
7	0.000370307983684155	8.19411622016764E-07	8.07728373508886E-06	3.16827047228965E-06	4.56477800912623E-06	5.86464896640326E-06	0.985044224943069	-0.164577487899818
7.1	0.000205661841000179	0.000413917320421715	1.39527967988948E-06	7.84277744047481E-07	-2.26989746402337E-06	-4.47677855897841E-06	0.984517595580598	-0.166241573461067
7.2	6.90000050904935E-05	0.000845023090439266	-1.38744017342698E-07	4.39650622471648E-06	-5.00948322836922E-06	-6.61509003506036E-07	0.983848811178165	-0.167982073266246
7.3	-0.000129710103557779	0.00129599738538291	1.3550135368996E-06	-5.26112883775612E-06	-2.34549181544851E-06	-2.79002728124811E-06	0.982856815308592	-0.169697209766868
7.4	-0.000414630035065347	0.00175048151071511	1.83360056384482E-06	4.42060685472795E-06	-7.27045433795981E-07	-1.0692618617983E-06	0.981950289399742	-0.171907546995081
7.5	-0.000715577033602906	0.00226935659518043	-5.73819603219178E-06	-1.49271977679887E-06	-1.57420767479792E-06	-8.89712105317707E-06	0.98113460558949	-0.174316905229279
7.6	-0.000891613641771314	0.00283995163353116	5.62318961907016E-06	-3.38337983140744E-06	1.0210310874845E-06	3.18952685361219E-06	0.9804712515173	-0.177208207463509
7.7	-0.00102644631914581	0.00334485166987874	-6.50107459389588E-06	-2.86265824476374E-06	4.37450347630212E-06	5.66959985554674E-06	0.980027953439105	-0.18036362032767
7.8	-0.00084243365453455	0.00372308312202738	-1.08300235871498E-06	-5.35459105089701E-06	-2.13260264319558E-07	1.14315993174245E-06	0.97976938948567	-0.183529245896085
7.9	-0.000443987045372346	0.00394749309195632	-3.34583155413337E-06	7.20808334701647E-06	4.70815130990616E-07	-6.87821502048242E-06	0.979650473068293	-0.186734172695449
8	3.39489459802856E-05	0.00404174052149011	-2.32893595457292E-07	7.38298326245295E-06	1.77139307531524E-06	-4.45646775682306E-06	0.979278780283165	-0.189783660548956
8.1	0.000482704903569584	0.00410546537170162	-7.3853593131607E-07	-6.46685648084906E-06	-1.74833280748178E-06	-1.06338799037053E-06	0.9787943343788	-0.192484764113978
8.2	0.000855307938930356	0.00414754447136404	-3.82750805458948E-06	1.65249998026164E-06	-1.09714151067782E-05	-2.61499228842103E-06	0.978555763887832	-0.194941479520405
8.3	0.0011461056657917	0.00421746772617574	-5.54980332383813E-06	-9.8613531303625E-06	-7.78824531572769E-06	3.02158227671635E-06	0.977995028521851	-0.197672662028491
8.4	0.0013662668464222	0.0044209970547963	6.77114859487259E-07	-6.10375334520638E-07	-1.41645463200454E-06	4.40920486258656E-07	0.977293030087657	-0.20033392606189
8.5	0.0016018746855548	0.00468687299927465	-1.75289093329935E-06	-2.56849791545295E-07	-7.57275605359155E-09	1.80402957460251E-06	0.976593086035199	-0.20310723321041
8.6	0.00188677390087496	0.00503908238224455	2.42711699761371E-06	-3.97345759573919E-06	-4.56575140426577E-06	-5.92276461817534E-06	0.976092768371304	-0.20569874711458
8.7	0.00229563145193199	0.00539260116556372	-1.49932158118616E-06	-2.09450215153584E-06	-3.55802381016756E-06	3.63899647730816E-06	0.97568561722842	-0.208262606723891
8.8	0.00284320920620344	0.00572680563623342	-5.49868277406283E-06	-2.12027017825824E-06	-7.23526833773946E-06	-1.26828153127433E-06	0.975282120299694	-0.210577200556158
8.9	0.00357475114458746	0.00587419214345387	8.55920046507596E-06	4.09545340861033E-06	-1.41706945297032E-06	3.20091738511997E-06	0.975263765377762	-0.212641777398352
9	0.00439815978760068	0.00576853774950362	-4.98930377214436E-07	4.16262969077957E-06	-7.82034544267731E-06	1.23224769972906E-06	0.975111033466021	-0.215016965044887
9.1	0.00521640323842556	0.00539502860925367	-2.55423768102337E-06	6.63817930425843E-06	4.10457367933684E-06	-3.08406214904936E-06	0.974804854887017	-0.217266288398783
9.2	0.00586537152026776	0.00482957524312144	-1.1753798794998E-06	3.42565543632292E-06	-2.2471625622184E-06	-2.05731158103491E-06	0.974332344306547	-0.219868092816469
9.3	0.00631661078272648	0.00423517991492996	2.32412614229969E-06	-4.04267276478689E-06	-7.93946376540068E-07	-1.78090823255955E-06	0.973854163926975	-0.222413059490791
9.4	0.0066283082638841	0.00365623652319031	-1.79839940061561E-06	3.89758170876612E-06	-2.06989645631531E-06	-3.57976768072289E-06	0.973195725730862	-0.225267443961135
9.5	0.00678223420327837	0.00330190025689753	3.49791697435983E-06	6.29485673347839E-06	3.6595700680918E-07	-2.15042279275689E-06	0.97243349535728	-0.228042740724999
9.6	0.00687959672860395	0.00300311549009347	4.62357197018362E-06	7.07720135112791E-06	-8.22797209886899E-06	1.28064399654947E-05	0.971704209242778	-0.231060815021423
9.7	0.00697066082007129	0.00281931911670237	-2.88266036418428E-06	-1.53355189561014E-06	-1.38739626840435E-06	-3.9713499571329E-06	0.971044278593265	-0.23356645008041
9.8	0.00708013229752309	0.00269471048544849	1.29958099437842E-07	-3.59718547528725E-06	3.04642120896042E-06	2.40081974003081E-06	0.970755218794817	-0.235627524443999
9.9	0.00721973767760583	0.00269718622335433	5.80235618730988E-06	-6.14223408656902E-07	-2.56983252887636E-06	6.73040072702543E-06	0.970312117221716	-0.237489227197121
10	0.00743179975760091	0.00266994361499267	-1.14211968698711E-06	-5.79087318651329E-07	1.36480900851127E-06	-1.1871940533127E-06	0.969870712591892	-0.239111384743833
10.1	0.0077476926688441	0.0026503327748439	7.13368671338955E-07	-8.42284063854382E-06	6.15883222465118E-06	3.60890754656064E-06	0.9694232938477	-0.240679944345025
10.2	0.00819220420394707	0.00256276907351954	7.49894324336004E-06	8.32344701222833E-06	5.22760090364411E-06	3.53212414123247E-06	0.969055662584011	-0.242087558254316
10.3	0.00871066311521074	0.00234444400014997	1.75699347897298E-06	-6.95885160957217E-06	1.4265201517731E-06	2.86870477972387E-06	0.968479642316374	-0.243886065924547
10.4	0.00929370673329944	0.00196400941162743	-4.02679262283475E-06	-3.64000731344214E-06	1.95458365209128E-06	-5.59662106501662E-06	0.96770882136743	-0.245956157320088
10.5	0.00978856036426491	0.00140961252275312	3.76584655994109E-07	-7.06575513674795E-06	-5.7306932224979E-06	4.07030918325505E-06	0.96690200886893	-0.248467838814781
10.6	0.0103447673000445	0.000843477390305902	5.48785689251888E-06	6.7383820436433E-06	2.43388061940383E-06	1.19496868651393E-06	0.966317955486659	-0.25091237979395
10.7	0.0107639910947885	0.000217972716812515	-7.07787032218638E-06	-1.69210263192581E-06	-7.73729390027599E-07	1.5596496879104E-06	0.965612945312437	-0.253711823959407
10.8	0.0111618762955742	-0.000469267767213782	1.48630202681446E-06	4.44366297202157E-06	9.41627383652141E-06	-4.46863123749356E-06	0.964841011323898	-0.255813744203768
10.9	0.0114466103217814	-0.00120293782467182	3.250448349329E-07	7.42165385813856E-06	-5.16378333684274E-06	2.07638870143235E-07	0.964440053392806	-0.25783094327412
11	0.011780992785305	-0.0019808163917901	-2.22599103394423E-06	-3.82645298724989E-06	1.20449149483917E-05	-3.55683913804059E-06	0.963869674162451	-0.259605209242929
11.1	0.0120771676673685	-0.00283914989758851	-6.12064583986664E-06	-4.93591334063497E-06	9.51084891349009E-07	5.58051829228735E-06	0.963152557784574	-0.261302479753377
11.2	0.0123327175715922	-0.00386078849548092	3.31748939253244E-06	4.30695144219364E-06	1.06287987789421E-06	-7.88281282267507E-06	0.96234234681677	-0.263080422926402
11.3	0.0125558603403429	-0.00506990579634231	7.1273045298185E-07	-2.65976668150824E-06	-4.84216080409361E-06	9.12246102505432E-06	0.961789461996265	-0.264939417855504
11.4	0.012460778385313	-0.00638177770995899	1.47772981976162E-06	-2.2043627867069E-06	-3.01353426228416E-06	-7.44250459565686E-06	0.960830075651746	-0.267488471938394
11.5	0.0121124665623254	-0.00773555374365574	9.4849435039705E-07	-1.01072468364008E-06	-9.02690740280918E-07	-8.71962629023341E-07	0.959744974542941	-0.270227827013405
11.6	0.0116130971533186	-0.00912546085813042	1.12355486350917E-05	-3.27988594293722E-06	-5.42820164174435E-06	-6.83734569670983E-06	0.958549761152912	-0.273729490863681
11.7	0.0109056818410646	-0.0104856012033997	5.33095627089148E-06	-2.90109308337671E-06	-4.41377085704426E-06	1.65460767771396E-06	0.95732524044319	-0.277207391176605
11.8	0.0100449878368104	-0.0116950826377188	-4.51976249903548E-07	-2.54968209955147E-06	1.06769920458578E-06	1.32729971017087E-05	0.956274186434066	-0.280735857534099
11.9	0.00917794696896812	-0.0127796578397122	3.32752722735716E-06	1.9906173155352E-06	-1.32496192635073E-08	1.27448781666466E-05	0.955721407012217	-0.283226530949184
12	0.00804867201293022	-0.0137950165095477	2.0052221621802E-06	4.84063874299923E-07	-3.70175941660701E-06	-9.70414960273712E-07	0.954971805164082	-0.285705678360828
