# GHZ S RI R 50
0.2	0.000498729604719864	0.00357960102577255	6.30684016758731E-06	-1.00655377266508E-06	1.06685717611925E-05	1.04995495663324E-05	0.999694999160385	-0.0069247110437476
0.3	0.00114722216467381	0.00326130235462075	5.8177006385466E-06	5.03901294501465E-06	8.0980158597112E-06	2.95501350199275E-06	0.999528257756865	-0.00984543756073954
0.4	0.00163599997767859	0.00315342413275404	-2.71002907455952E-06	7.87247349570432E-06	-4.81102036819034E-07	-4.43244203060213E-06	0.999603135193956	-0.0124997799147686
0.5	0.00201211435536165	0.00308688140339046	2.30895534523447E-06	1.47938254993698E-06	7.51370798432084E-06	-1.05382490356585E-06	0.999355624873344	-0.0157104723320762
0.6	0.00233086423116204	0.00309708681195291	3.22366605305654E-07	3.54080614426881E-06	2.73278055046314E-07	-7.66320354307516E-06	0.999399201458065	-0.0185533491584089
0.7	0.00256045432044569	0.00314169475502173	4.16813173730632E-06	5.04282517143749E-07	-3.89677704857559E-06	-3.45882950588741E-09	0.999105100339716	-0.0215089187789013
0.8	0.00285335546696925	0.00320899327878932	-2.88901564913187E-06	2.96582128935414E-06	-6.82472105966265E-06	1.32106944043803E-06	0.998901771086618	-0.0237066926279822
0.9	0.00307252115571219	0.0032580882589417	6.03987414202975E-06	8.98810536176332E-07	-7.34547137465912E-06	-1.83244560192776E-06	0.998763279585223	-0.0261065456175986
1	0.00329483243161369	0.00326873234909946	2.36171075821785E-06	2.94515824105293E-06	-9.04765161682711E-06	-2.58811477195571E-07	0.998500526834343	-0.0277615360174855
1.1	0.0033911098914956	0.00320738284132423	6.44149842242888E-07	3.55819825770645E-08	-5.30276777675707E-06	1.40368301026593E-06	0.998135910593495	-0.0297413630828433
1.2	0.00337397382539582	0.0028684954117676	-5.29555910422418E-06	-3.29044785982634E-06	-1.11880229346529E-05	-1.26606675627403E-05	0.997559033688494	-0.03068900054479
1.3	0.00302076917248954	0.00219779821684257	3.05094017549855E-06	3.10429666116113E-06	6.95977542443808E-06	-4.08613287832169E-06	0.99770002651672	-0.0315639507664824
1.4	0.00255033689802259	0.00148967799781981	-2.79997841872821E-06	-1.1137416903504E-06	5.71455497257367E-06	6.20882064472428E-08	0.997512711420648	-0.0335888324439106
1.5	0.00238675993838528	0.0012051247859622	1.2408564692797E-06	-2.53468252738961E-06	8.02310291862659E-07	2.51306339143191E-06	0.998130235125908	-0.0369829588743823
1.6	0.00248105724972487	0.00126605789672579	-9.34445596689454E-07	-6.419068659431E-06	3.18677122734352E-06	-4.24643214933432E-06	0.997741236615125	-0.0404821956126368
1.7	0.00275735867866809	0.0013917380039057	3.40764193061985E-06	6.32983397453241E-07	2.2369455878078E-06	3.85432811590016E-06	0.998012112286675	-0.0430582929885894
1.8	0.00300754536723189	0.001564829847892	-2.37832097955915E-06	2.89998335140333E-06	-1.01573774712531E-06	-3.99973599429852E-06	0.997886724605008	-0.0458268853521271
1.9	0.00324543591728049	0.00158832685637663	-3.73476233869309E-06	-1.76048522776536E-06	5.63336791937978E-06	3.0281828333118E-06	0.997796175633745	-0.0481084888854208
2	0.00342717800720274	0.00159955239327476	-6.18217207413138E-06	-5.75401111861861E-06	-2.07911999996528E-06	9.16148440644812E-06	0.997352939502514	-0.0509061407884291
2.1	0.00351289124067343	0.0015211533424304	1.17414212449409E-06	4.6089577600758E-06	4.48701961362794E-06	3.99284731733722E-06	0.997023426776783	-0.053216312945119
2.2	0.00350586779529142	0.00149469323780195	6.57038145785504E-07	9.07323214171988E-07	-3.63506674251515E-06	-1.09457903612494E-05	0.997019365254436	-0.0556049712262587
2.3	0.00343826732270925	0.00142389376438528	-2.28577075527594E-06	3.5638377878468E-06	-5.36568216529446E-07	-2.7982150857109E-06	0.996675530609975	-0.0574705944545299
2.4	0.00327376620356377	0.00139371665698756	-1.55867806409221E-06	-1.45623048679705E-06	1.28483164019292E-06	-1.00017037429432E-06	0.996601284496792	-0.0605647822581603
2.5	0.00303125291863974	0.00142395325718094	7.79677689132897E-06	4.05914397047531E-06	-2.3532322891257E-06	-7.23326517179394E-06	0.996227494121296	-0.0628168101177496
2.6	0.00285128724987536	0.00159941718866392	4.8849382925477E-07	2.11891561007826E-06	-1.46562852295554E-06	4.69095595749973E-06	0.996157274194171	-0.0656648544833292
2.7	0.00283664607588843	0.0018418556141871	-7.86994023910257E-06	5.25117451178152E-06	2.5425932912496E-06	9.7278746276929E-06	0.995850397191161	-0.0686757849067825
2.8	0.0030341237218673	0.00211745061515372	-7.74476992942016E-06	7.96915241742303E-06	6.03743957637154E-06	1.99311716805155E-05	0.995942294573062	-0.0706893346965501
2.9	0.00342411168085204	0.00223511205458235	-1.19021603931129E-06	8.61908408980032E-07	-8.12980806288662E-06	-2.95734521003029E-06	0.995695346351922	-0.0727413825919519
3	0.00388287642409912	0.00224834306277046	-6.15307303173403E-07	-4.47592530814832E-06	-2.17999588113567E-06	6.44726210201058E-06	0.995597096925884	-0.0752596015791231
3.1	0.00433128081745717	0.00209083577441199	-2.59072943378998E-06	9.19695273051818E-08	1.10224435144842E-05	-3.54173707344501E-06	0.99521554526459	-0.0772716154671389
3.2	0.00463638390936108	0.00185619584343184	-9.80409017192274E-06	2.56052323949551E-06	1.21769924775251E-05	4.25309298649977E-06	0.995015882686274	-0.0790335852653545
3.3	0.00482940171723951	0.00150188609789961	-3.46951602108266E-06	9.38194437982472E-07	-5.01399236477866E-06	-1.37534193535717E-07	0.994831043880535	-0.0822892282203442
3.4	0.00484888817069562	0.00118346366188666	5.35098796876795E-06	4.8068911710115E-07	1.35023218420621E-06	4.45452084532357E-07	0.994778903153124	-0.084299561339568
3.5	0.00477921826927979	0.000873888721512695	2.77232532435029E-06	1.55555976036784E-06	1.31428397801989E-06	7.91197332134792E-07	0.99462572805405	-0.0871281939506573
3.6	0.00460529573413573	0.000682120154486007	-7.15189659170907E-06	-1.23457361033081E-07	1.8609511559635E-06	-3.50165317936922E-06	0.994320528021143	-0.0896986103761485
3.7	0.00441941850842867	0.000575745531949602	5.7773685116027E-06	-1.52128785670222E-06	-3.27687937981751E-07	-1.73286977269082E-06	0.994104330676326	-0.0924224830770031
3.8	0.00432090531868315	0.000571762674076556	-2.00177829085193E-06	8.80115540260253E-07	-5.19516059875797E-06	3.06306786688656E-07	0.993719334397677	-0.0944856910205072
3.9	0.00433029224861441	0.000591872846835727	-8.36673803488094E-06	1.79370630131505E-06	-4.12155361208618E-06	-1.49409447439211E-06	0.993639182860648	-0.0976327180111922
4	0.00442433377245049	0.000562945342145009	-5.82748446283126E-06	3.77027027526776E-07	-9.5159641839624E-06	-8.43972050755857E-06	0.993257676238306	-0.0991178312404068
4.1	0.00454017633362929	0.000471192289708555	-3.98165259637794E-06	4.07320961005268E-06	-1.87221421810334E-06	5.58592320748135E-06	0.992996953367221	-0.100971122825769
4.2	0.00462632416667003	0.000294940631265789	4.61422567776834E-06	-4.39321278068267E-06	6.75638794381E-06	7.44199335117976E-07	0.992419057040246	-0.103599028977228
4.3	0.0046447151824299	0.00010414729895534	-3.79467701779472E-06	1.13308711153941E-06	3.54747854461892E-06	-1.21195142002612E-06	0.992222071329757	-0.105603262023819
4.4	0.00454746962392207	-8.67008269933242E-05	-3.15626878387188E-06	-4.93034979989127E-06	9.2842938506453E-07	-1.03773035707598E-06	0.991738687964885	-0.107838540236944
4.5	0.0043614611606324	-0.000200193562291317	-1.38816891870875E-06	2.0318998218219E-06	2.13101143907781E-06	-8.47533896745566E-06	0.991679939093992	-0.109912563922179
4.6	0.00411118457970127	-0.000271042267039642	5.40523506960884E-06	9.58779674882608E-06	-1.41878868396058E-05	9.82821929218144E-06	0.991483411774997	-0.112704794068549
4.7	0.00390899070891158	-0.000255692261486638	-7.60031173942363E-06	-9.55429223246641E-06	-1.14516763880241E-06	-1.33832151517173E-07	0.991396890299638	-0.114756998905019
4.8	0.00376191326632229	-0.000159158945766081	-8.74516126028912E-06	-2.68046413010227E-06	-4.37547285824443E-06	4.54662866505468E-06	0.990970902985888	-0.117295494730264
4.9	0.00378557858718694	-6.20721663426008E-05	5.77856451459265E-06	8.3109935727979E-06	-7.25280013743525E-06	3.28530296355896E-06	0.990591560754944	-0.119103412406613
5	0.00396733722469257	-0.000107798899893267	4.27394448445163E-06	-8.54547494956174E-06	-4.29632921053617E-06	-6.17735785999071E-06	0.990523906019838	-0.120709307808208
5.1	0.00424039766604426	-0.000251986299753131	1.52174307832855E-05	-1.02559507596513E-05	3.48500091974881E-06	-8.72852560435734E-06	0.990572366238699	-0.122119398472437
5.2	0.00448778953435051	-0.000560168795049511	-4.23613753211703E-06	-4.71511129456773E-06	-3.16424888877844E-06	5.25628912690055E-07	0.990344464006952	-0.124413216339714
5.3	0.00462608006404071	-0.00093962197449505	4.77889552756818E-06	3.37265104687654E-06	-9.29869793456345E-06	-4.7427638467206E-06	0.990123013013229	-0.126745317291379
5.4	0.00460219314256774	-0.00131226397956101	5.18003811127765E-06	1.19862066518904E-06	-4.72120713445109E-07	1.04553243536292E-05	0.990122644069477	-0.129563080680514
5.5	0.00439915647967181	-0.00158120136980979	-1.81248302510482E-06	-1.98035714375864E-06	8.88107667184468E-06	5.07255365420825E-07	0.989908571134615	-0.132442854494558
5.6	0.00414087724646086	-0.00175107734785487	4.24562202578249E-06	7.22686624237045E-06	-4.66118897674604E-07	-8.61107297042775E-06	0.989601047699225	-0.135016413436311
5.7	0.00379120639968158	-0.00181558466899551	2.05499714398733E-06	-7.22034586992286E-07	5.47064143742402E-06	2.4532340823613E-06	0.989336617052694	-0.137543830637227
5.8	0.00342286113781586	-0.00179606976178585	3.91166617471488E-06	1.95987070565603E-06	2.73274239293465E-06	7.83198907802786E-06	0.989174360352849	-0.139795969651171
5.9	0.00303648196628562	-0.00166914805863451	-3.78216523976241E-06	-3.05625478121907E-06	-4.69823661009835E-06	-1.77907807558551E-06	0.988813562707153	-0.142107756046094
6	0.00259756761348547	-0.00154909122686287	-2.07640086684796E-06	1.70347388737856E-06	1.04289230926387E-05	-2.65869701924507E-06	0.988311569663071	-0.143878702997984
6.1	0.00215588543797977	-0.00135674729693595	-7.32546017555204E-06	-1.10577500099221E-06	-7.2454095921566E-07	-2.48314622556053E-06	0.988068304373745	-0.145128740116183
6.2	0.00173253553743995	-0.00115824948100141	-1.06183356183963E-06	1.98827701658991E-06	-3.48107121972291E-06	-5.36197927010964E-06	0.987616815124025	-0.146423117364295
6.3	0.00147892457680649	-0.000974125573682865	1.57662593451208E-06	2.8299905093263E-06	1.14579072838899E-06	5.97090839682005E-06	0.987235529723415	-0.148260995017906
6.4	0.00130193791687169	-0.000942012241222475	2.06825884653047E-06	5.03528174188241E-06	-3.33207866423507E-07	2.27183622320996E-07	0.986879332582478	-0.15033679543749
6.5	0.00116592375683771	-0.000980730485542816	4.66704558388194E-06	-1.87701384669039E-06	-4.6882301773701E-06	-1.54889528264394E-06	0.986750881725654	-0.152985291275848
6.6	0.000996544734801618	-0.000969437186443226	3.26018930818436E-07	-1.06865108383904E-06	9.29373546050847E-06	3.33903767612808E-06	0.98664310982773	-0.155684856422758
6.7	0.000816307198802403	-0.000840012673942406	5.27189575767864E-07	5.61145702287581E-06	-1.7912558877577E-06	4.97216058829321E-06	0.986426647783958	-0.158175714021218
6.8	0.000624364977120495	-0.000594813427295241	1.76440828078243E-07	-1.58626374776263E-06	-3.4744681676149E-06	-5.12072835100376E-06	0.985971748428217	-0.160536191626276
6.9	0.000448130913846502	-0.000269269843851213	-6.6467256269858E-06	6.71526329883517E-06	2.28677730874234E-06	1.35493386842708E-06	0.985634394762822	-0.162670538748528
7	0.000340481469227985	0.000122467439382568	8.07785633522101E-06	3.16815149434821E-06	4.56525179795353E-06	5.86481163242453E-06	0.98506362550859	-0.164501517106599
7.1	0.000210448156296242	0.000525668810636267	1.39539658411521E-06	7.84301560688901E-07	-2.27016068275566E-06	-4.47704444048654E-06	0.984588182442996	-0.166164145473895
7.2	0.000107357497008174	0.000943143348672725	-1.3873548027936E-07	4.39688009368571E-06	-5.00991154971093E-06	-6.61542012531029E-07	0.983969599168537	-0.167902747853163
7.3	-5.49352040687323E-05	0.00137462851320583	1.35523410208334E-06	-5.26164269024071E-06	-2.34568652386166E-06	-2.79034796598684E-06	0.983033791328783	-0.169620151676257
7.4	-0.000300028843194642	0.00180074955559498	1.83366432156084E-06	4.42121233580527E-06	-7.27095436938457E-07	-1.06941857079362E-06	0.982190812198804	-0.171842527976868
7.5	-0.000557593023188413	0.00226922089057323	-5.73898603638339E-06	-1.49327102619637E-06	-1.57394541855566E-06	-8.89856541285999E-06	0.981452084955554	-0.174288066376958
7.6	-0.000699824084355027	0.00274432086076173	5.62462401145051E-06	-3.38359890786829E-06	1.02097170241655E-06	3.19026494483498E-06	0.980878867817528	-0.177258412231602
7.7	-0.000840838816790224	0.00315670376047646	-6.5023642424056E-06	-2.8639665773046E-06	4.3750141533286E-06	5.67138005392735E-06	0.980466691415888	-0.180501433757788
7.8	-0.000709063205695077	0.00345062989110245	-1.08271623859263E-06	-5.35609177217578E-06	-2.13436409402803E-07	1.14343330104894E-06	0.980177259542521	-0.183744489236596
7.9	-0.000394294240835294	0.00363849659550989	-3.34746917672242E-06	7.20946134915456E-06	4.71713532754629E-07	-6.87984001257551E-06	0.979956270023595	-0.186987465857571
8	1.05756894282008E-05	0.00371212847595811	-2.33706203093055E-07	7.38457129497257E-06	1.77223966195643E-06	-4.45725805155259E-06	0.979495595439354	-0.190050177913904
8.1	0.00037833256757818	0.00379244651269965	-7.38050720942292E-07	-6.46793983372794E-06	-1.7485082944102E-06	-1.06371735241451E-06	0.978860775046992	-0.192738289022168
8.2	0.00066952568025038	0.00386136704473266	-3.82804060465441E-06	1.65234487294666E-06	-1.09723182751413E-05	-2.61619067826618E-06	0.978486601464987	-0.195165230794699
8.3	0.000878268721044089	0.00398951360502653	-5.54937356730853E-06	-9.86232666789618E-06	-7.78891167957084E-06	3.02116614580927E-06	0.977797050020441	-0.197838436992944
8.4	0.00104080948870152	0.00428529173904091	6.77168147503469E-07	-6.1034605331101E-07	-1.41651344524064E-06	4.40840916485504E-07	0.977001592769485	-0.200412521111636
8.5	0.00126264331570646	0.00465505109980635	-1.75287918823792E-06	-2.56935339848621E-07	-7.66068680608546E-09	1.80403000173741E-06	0.976264276122738	-0.20309144967761
8.6	0.00157250381166144	0.00509487289027571	2.42723947274377E-06	-3.97334259867929E-06	-4.56550857051735E-06	-5.92288226795087E-06	0.975778760099378	-0.205606870931021
8.7	0.00202590433683937	0.00550590507171337	-1.49926742258144E-06	-2.09453418974889E-06	-3.5581048112373E-06	3.63890215545785E-06	0.975418647276151	-0.208125553875001
8.8	0.00261917952392759	0.0058681108379165	-5.49870291851379E-06	-2.12042209338118E-06	-7.23532956986645E-06	-1.26846245948939E-06	0.975074950751373	-0.210416605198647
8.9	0.00338729778304766	0.00602526316008137	8.55933164704872E-06	4.09584465129329E-06	-1.41721230110049E-06	3.20097001999538E-06	0.975112340142072	-0.212467102236276
9	0.00423939606565607	0.00592347667799066	-4.99149735782497E-07	4.16278024684565E-06	-7.8207317324349E-06	1.23192645911406E-06	0.975003126024932	-0.214825214381383
9.1	0.00508845371839001	0.00555069234618236	-2.55475874328749E-06	6.63827475602233E-06	4.10492907232996E-06	-3.0839210559752E-06	0.974728638737485	-0.21705770798432
9.2	0.00577152077738516	0.00498703472387215	-1.17566594339486E-06	3.4256449612894E-06	-2.24705838377036E-06	-2.05752868719655E-06	0.974277459718262	-0.219642563708202
9.3	0.00626309552034825	0.00438903874737129	2.32444010074439E-06	-4.04247653540577E-06	-7.9380275147337E-07	-1.78096601670615E-06	0.97381553112726	-0.222181701027296
9.4	0.00661770033732845	0.00379920163431944	-1.79862723638737E-06	3.89732061858851E-06	-2.06956441577629E-06	-3.57980208558047E-06	0.973170352635799	-0.225045311352721
9.5	0.00681336839226431	0.00342737726410273	3.49726471957201E-06	6.29474544556867E-06	3.66090072950805E-07	-2.15027291364451E-06	0.972425700836249	-0.227834369049957
9.6	0.0069534898550652	0.00310287395820967	4.62271438623757E-06	7.07696309227244E-06	-8.22821165377431E-06	1.28048552963731E-05	0.971718231894532	-0.230875045492905
9.7	0.00708880981953197	0.00288129453444693	-2.88226967495545E-06	-1.53362335616882E-06	-1.38696406293227E-06	-3.97107604012261E-06	0.971088732967456	-0.233408731570368
9.8	0.00724196774989512	0.00269722612205971	1.30279388976946E-07	-3.59679432706956E-06	3.04587662523961E-06	2.40085045296195E-06	0.970837902601	-0.23551005821682
9.9	0.0074110683262059	0.00260534432190514	5.80178756763273E-06	-6.1346772118937E-07	-2.57034623828525E-06	6.72935209106265E-06	0.970425298647169	-0.237440737698418
10	0.00760524537496494	0.0024544072610917	-1.14192433161006E-06	-5.79205589820196E-07	1.36486000951556E-06	-1.18687551559164E-06	0.969989731635659	-0.239158802730514
10.1	0.00783072395430704	0.00231641903032463	7.1476549105892E-07	-8.42228395539978E-06	6.15789967570672E-06	3.6097693711451E-06	0.969497415659791	-0.240837963407008
10.2	0.00812574248382925	0.00217293619363977	7.4978300065014E-06	8.32467845983961E-06	5.22715948376481E-06	3.53294819885613E-06	0.969038996951868	-0.242339307488361
10.3	0.0084984135258672	0.0019865868491337	1.75760120059364E-06	-6.95932136683067E-06	1.42645069845371E-06	2.86904054649164E-06	0.968363858832363	-0.244200400929181
10.4	0.00899135100957084	0.00168871968730181	-4.02752032549767E-06	-3.64024019014851E-06	1.95450925857023E-06	-5.59745217475226E-06	0.967514774593195	-0.24631782264239
10.5	0.00949037497182769	0.00126254984097806	3.75488059713623E-07	-7.06734881496802E-06	-5.73125613998255E-06	4.07214663824452E-06	0.966739771419041	-0.248772929663388
10.6	0.00993443204260531	0.000694003218849462	5.4903294719508E-06	6.73716706475196E-06	2.43442319726554E-06	1.19430202268389E-06	0.965924573322069	-0.251436708860824
10.7	0.0103374256328144	0.00015397917544125	-7.07900531148731E-06	-1.6895741219307E-06	-7.7320063936752E-07	1.56004978960469E-06	0.965185282173393	-0.254224540220145
10.8	0.010804042806153	-0.000426190241638664	1.48810810417694E-06	4.4437441660469E-06	9.41597094875116E-06	-4.47264133656658E-06	0.964523895760871	-0.256148998607946
10.9	0.0111282712048937	-0.00108199348997948	3.27715855958844E-07	7.42268839742671E-06	-5.16450968000432E-06	2.09494425744841E-07	0.964178232058605	-0.258086050105446
11	0.0115193323206843	-0.00180143210557329	-2.22762111028931E-06	-3.82634186984342E-06	1.20457068559404E-05	-3.56140632490938E-06	0.963677461529968	-0.259782328596423
11.1	0.0118820666167783	-0.00262451957235651	-6.12316181628789E-06	-4.93490821255471E-06	9.529216981732E-07	5.58117478692762E-06	0.963040177656235	-0.261415946041041
11.2	0.0122051455200783	-0.0036333787450865	3.31920717707789E-06	4.30679418439644E-06	1.06094807212234E-06	-7.88443692032748E-06	0.96230712967361	-0.263150922184508
11.3	0.0124803554631414	-0.004846734580816	7.12191410705291E-07	-2.66035703720751E-06	-4.84068703273277E-06	9.12507224075184E-06	0.961799201881512	-0.264987343901999
11.4	0.0124347617503483	-0.00617377661103546	1.47745374509318E-06	-2.20503733077813E-06	-3.01569238585239E-06	-7.44295788460856E-06	0.960890629629872	-0.267536404451319
11.5	0.012131192140934	-0.00755302783508499	9.48428066142501E-07	-1.01108967365755E-06	-9.03022061900548E-07	-8.71907388248105E-07	0.959858483674866	-0.270291622376433
11.6	0.0116689642584289	-0.008969182477736	1.12367229922434E-05	-3.28289203324179E-06	-5.43060857851489E-06	-6.83731065609046E-06	0.958707161946412	-0.273824415545363
11.7	0.0109958622565391	-0.0103592460248306	5.33126775790452E-06	-2.90286977184582E-06	-4.41420258532973E-06	1.65594042183533E-06	0.957527939853702	-0.277350047480568
11.8	0.0101688301659364	-0.0116028806315493	-4.52724779635796E-07	-2.55008411237617E-06	1.07133455295364E-06	1.32754208554488E-05	0.956517369953966	-0.280939230826388
11.9	0.00935208449644928	-0.0127546029783619	3.32891463088283E-06	1.98999147908296E-06	-9.14618834751293E-09	1.2747739817276E-05	0.956019660731621	-0.283568031933507
12	0.00825005573607499	-0.0138164534794196	2.00581696133581E-06	4.8342403906942E-07	-3.70288580556816E-06	-9.69249723659834E-07	0.955260419206034	-0.286127105420685
