# GHZ S RI R 50
0.2	0.000495442957138949	0.00358342783897005	6.30686064646597E-06	-1.00656766822545E-06	1.06686264533625E-05	1.04995688824757E-05	0.999695202327316	-0.00692255718150752
0.3	0.00114617451206435	0.00326643223073959	5.81772510193895E-06	5.03901344362806E-06	8.09804166369801E-06	2.95500427168114E-06	0.999529631090139	-0.00984236239022035
0.4	0.00163738806373247	0.0031584705515357	-2.71001728441263E-06	7.87248919561864E-06	-4.81111328318928E-07	-4.4324469510965E-06	0.999605818237286	-0.0124966939094679
0.5	0.00201537137037782	0.00309097211234316	2.30895851065583E-06	1.47937929830911E-06	7.51370877229731E-06	-1.05383743447135E-06	0.999359193823418	-0.0157079935098332
0.6	0.0023354267920812	0.00309999985426741	3.22371004021861E-07	3.54080380807733E-06	2.73268008657661E-07	-7.66319974111092E-06	0.999403209751563	-0.0185516952264261
0.7	0.00256620122921131	0.00314352520739377	4.1681262625684E-06	5.04276803245212E-07	-3.8967713712561E-06	-3.45416992365052E-09	0.999109385107297	-0.0215082181721864
0.8	0.0028608108081417	0.00320971262479734	-2.88900321811575E-06	2.96581799752251E-06	-6.82470076680697E-06	1.32107681212397E-06	0.998906562174296	-0.0237074507175625
0.9	0.00308300637136307	0.00325695033023895	6.03984909117917E-06	8.98788675957514E-07	-7.34544308024577E-06	-1.83241562669744E-06	0.998769172175836	-0.0261104094929871
1	0.00331048189014394	0.00326314301499407	2.36170956560516E-06	2.94512041683637E-06	-9.04758066593693E-06	-2.58754921837072E-07	0.99850811734053	-0.0277727556146641
1.1	0.00341382521174447	0.00319089471882578	6.44140946295806E-07	3.5573731358363E-08	-5.3026741674707E-06	1.40372637968302E-06	0.998144081878265	-0.0297691976674038
1.2	0.00340081718996185	0.00282966290327068	-5.29549249923852E-06	-3.29025622773012E-06	-1.11879990734673E-05	-1.26601182847813E-05	0.997561870252087	-0.0307465747361586
1.3	0.00303697687314093	0.00212973361714281	3.05090814465301E-06	3.10409444196638E-06	6.95939728540455E-06	-4.08616652767249E-06	0.997680463754437	-0.0316576003596128
1.4	0.00254039678664569	0.00141025818756854	-2.79989927180244E-06	-1.11363487232892E-06	5.71434207747373E-06	6.19531263338142E-08	0.997467423459842	-0.0336912195407209
1.5	0.0023531639128175	0.00113619990922537	1.24078682012911E-06	-2.53465974576448E-06	8.02342553566402E-07	2.51300296411856E-06	0.998076601341643	-0.0370699275450553
1.6	0.00243520986639131	0.00121561598285016	-9.34615114340288E-07	-6.41909571640475E-06	3.18668911502945E-06	-4.24654615948189E-06	0.997703983742073	-0.0405617323878661
1.7	0.00269808708897461	0.00136095827457627	3.40771950554562E-06	6.32856580572031E-07	2.23713427663827E-06	3.85429756098895E-06	0.997966669519135	-0.0431316991838341
1.8	0.00293892660249239	0.00156296241407764	-2.37819158991686E-06	2.90012461724958E-06	-1.01594733779304E-06	-3.99971362389115E-06	0.997822948399996	-0.0458793422295249
1.9	0.00318294980594687	0.00161950871394773	-3.73483440160402E-06	-1.76027546339207E-06	5.6334965189169E-06	3.02786424334105E-06	0.997725259285987	-0.0481300939341303
2	0.00338783731780646	0.00165785107392528	-6.18231797997271E-06	-5.75360586172766E-06	-2.07864869546695E-06	9.16139825552182E-06	0.99729130785122	-0.0508933363010443
2.1	0.00350680630820537	0.00159024431166539	1.17425682150827E-06	4.60878398308789E-06	4.48701678117466E-06	3.99258438623275E-06	0.996986366093859	-0.0531777189851285
2.2	0.00353032120580121	0.00155732949747528	6.57030706184801E-07	9.0728594132142E-07	-3.63510935217504E-06	-1.09454013695923E-05	0.997012449568998	-0.0555544640081558
2.3	0.00348346037530339	0.00147152674615366	-2.28572564604318E-06	3.56374225861527E-06	-5.36545948702172E-07	-2.79814756962878E-06	0.99669641842492	-0.0574180528063147
2.4	0.00333227630153075	0.00142484957882591	-1.55863391696677E-06	-1.45624050505382E-06	1.28483389306793E-06	-1.00013589269066E-06	0.996648463918511	-0.0605168178298009
2.5	0.00310117511065301	0.00143934431097269	7.79667185972017E-06	4.05936433841631E-06	-2.35303383508082E-06	-7.23333756185121E-06	0.996299261958249	-0.0627750281533771
2.6	0.00293148322997803	0.00159473884902867	4.88432822149076E-07	2.11896255043978E-06	-1.4658011079511E-06	4.69097789076229E-06	0.996253127806772	-0.0656391983960987
2.7	0.00292059451254958	0.00180999719865381	-7.87029062667729E-06	5.25110571253386E-06	2.5424025523677E-06	9.7282026926776E-06	0.9959614577867	-0.0686832171642524
2.8	0.00310792732075556	0.0020550505881689	-7.74506520341596E-06	7.96934976098072E-06	6.0374951615172E-06	1.99318349246669E-05	0.996046347026198	-0.070747051238814
2.9	0.00347174237064221	0.00214940866197629	-1.1902093391635E-06	8.6195106612762E-07	-8.12999389261604E-06	-2.95717176178137E-06	0.99575497965672	-0.0728539091576405
3	0.00389474693384273	0.00215189927886288	-6.15520798137829E-07	-4.4757739291406E-06	-2.17960630846713E-06	6.44720158826043E-06	0.99557935322322	-0.0754050119592589
3.1	0.00430609774852207	0.00199808295643356	-2.590530274258E-06	9.20947149378898E-08	1.10214355470268E-05	-3.54203320827707E-06	0.995112550099193	-0.0774107315100586
3.2	0.00458140041532109	0.00178328248141855	-9.80295123272128E-06	2.56052725351466E-06	1.21757918542305E-05	4.25228035455466E-06	0.99485067241533	-0.0791270547413854
3.3	0.00475602685625553	0.00145381872578575	-3.46907387992979E-06	9.38092967691843E-07	-5.01336065740457E-06	-1.37492486678358E-07	0.994631967635751	-0.0823323534735647
3.4	0.00476528833304594	0.00116158482739712	5.35026232885521E-06	4.80695023865064E-07	1.35004480889234E-06	4.45410000147944E-07	0.994562886779222	-0.0842976541281132
3.5	0.00469248438201163	0.00087867607832696	2.77189098228541E-06	1.5554125565528E-06	1.31407664525047E-06	7.91119924413673E-07	0.994401139117946	-0.0870844581145531
3.6	0.00452039313966708	0.000714669033111681	-7.15083356390417E-06	-1.23729101839668E-07	1.8608178442963E-06	-3.50105969912056E-06	0.994092938161907	-0.0896132364541784
3.7	0.00434460253094374	0.00063568588933644	5.77656971130801E-06	-1.52071167192169E-06	-3.2753490386553E-07	-1.73262256377168E-06	0.993883187548714	-0.0922903927206668
3.8	0.00426438426013176	0.000656631044481129	-2.00154644457536E-06	8.79807643314326E-07	-5.19438836152024E-06	3.05811760750611E-07	0.993519541827528	-0.0943017452008356
3.9	0.00430002477322537	0.000697439367703491	-8.36578143521038E-06	1.79244036515407E-06	-4.12079414888999E-06	-1.49438444636729E-06	0.993482760108079	-0.0973946046924467
4	0.00442933102038548	0.000683643068514875	-5.82691335648928E-06	3.76075134582942E-07	-9.51361578524329E-06	-8.4402958486831E-06	0.993171877279832	-0.0988333937958772
4.1	0.00459275367671237	0.000596063987049838	-3.98214262384741E-06	4.07224462764042E-06	-1.87310514688002E-06	5.58524551459659E-06	0.993007447152095	-0.100664319240448
4.2	0.00473598829780452	0.000400028211461343	4.61498905220194E-06	-4.39228978765105E-06	6.75615973790454E-06	7.45456673845519E-07	0.992534065784651	-0.103309539868866
4.3	0.00480253065998586	0.000156854669470075	-3.79498732167806E-06	1.13239988683614E-06	3.54779744378055E-06	-1.21131284599678E-06	0.992424636631671	-0.105366659966019
4.4	0.0047238290703871	-0.000114685012820301	-3.15548855033836E-06	-4.93127355983214E-06	9.28690827381566E-07	-1.03761049535012E-06	0.991996318980652	-0.107677906944899
4.5	0.00450861126235324	-0.00031411424603759	-1.38874243742855E-06	2.03183935985746E-06	2.13299681815541E-06	-8.47584166492988E-06	0.99195942117407	-0.109834541472391
4.6	0.00418465479878087	-0.000444441053956764	5.40431150355323E-06	9.59046790419212E-06	-1.41921913775374E-05	9.82716401431235E-06	0.991745231481041	-0.112708515790211
4.7	0.00389462865544199	-0.000435115755352779	-7.60047601919693E-06	-9.5574932728675E-06	-1.1453917750413E-06	-1.34035597204802E-07	0.991609837862608	-0.114810860139406
4.8	0.00367873630121254	-0.000302381803592047	-8.74686772864865E-06	-2.68202498034513E-06	-4.37696536147417E-06	4.54719238494957E-06	0.99112493974537	-0.117358037045587
4.9	0.00366620314863297	-0.000152034685033572	5.7792218352339E-06	8.31328966599709E-06	-7.25467000499231E-06	3.28548412440618E-06	0.990701094660948	-0.119144661897247
5	0.0038410787258843	-0.000144427994280056	4.27531388772925E-06	-8.54702751766401E-06	-4.29688619779713E-06	-6.17889009119795E-06	0.990610681823792	-0.120716411360337
5.1	0.00412855956740114	-0.00024596244601386	1.52208004274438E-05	-1.02572804410212E-05	3.48604399160951E-06	-8.73005991541979E-06	0.990655606265886	-0.122094961006569
5.2	0.00440169926020759	-0.000527145463794582	-4.23673059075709E-06	-4.71608824943292E-06	-3.16482710115909E-06	5.25616339008133E-07	0.990436938044365	-0.124369201834798
5.3	0.00456736453782477	-0.000894991504949561	4.77960128709561E-06	3.37333321030826E-06	-9.30011797956712E-06	-4.74378943225928E-06	0.990230765320608	-0.126696151969387
5.4	0.00456538664173584	-0.00126735738826828	5.18085134458635E-06	1.19890241249913E-06	-4.72375971633335E-07	1.04569991592449E-05	0.990246582992374	-0.129521780726241
5.5	0.00437504559602879	-0.00154106712434591	-1.8127694578223E-06	-1.98069109159887E-06	8.88252871345512E-06	5.07385325176872E-07	0.990046628314375	-0.132418745507722
5.6	0.00412011376893724	-0.00171345738325678	4.2464624460448E-06	7.22807033190872E-06	-4.66318159799087E-07	-8.6125705432305E-06	0.989750847407014	-0.135015330194963
5.7	0.0037673155480491	-0.00177617017336347	2.05535339869807E-06	-7.22267848755642E-07	5.47179467803324E-06	2.45344360301819E-06	0.989494630962534	-0.137577411618206
5.8	0.00340381392822163	-0.00173543959878447	3.91267109150214E-06	1.9598757232416E-06	2.73410275948883E-06	7.83332305325928E-06	0.989344920660809	-0.139865161202808
5.9	0.00304633401488948	-0.00158198193599124	-3.78347730061694E-06	-3.05618204878702E-06	-4.6995008606505E-06	-1.7785832988001E-06	0.988996422975501	-0.142228446311517
6	0.0026635234072523	-0.00145963424950146	-2.07626156003848E-06	1.70428538756563E-06	1.04297949807562E-05	-2.66187918845285E-06	0.988489174907862	-0.144074428030775
6.1	0.00227418062931342	-0.00130966920361817	-7.3262617365748E-06	-1.10349278265379E-06	-7.25381639052841E-07	-2.4830653063662E-06	0.988200821129656	-0.145407296971868
6.2	0.00186352175267807	-0.00118274206725934	-1.06114858697981E-06	1.98853872382922E-06	-3.48265998577513E-06	-5.36063731293735E-06	0.987660690035547	-0.146761090528916
6.3	0.00157237487815835	-0.00106786610398202	1.57721620618976E-06	2.82922059891967E-06	1.14729548913212E-06	5.96988332367037E-06	0.98717121781717	-0.148607148017726
6.4	0.00132138927744062	-0.00104766453994372	2.06893416259588E-06	5.03401800003377E-06	-3.33105907697846E-07	2.27213173041751E-07	0.986703306801967	-0.150616742494967
6.5	0.00113265850895109	-0.00104786471539241	4.66596367553991E-06	-1.87726876600144E-06	-4.68758045431566E-06	-1.54801883479215E-06	0.986520509247328	-0.153149711340135
6.6	0.000953050367552184	-0.000986698210125449	3.25891700331816E-07	-1.06848892998556E-06	9.29235879219359E-06	3.33784452312699E-06	0.986420194068798	-0.155740416371586
6.7	0.000790493377405437	-0.000824479113588311	5.27243793941102E-07	5.61056175244888E-06	-1.7908527209365E-06	4.97142249760905E-06	0.986242399786559	-0.158158975336087
6.8	0.000623775861009277	-0.00056824605166548	1.76422050389034E-07	-1.5860332367639E-06	-3.47394303846771E-06	-5.1200015031866E-06	0.985829395904045	-0.160481816044316
6.9	0.000470265686228605	-0.000245286166989269	-6.64596831784754E-06	6.71416502154442E-06	2.28642584296711E-06	1.3548022587599E-06	0.985523716247813	-0.162599079423029
7	0.000377835384241714	0.0001337507672088	8.0766204386072E-06	3.16808458538397E-06	4.5643706813694E-06	5.86422208918715E-06	0.984974944003806	-0.164423337177794
7.1	0.000257162079610052	0.000520403881377027	1.39515674676385E-06	7.84292662904051E-07	-2.26955100240017E-06	-4.4766031404503E-06	0.98451481702207	-0.166079135957673
7.2	0.000160585236776701	0.000918723521659023	-1.39163620090442E-07	4.39631383522281E-06	-5.00921532203683E-06	-6.61966615962378E-07	0.983915941891981	-0.167805368995906
7.3	6.60698947846019E-06	0.00132396565466639	1.35586197422822E-06	-5.26094000164739E-06	-2.3450580915226E-06	-2.79041709241337E-06	0.983024285936815	-0.169510830327174
7.4	-0.000224015971935098	0.00170610058473714	1.83277607046374E-06	4.42142667751948E-06	-7.26872153221492E-07	-1.06952388963326E-06	0.982270924875266	-0.171750553779033
7.5	-0.000505727789006976	0.00208492892168988	-5.7392423368146E-06	-1.49444102710319E-06	-1.57248719134566E-06	-8.89966312457782E-06	0.981624408226852	-0.174318631894569
7.6	-0.00077985279412981	0.00249064405519227	5.6259742649185E-06	-3.38382359299313E-06	1.02092496874305E-06	3.19096190540185E-06	0.981005627569102	-0.177469656786365
7.7	-0.00107664877082963	0.00293096778582044	-6.5039041796913E-06	-2.86435115472494E-06	4.37619191895565E-06	5.67246320146769E-06	0.980439179267064	-0.1808076347827
7.8	-0.00103488651163095	0.00336409827540818	-1.08346724523484E-06	-5.35696233112513E-06	-2.13357611982346E-07	1.14366500609546E-06	0.980010601722846	-0.183969134215803
7.9	-0.000701698269699169	0.00369306694602894	-3.34718258497199E-06	7.21083083935214E-06	4.7105591474841E-07	-6.88086029776039E-06	0.979771196126844	-0.187053858433778
8	-0.000234216265498445	0.0038797604379799	-2.33224494681503E-07	7.38540807031505E-06	1.77213019338796E-06	-4.45787526312645E-06	0.979340155398268	-0.18997576693059
8.1	0.00022629178796217	0.00402163971701963	-7.38350728741893E-07	-6.46867124803285E-06	-1.74874777066732E-06	-1.06378386471814E-06	0.978817844461205	-0.192563670127473
8.2	0.000623313010710717	0.0041245165723269	-3.82852126839651E-06	1.65258617428067E-06	-1.09737507673743E-05	-2.61644585950639E-06	0.978565368141082	-0.19493474240333
8.3	0.000946657547443928	0.00424219147693508	-5.55009673157093E-06	-9.8637840564292E-06	-7.79005251384824E-06	3.0215417934639E-06	0.978007380143248	-0.197607300141733
8.4	0.00120587203488987	0.00447871307649797	6.772844430984E-07	-6.10433602704734E-07	-1.41674495198215E-06	4.40891101249695E-07	0.977324524132591	-0.200237791181819
8.5	0.00148374722585834	0.00476064859763119	-1.75318256650897E-06	-2.57002137087729E-07	-7.68452323717328E-09	1.8043454348913E-06	0.976657841170405	-0.203009856438829
8.6	0.0018089888719264	0.00511118632131287	2.42769858445946E-06	-3.97409927238827E-06	-4.5663798103285E-06	-5.92400551871144E-06	0.97619915328965	-0.20563098425016
8.7	0.00225294147995897	0.00544501850779007	-1.49962660677858E-06	-2.09490173147359E-06	-3.55869604733798E-06	3.63972765755544E-06	0.975831710808499	-0.208257001426931
8.8	0.00282527055007278	0.00574462657255431	-5.49991244210668E-06	-2.12033851836869E-06	-7.23678859525776E-06	-1.26806887445426E-06	0.975444158244444	-0.210664119392944
8.9	0.00356813691043505	0.00583886321971736	8.56111873281783E-06	4.09497436750664E-06	-1.41687191461379E-06	3.20161955840737E-06	0.975385268517288	-0.212840587338736
9	0.00436917465551257	0.00566186657094384	-4.9823701384176E-07	4.16294630402671E-06	-7.8205644985037E-06	1.2336703054091E-06	0.975099440417586	-0.215303969045155
9.1	0.00510857668926399	0.00524133432157379	-2.55310316364602E-06	6.63802940447427E-06	4.10382205586873E-06	-3.08440480096189E-06	0.974591603859648	-0.217539871913241
9.2	0.00566352103470207	0.00470676687263163	-1.17498099180055E-06	3.42515762193063E-06	-2.24691262712659E-06	-2.05683670661029E-06	0.973957017220121	-0.220011714527188
9.3	0.00607808079396026	0.00420057404140294	2.32369365939092E-06	-4.04188786840952E-06	-7.93787611923748E-07	-1.78056880174575E-06	0.97343086259496	-0.222401247909029
9.4	0.00641410209631852	0.00370322337520847	-1.79817422908788E-06	3.89682792944955E-06	-2.06942805828347E-06	-3.57917190878426E-06	0.972812576917829	-0.225153803497297
9.5	0.0066282579241535	0.00338792896863304	3.49724184041087E-06	6.29378069942516E-06	3.6591269693593E-07	-2.15004057505168E-06	0.972112482229266	-0.227906736793189
9.6	0.00678148069497895	0.00310217271028482	4.62293171824058E-06	7.07596072793352E-06	-8.22640445649282E-06	1.28044748055996E-05	0.9714442966459	-0.230939801564517
9.7	0.00691833991035552	0.00291312635070637	-2.88228299837359E-06	-1.53318112144262E-06	-1.38736327802118E-06	-3.97066917293553E-06	0.970831888040833	-0.233480487871163
9.8	0.00706447546411465	0.00277519874699478	1.29678052046077E-07	-3.59665027342426E-06	3.04613376186651E-06	2.40023575316035E-06	0.970577185076651	-0.235581293714125
9.9	0.00724281443973603	0.00275641249723402	5.80137113387436E-06	-6.14666982787831E-07	-2.56879322270435E-06	6.72956459679068E-06	0.970158464878285	-0.237481550256167
10	0.00748650933015398	0.00269630249575059	-1.14198276529202E-06	-5.78859029859854E-07	1.36443745530294E-06	-1.1871361401803E-06	0.969728968143232	-0.239148706542126
10.1	0.00782813650301545	0.00262833330923858	7.12192069902394E-07	-8.42120941432645E-06	6.15801738233069E-06	3.60741729573054E-06	0.969277703282326	-0.240769722941804
10.2	0.00828476633562072	0.00247494409241101	7.49818082139717E-06	8.32050945178897E-06	5.22678574926966E-06	3.53062200057441E-06	0.968886721843424	-0.242236414468871
10.3	0.00879090262657095	0.00217607036022015	1.75574855577949E-06	-6.95715092542201E-06	1.42644788730821E-06	2.86776673694958E-06	0.968271481776209	-0.244092661069847
10.4	0.00932399224437125	0.00171064957018835	-4.02595771435982E-06	-3.63872131913361E-06	1.95364374926689E-06	-5.5952352634767E-06	0.967459756702854	-0.246210877164801
10.5	0.00976358650045678	0.00113240791348176	3.76455833895839E-07	-7.06479636065104E-06	-5.72986760929751E-06	4.06981734804396E-06	0.966714429231147	-0.248666756227269
10.6	0.0101275382676565	0.000514798319131574	5.48749600487243E-06	6.73761983835998E-06	2.4336789797471E-06	1.19479965123581E-06	0.966004945341295	-0.251239107231955
10.7	0.0104086337817557	-2.17756841675903E-05	-7.07813499722637E-06	-1.69163598292367E-06	-7.73634764112696E-07	1.55973640096889E-06	0.965259602999573	-0.254024723468862
10.8	0.0107460128817491	-0.000560824332171799	1.48702359644164E-06	4.44386411818463E-06	9.41652538760737E-06	-4.47027840675081E-06	0.964476383405867	-0.256054734934521
10.9	0.0110586587345744	-0.00115371950063901	3.26357838287096E-07	7.42250099294565E-06	-5.16437592748622E-06	2.08550169108657E-07	0.964124162688259	-0.257976928052326
11	0.0114609470557123	-0.0018315020031213	-2.22697815307199E-06	-3.82654385459279E-06	1.20458303639185E-05	-3.55949832667969E-06	0.963625948422336	-0.25966314634181
11.1	0.0118410256630273	-0.00263425637495219	-6.12228523283964E-06	-4.93546680722775E-06	9.52182432100232E-07	5.5810585302769E-06	0.96299187677538	-0.261296543523895
11.2	0.0121788980000318	-0.00363522620633433	3.31856329577069E-06	4.30692638185444E-06	1.06174833574217E-06	-7.88390356238934E-06	0.962258904580463	-0.263036514348216
11.3	0.0124625507897757	-0.00484446198519801	7.12405263501081E-07	-2.6601251496577E-06	-4.84127367158043E-06	9.12404478995706E-06	0.961748645149551	-0.264878860479287
11.4	0.0124281058122195	-0.00617063393237134	1.47754436797353E-06	-2.20474893322809E-06	-3.01481621300113E-06	-7.44269542409584E-06	0.960838689959343	-0.267431083079266
11.5	0.0121404087855294	-0.00755438484514875	9.48432303464217E-07	-1.01092950321525E-06	-9.02876991219577E-07	-8.71909130633978E-07	0.959810328141734	-0.270193396081171
11.6	0.0116935424495424	-0.00898251704335365	1.12359606511512E-05	-3.28172736018864E-06	-5.4295895232997E-06	-6.8371119391108E-06	0.9586668143054	-0.273740350313887
11.7	0.0110348336990582	-0.0103995813154809	5.33094211364603E-06	-2.9021682494458E-06	-4.41387625873662E-06	1.65543610916433E-06	0.957491314485543	-0.277291437892024
11.8	0.0102068055827297	-0.0116924574974169	-4.5247076746586E-07	-2.54979947545378E-06	1.07017333617086E-06	1.32738396313089E-05	0.956462603957753	-0.280923771862935
11.9	0.00938929532137391	-0.0128917290847525	3.32827767537531E-06	1.98995136577897E-06	-1.0105907340667E-08	1.27458744814859E-05	0.955937243862482	-0.28359091337406
12	0.00813840716406408	-0.0140126880372629	2.00527255831462E-06	4.83630432441847E-07	-3.70186857873443E-06	-9.69612837798968E-07	0.954978157396609	-0.286111381759062
