# GHZ S RI R 50
0.2	0.000570031667447774	0.00352138937164948	6.30661693400597E-06	-1.00629791814367E-06	1.06677786388717E-05	1.04994841500556E-05	0.999725839237996	-0.00694843647453743
0.3	0.00124292252308983	0.00321766744545662	5.81749538910316E-06	5.0385812785706E-06	8.09762894881414E-06	2.95464350915342E-06	0.999566852037356	-0.00991319715726944
0.4	0.00172167515923095	0.00307928557357327	-2.7096119117686E-06	7.87191185957598E-06	-4.81176172950971E-07	-4.43207479805206E-06	0.999608485483699	-0.0125980312770537
0.5	0.00205397872036186	0.0030470096789104	2.30893876647605E-06	1.47930972403508E-06	7.51354195901172E-06	-1.05394794904804E-06	0.999377765394269	-0.015769031861818
0.6	0.0024077138965849	0.00305147190477826	3.22668287662387E-07	3.54064246158902E-06	2.72588091536739E-07	-7.66293539246795E-06	0.999436092512032	-0.0186865432113589
0.7	0.00261406922548093	0.00308178051058388	4.16791876701342E-06	5.03925270615028E-07	-3.89654126176889E-06	-3.15319051684426E-09	0.999096398265082	-0.0216454550965484
0.8	0.00289596233805165	0.00315645719451382	-2.88862395746469E-06	2.96584019972304E-06	-6.82419914317979E-06	1.32147079416681E-06	0.998879873912561	-0.0238282134418223
0.9	0.00312022389118612	0.00318954563988526	6.0394500447664E-06	8.98357506961409E-07	-7.34500229935791E-06	-1.83183578151036E-06	0.998729629970701	-0.0262356386069599
1	0.00328852480504078	0.00317498857891694	2.36156697367202E-06	2.94483214442908E-06	-9.04683261781401E-06	-2.58567780954826E-07	0.99840256100393	-0.0278765067815863
1.1	0.00338973541466064	0.00311718739820388	6.4408117527398E-07	3.55571743209671E-08	-5.30214731413277E-06	1.40370332927365E-06	0.998025273416666	-0.0298599307442032
1.2	0.00333185490771412	0.00270936370824209	-5.29472689140137E-06	-3.28971612871308E-06	-1.11864316333811E-05	-1.26581207305609E-05	0.997340639990419	-0.0308703662932779
1.3	0.00291303165814008	0.00200644248657504	3.05039459150534E-06	3.10347903829064E-06	6.95805875070294E-06	-4.08552063373852E-06	0.997370233747345	-0.031788975430311
1.4	0.00241945109831376	0.00129300983726782	-2.79950955789255E-06	-1.11321866135228E-06	5.71336862379288E-06	6.14822365440548E-08	0.997171156040115	-0.0338818244178741
1.5	0.00224491651828287	0.00105833687293133	1.24021898474751E-06	-2.53446356803786E-06	8.02598820880941E-07	2.51250326518236E-06	0.997813218573842	-0.0372911772375852
1.6	0.00237556593288614	0.00115937524510732	-9.35448256678867E-07	-6.41810214605188E-06	3.18563163984916E-06	-4.24645643590659E-06	0.997503780114188	-0.0407574912773321
1.7	0.00265995639163967	0.0013331801040975	3.40748177868213E-06	6.32402816599264E-07	2.23737778540494E-06	3.85368556604685E-06	0.997832044889268	-0.0432689906318193
1.8	0.00293354188510535	0.00155337048801353	-2.37782470431088E-06	2.90022259900373E-06	-1.01627364560528E-06	-3.99945264894537E-06	0.997771897773991	-0.0459784847154492
1.9	0.00319528275972922	0.00160292909869988	-3.73495173430846E-06	-1.7598841314359E-06	5.63370997061342E-06	3.0272684917542E-06	0.997718398214835	-0.0482430632042709
2	0.00338780865219523	0.00166369120793116	-6.18236041993147E-06	-5.75294669773599E-06	-2.0779910124487E-06	9.16107069736846E-06	0.99723911902152	-0.0509449246262343
2.1	0.00354731018586387	0.00160187820060193	1.17437866956094E-06	4.60877856576869E-06	4.48714045607824E-06	3.99249257517793E-06	0.997031011176755	-0.0531912119035357
2.2	0.00357747430505697	0.00155341508203429	6.57072578396471E-07	9.07266759269798E-07	-3.63557992871015E-06	-1.09453429733434E-05	0.997065671305747	-0.0555988635478723
2.3	0.00353526765404626	0.00145711305320528	-2.2855704083828E-06	3.56380974643199E-06	-5.36652968612211E-07	-2.79810854621259E-06	0.996739900943925	-0.0574712935932928
2.4	0.00338385435035331	0.00138455269560523	-1.55864094306288E-06	-1.45616429112896E-06	1.28477728468646E-06	-1.00015033730564E-06	0.996677516213748	-0.0605826366220373
2.5	0.00311000975351698	0.00138605553804997	7.79665032895198E-06	4.05916843343202E-06	-2.35313931149897E-06	-7.23320354600837E-06	0.996295810171622	-0.0628452179958174
2.6	0.00293520658873633	0.00156042839570191	4.88465612625237E-07	2.11887653199665E-06	-1.46563896154552E-06	4.69084752099644E-06	0.996221655871197	-0.0656942989937918
2.7	0.0029229790443348	0.00178414921709401	-7.86998021903774E-06	5.25062991723995E-06	2.54203239295245E-06	9.72772573558455E-06	0.995911986435597	-0.0686818552614813
2.8	0.00312290097133918	0.00203268209492756	-7.74537776006507E-06	7.96823421930067E-06	6.03538241949147E-06	1.99313349581026E-05	0.996017183261677	-0.0706765455289798
2.9	0.00349315426887419	0.00211365184228216	-1.1903202746053E-06	8.61729937018407E-07	-8.12928207696777E-06	-2.95844236452466E-06	0.995761590696242	-0.0727236305631242
3	0.00390405012621833	0.00212663647215766	-6.14587206454147E-07	-4.47599254885802E-06	-2.18101178260382E-06	6.44686857870583E-06	0.995623906794276	-0.0752231478684145
3.1	0.00433695009694073	0.00197449537957534	-2.59066776277206E-06	9.1491093795199E-08	1.10227595367153E-05	-3.53960601597312E-06	0.995205457461574	-0.0772060105394506
3.2	0.00461094157615656	0.00175170558033161	-9.80425376068831E-06	2.55841898384825E-06	1.21756717874537E-05	4.25543258206651E-06	0.994970527669375	-0.0789326563902945
3.3	0.00478547782689414	0.0014205073771364	-3.46956798979737E-06	9.37418691960072E-07	-5.01375068134232E-06	-1.38591973939192E-07	0.994762981115721	-0.0821577371156046
3.4	0.00479276991682261	0.0011173336122	5.35069760559402E-06	4.81798611952958E-07	1.35009067423771E-06	4.4572058729978E-07	0.994705963597716	-0.0841551066093573
3.5	0.00469825851026969	0.000840456017177361	2.77194062896973E-06	1.55595574382787E-06	1.31409258270618E-06	7.91382660891947E-07	0.994515462536902	-0.0869912653126226
3.6	0.00453975744795649	0.000674782281785661	-7.15134752071476E-06	-1.24776688040152E-07	1.86146465728909E-06	-3.50104991787937E-06	0.994199171629211	-0.0895161248054196
3.7	0.0043509596347405	0.000578591760155817	5.77733024595179E-06	-1.520043683296E-06	-3.27322375995493E-07	-1.73283260459577E-06	0.99399614622313	-0.0922170585484244
3.8	0.00424847079948334	0.000590997179963619	-2.0018861684865E-06	8.79654720421193E-07	-5.19501974815985E-06	3.05189268015617E-07	0.99362823839843	-0.094252727714819
3.9	0.00424996814110638	0.000628596416687707	-8.36696390301598E-06	1.79181633600797E-06	-4.12113822356317E-06	-1.49497677483341E-06	0.993560829663649	-0.0973754804959647
4	0.00433163277288373	0.000654969497215376	-5.8274655724652E-06	3.7543925178363E-07	-9.51347825251236E-06	-8.4421250655527E-06	0.993171880475758	-0.0987565173483901
4.1	0.00450588449590761	0.000614032027510428	-3.98309682565969E-06	4.07226183310212E-06	-1.87398579428934E-06	5.58569137189471E-06	0.993050545317616	-0.100541108926761
4.2	0.00465613056065116	0.000448805376945477	4.6158770201122E-06	-4.3923858797988E-06	6.75684860060417E-06	7.46115052938111E-07	0.992573744350302	-0.103187056631387
4.3	0.00473940680459077	0.000240587972182008	-3.79539962519067E-06	1.13230397955709E-06	3.54819097924262E-06	-1.21123735942785E-06	0.992459129232616	-0.105240542236934
4.4	0.0046873975482196	-2.99434332443189E-06	-3.15562536537723E-06	-4.93161720083985E-06	9.2876084350343E-07	-1.03766376542606E-06	0.992022765641642	-0.107561356292213
4.5	0.00449848649732605	-0.000160548228124725	-1.38873146248402E-06	2.03196839059174E-06	2.13280182020503E-06	-8.47625816028331E-06	0.991986208058347	-0.109718734458307
4.6	0.00426086447895174	-0.000272293815658107	5.40502442088644E-06	9.58961444623649E-06	-1.41907555351774E-05	9.8281535934713E-06	0.991775763384148	-0.112625608815239
4.7	0.00404091609015424	-0.000299697301161699	-7.60046383566571E-06	-9.55584236220974E-06	-1.14528103698756E-06	-1.33925841669184E-07	0.991641689614772	-0.114745707838847
4.8	0.00386928236233058	-0.000227823046665419	-8.74580303864631E-06	-2.68118628713642E-06	-4.37611733997498E-06	4.54679854865258E-06	0.991173420224992	-0.117320768153157
4.9	0.00386672521749555	-0.000153733518130747	5.77856220606021E-06	8.31197726456836E-06	-7.25356075229029E-06	3.28516094925799E-06	0.990757746666811	-0.11914987994901
5	0.00401088811696978	-0.000196382080780322	4.27465364741015E-06	-8.54601725721743E-06	-4.29643671684406E-06	-6.17805265460127E-06	0.99065518266585	-0.120767844022178
5.1	0.00428260739947615	-0.000343869040390542	1.52185822372777E-05	-1.02559733726702E-05	3.48548182410055E-06	-8.72886713182222E-06	0.990670598569398	-0.122184362321162
5.2	0.00450796969411484	-0.000661223926914949	-4.23612759481764E-06	-4.71546420217089E-06	-3.16439679702524E-06	5.25528701836936E-07	0.990408995469607	-0.124481553911729
5.3	0.00462377036103143	-0.00103745578415918	4.77894826496781E-06	3.37297081497126E-06	-9.29887236792181E-06	-4.74331528062387E-06	0.990163851366218	-0.126809190938968
5.4	0.00457771305407553	-0.0014079566798214	5.18033571331068E-06	1.19888226096366E-06	-4.7252093549007E-07	1.04559937956963E-05	0.990167358358068	-0.129632421179435
5.5	0.00433895624345354	-0.00164792451749884	-1.81268376160438E-06	-1.98050248196124E-06	8.88188914318273E-06	5.07135971666615E-07	0.989935162874005	-0.132539669699045
5.6	0.00407838485480679	-0.00180452280092295	4.24618587298162E-06	7.22745936388995E-06	-4.6635402660248E-07	-8.61188146206602E-06	0.989629528314842	-0.135104270090317
5.7	0.00368571477927888	-0.00185195333587452	2.05526522885221E-06	-7.22219250062381E-07	5.47152656724038E-06	2.45337351984212E-06	0.989368889043821	-0.137639321239439
5.8	0.00328031705575322	-0.0017708281117767	3.91260990003296E-06	1.9599668204774E-06	2.73389921252617E-06	7.83336616045212E-06	0.989221703035385	-0.139875493739163
5.9	0.00288688232289928	-0.00155777001242537	-3.78351361838902E-06	-3.05647526031746E-06	-4.69963112236438E-06	-1.77885935139197E-06	0.988885969958831	-0.142168619893214
6	0.00247261237393791	-0.00131810828459554	-2.0766660750549E-06	1.70424975828373E-06	1.04312028598745E-05	-2.66106317255362E-06	0.988420232200377	-0.143844081651837
6.1	0.00218450653319371	-0.00103500640220647	-7.32803851279612E-06	-1.10434398510926E-06	-7.25372666179683E-07	-2.48375313328318E-06	0.9883735486161	-0.145093116020992
6.2	0.00193173604096427	-0.000882180852996444	-1.06143441552329E-06	1.98915979650716E-06	-3.4838102157657E-06	-5.36219837099061E-06	0.988025123532141	-0.146522929533054
6.3	0.00177382499520884	-0.000847300082927703	1.57795374673823E-06	2.82982978277833E-06	1.14825174974704E-06	5.97140275600386E-06	0.987627687705013	-0.148533845073722
6.4	0.00156450503895649	-0.000972285870334348	2.07008912033942E-06	5.03470992984549E-06	-3.33138332125801E-07	2.27307502235182E-07	0.987119248267287	-0.150717079948491
6.5	0.00132880419357618	-0.00106274300648778	4.66648790508104E-06	-1.8782464596984E-06	-4.68859281384643E-06	-1.5476178393238E-06	0.986861528939494	-0.153329954260245
6.6	0.00110504226735857	-0.00106134306347478	3.25739698235758E-07	-1.06868021932258E-06	9.29411309576273E-06	3.3365851024204E-06	0.986666358856573	-0.156012119327044
6.7	0.000884033944547541	-0.000910599771969896	5.28214887098265E-07	5.61092526658897E-06	-1.7901736774937E-06	4.97211837959747E-06	0.986388842663779	-0.158421078417748
6.8	0.000692138386645764	-0.000644983795671715	1.76206428412446E-07	-1.58615600741247E-06	-3.47488787414286E-06	-5.1198204461611E-06	0.985935382177522	-0.160709179989452
6.9	0.000521362812130523	-0.000333097182910989	-6.64554318477367E-06	6.71530840338154E-06	2.2867088110223E-06	1.35460810569322E-06	0.985609531542445	-0.162811417130752
7	0.00038933897229133	6.53441531705426E-05	8.07739042924063E-06	3.1674634684525E-06	4.5652093729009E-06	5.86410116513449E-06	0.985026007063766	-0.164598887747633
7.1	0.000274642863307518	0.000453929573315993	1.39530636942309E-06	7.84203145869817E-07	-2.27009708274536E-06	-4.47663062910236E-06	0.984570079156913	-0.166248124546338
7.2	0.00014501187490163	0.000845849519187156	-1.38718597492509E-07	4.39653418532447E-06	-5.0095180960923E-06	-6.61483146203585E-07	0.983929595714327	-0.167987932482529
7.3	-5.03558152020952E-05	0.00126840579383339	1.35522606460676E-06	-5.26124327862402E-06	-2.34547150953729E-06	-2.79018794827699E-06	0.982970995896171	-0.169697454951905
7.4	-0.000330976515501039	0.00168251775047603	1.8335321306585E-06	4.42105481649716E-06	-7.27051841864663E-07	-1.06938412834049E-06	0.982122137650882	-0.171941096931227
7.5	-0.000660407515031852	0.0021673862027758	-5.73873697350072E-06	-1.49291244533394E-06	-1.57428410548877E-06	-8.89799276110142E-06	0.981286283349755	-0.174427081036876
7.6	-0.000816027763093708	0.00268007455020526	5.62420194110804E-06	-3.38350692422783E-06	1.02097550828032E-06	3.19004453436837E-06	0.980697528512646	-0.177331357526679
7.7	-0.000962752348899725	0.00312432511762128	-6.50217124146634E-06	-2.86382700201124E-06	4.37491061329183E-06	5.67116341113607E-06	0.98031178909672	-0.180535222596885
7.8	-0.000814613690290562	0.00344075276099387	-1.08260810396844E-06	-5.35611556562753E-06	-2.13459648541616E-07	1.14342937373922E-06	0.980075262268168	-0.183736115498882
7.9	-0.0004880285134398	0.00363018006940109	-3.34783888353149E-06	7.20947748943395E-06	4.72007990561871E-07	-6.87996794658132E-06	0.97989502087244	-0.186951345752138
8	-8.94679428929245E-05	0.00376373906844225	-2.34610573489374E-07	7.38445295411009E-06	1.77276573317518E-06	-4.4569862293082E-06	0.979401737163426	-0.189879902925222
8.1	0.000324056125218098	0.00386913165082992	-7.36909030528313E-07	-6.4684694299234E-06	-1.74841969677532E-06	-1.06410297849319E-06	0.978903208416038	-0.192493599656504
8.2	0.000658102811825185	0.00397162080248139	-3.82867577781126E-06	1.65178509443846E-06	-1.09727887130936E-05	-2.61843232841497E-06	0.978597037745515	-0.194892730743494
8.3	0.000941560586925151	0.00411083395758616	-5.54809787136888E-06	-9.86420519291829E-06	-7.79015067446356E-06	3.02003694042936E-06	0.977984368571466	-0.197559927689656
8.4	0.00117259961306588	0.00435945533731422	6.77339385609321E-07	-6.10272316427152E-07	-1.41671630306902E-06	4.40615309300824E-07	0.977254969080932	-0.200174781468575
8.5	0.00140736309100619	0.00467896971043156	-1.75304217163117E-06	-2.5727858367203E-07	-7.98335918151505E-09	1.80424353806373E-06	0.976562210751937	-0.202918710778671
8.6	0.00173564724933495	0.00505220947132293	2.42806644849984E-06	-3.97340540059262E-06	-4.5651277656788E-06	-5.9241587342069E-06	0.976073739890061	-0.205530930104816
8.7	0.00215509283881257	0.00539759703550229	-1.49910176101726E-06	-2.09494428770259E-06	-3.55895977231494E-06	3.63872123208914E-06	0.975668860264133	-0.20811190905117
8.8	0.00269563926230247	0.00572875630178677	-5.49886493375048E-06	-2.12141915498339E-06	-7.23576789864093E-06	-1.2696427628435E-06	0.975267769100678	-0.2104305012818
8.9	0.00341129142031676	0.00587094771084037	8.55932250524526E-06	4.0975764491896E-06	-1.4178510260206E-06	3.20098550369466E-06	0.975248349715084	-0.212477908762635
9	0.00420155921963689	0.00579327284260882	-4.99883890576466E-07	4.16306215498949E-06	-7.82162121926168E-06	1.23073726579048E-06	0.975087313864072	-0.214813496833775
9.1	0.00503802851576678	0.00545993058447253	-2.55602760268797E-06	6.63827736172165E-06	4.10570650676585E-06	-3.08343683608807E-06	0.974777867852599	-0.217001374846879
9.2	0.00571943298918974	0.00492688134692949	-1.17629146679535E-06	3.42567121301036E-06	-2.24686849339117E-06	-2.05801993743558E-06	0.974322736164779	-0.219560791444684
9.3	0.0062324514341086	0.00435379517868268	2.32511304373488E-06	-4.04245691869441E-06	-7.93630417486199E-07	-1.78118860978688E-06	0.973880070720814	-0.222109277260463
9.4	0.00661345564025736	0.00375460306948326	-1.79906413219077E-06	3.89750829104716E-06	-2.06946959309432E-06	-3.58025023059196E-06	0.973262214971438	-0.22503734335982
9.5	0.00680797616876079	0.00338225612677196	3.49761469057481E-06	6.29510594425162E-06	3.66075663311789E-07	-2.15042441867352E-06	0.972481068824599	-0.227912831378307
9.6	0.00695008452657713	0.00302989502751915	4.6232614996803E-06	7.07709680443919E-06	-8.22802876724482E-06	1.2805852809017E-05	0.971750892237536	-0.231003567996441
9.7	0.00703915028342394	0.00279586679292284	-2.88260531435909E-06	-1.53347457590383E-06	-1.38741176504564E-06	-3.97122865945951E-06	0.971084627169815	-0.233596132180221
9.8	0.00713930839080707	0.00263722324153002	1.29752235113811E-07	-3.597127051324E-06	3.04650131560258E-06	2.4006035083765E-06	0.970783234129222	-0.235735252996233
9.9	0.00726452193373812	0.00259936898335681	5.8020770283544E-06	-6.14827783016566E-07	-2.56901111356835E-06	6.73043154607645E-06	0.970295741866275	-0.237682504597745
10	0.00743948016173141	0.00255858908886523	-1.14208810768241E-06	-5.78931340629961E-07	1.36458807382001E-06	-1.18723559802709E-06	0.969780643251137	-0.23929810375547
10.1	0.00775352011846698	0.00251468027292419	7.12213537590953E-07	-8.42243346827687E-06	6.15894233394543E-06	3.60787912110113E-06	0.969339775436776	-0.240928383652102
10.2	0.0081697900566235	0.00239054252193179	7.49981070591546E-06	8.32118078670393E-06	5.227767638064E-06	3.53076785126095E-06	0.968891411851311	-0.242421357444787
10.3	0.00865029850129856	0.00213978322343715	1.75499400421133E-06	-6.95825201613785E-06	1.42702351531828E-06	2.86792063396558E-06	0.968214431384123	-0.244293604218482
10.4	0.0091722763266317	0.0017278765536349	-4.02707821043397E-06	-3.63810437849741E-06	1.95254751073859E-06	-5.59610109842643E-06	0.967326190787047	-0.246426582790819
10.5	0.00958173342952684	0.00120296053269706	3.74168082235158E-07	-7.06463019175361E-06	-5.72832554228641E-06	4.07149492178353E-06	0.96644286447064	-0.248948165314908
10.6	0.0100789288380808	0.000684498028773147	5.48945783324187E-06	6.73487409668251E-06	2.43387727117824E-06	1.19376561422512E-06	0.965763720278368	-0.251401726695726
10.7	0.0104660791650096	0.000144887398058645	-7.07719482894328E-06	-1.68895217139937E-06	-7.72958627570691E-07	1.55966097128954E-06	0.965031701957434	-0.254118163962911
10.8	0.0108865685557352	-0.000458135293643681	1.48774761924479E-06	4.44238201195774E-06	9.41305910124404E-06	-4.47148159443505E-06	0.964314380307406	-0.256123570239726
10.9	0.0112225190439374	-0.00114374178147021	3.27476200840835E-07	7.42066872791767E-06	-5.16310407282106E-06	2.09332736337671E-07	0.964019069120576	-0.258059174642064
11	0.0115908817357102	-0.00187592316668929	-2.22695212864336E-06	-3.82548307009403E-06	1.20428894144058E-05	-3.56014122663279E-06	0.963526411457322	-0.259763529139231
11.1	0.0119502363371229	-0.00272617491729591	-6.12140771651764E-06	-4.93395330019933E-06	9.52430087157099E-07	5.57982355062359E-06	0.962883577814175	-0.261410348386273
11.2	0.0122376077629091	-0.00375911527170978	3.31808568077866E-06	4.30592135034535E-06	1.06119506624007E-06	-7.88237239652972E-06	0.962117422439067	-0.26314969009276
11.3	0.0124621448200362	-0.00497441322820414	7.12205101196425E-07	-2.65961195110444E-06	-4.84011041599516E-06	9.12233730808505E-06	0.961553102361714	-0.264976543052865
11.4	0.0123754000856293	-0.00629946095333423	1.47726476499155E-06	-2.20438327403906E-06	-3.01437484179581E-06	-7.44137450451199E-06	0.960618937116844	-0.267523711944419
11.5	0.0120301297767783	-0.00764504043874051	9.48230894799243E-07	-1.01077174989436E-06	-9.02736797488562E-07	-8.71724716639342E-07	0.959520426657374	-0.270263032831444
11.6	0.0115674954409139	-0.00903088856966391	1.12339622973746E-05	-3.28093209624471E-06	-5.42847769785309E-06	-6.83595549862948E-06	0.958372020856379	-0.273724323620962
11.7	0.0108883510654444	-0.0104017562383318	5.33030531199578E-06	-2.90147602991653E-06	-4.41331163009125E-06	1.65497260601611E-06	0.957218793760023	-0.277207565586331
11.8	0.0100592183207351	-0.0116352522616249	-4.52206052088248E-07	-2.54958786672149E-06	1.06892163985014E-06	1.32726270163322E-05	0.956243570648268	-0.280759348838103
11.9	0.00920408621223877	-0.0127641484821317	3.32771100717366E-06	1.9903274913699E-06	-1.21220365160567E-08	1.27449086715045E-05	0.955725498641477	-0.283295478160401
12	0.00805836282976404	-0.0137882295503146	2.0052076107273E-06	4.84026455545291E-07	-3.70173378092102E-06	-9.70345029433828E-07	0.954966057728972	-0.285710923918613
