# GHZ S RI R 50
0.2	0.00061536930298778	0.00385205446226729	6.30276417785224E-06	-1.00933716057992E-06	1.06681556272913E-05	1.04879891511106E-05	0.999245069067598	-0.00717704466913025
0.3	0.00123353083372254	0.00342141575829927	5.81613838090894E-06	5.03319534496543E-06	8.09406152949092E-06	2.9495471518674E-06	0.998961618400014	-0.0101146213686944
0.4	0.00170577551699393	0.00316331478951484	-2.70523454199617E-06	7.86656324047422E-06	-4.82078254784364E-07	-4.42848531965508E-06	0.998811202086914	-0.0127893269860976
0.5	0.00178235847640733	0.0031329080347482	2.30704426626935E-06	1.47840125768684E-06	7.50792715168067E-06	-1.05244208679157E-06	0.998349454462649	-0.0155755027636424
0.6	0.00230903381587033	0.00343145523232425	3.22798834043028E-07	3.53875463366553E-06	2.71795363282289E-07	-7.65893190163172E-06	0.998811582614896	-0.0183796910973624
0.7	0.00273154302776701	0.0033802531888169	4.1650340007877E-06	5.02619662397262E-07	-3.89373844430001E-06	-2.26928609023795E-09	0.998491271559215	-0.0215546073062009
0.8	0.00311965482546468	0.00334509950929895	-2.88529677991622E-06	2.96378155010484E-06	-6.81763948316424E-06	1.32182026865891E-06	0.998184085338734	-0.0238427148924548
0.9	0.00346644692439008	0.00320158650312875	6.03279212023827E-06	8.96125827489933E-07	-7.33705378591413E-06	-1.82828457935686E-06	0.997942251375157	-0.0263907195481307
1	0.00339465694777199	0.00282023987467029	2.3582103494292E-06	2.94099909671758E-06	-9.03461801147926E-06	-2.58747792715453E-07	0.997169590030767	-0.0281314701292424
1.1	0.00323069725568642	0.00313355490040501	6.43328584407717E-07	3.56681020042611E-08	-5.29635227997587E-06	1.40083005124836E-06	0.996729770777517	-0.0295710437431786
1.2	0.00337871159030537	0.00292482662588199	-5.28832246926254E-06	-3.28762721023905E-06	-1.11714305062653E-05	-1.26477167865645E-05	0.996355048840277	-0.0303618982409275
1.3	0.00313500271849461	0.00230427888027477	3.04639537535081E-06	3.10185859134742E-06	6.95333969927982E-06	-4.07905943933639E-06	0.996703750452786	-0.0310679242570428
1.4	0.00277035857936062	0.00153837474902666	-2.79682318806076E-06	-1.11393962650485E-06	5.70910597806833E-06	6.45896495963584E-08	0.996808155755406	-0.0330644300122493
1.5	0.00238080619846766	0.00130017159342473	1.24071542566392E-06	-2.53194452281003E-06	8.0063431316729E-07	2.51112457237646E-06	0.997252103544434	-0.0364730379041249
1.6	0.00273174481505976	0.00148634180775382	-9.31111353093086E-07	-6.41275330496729E-06	3.18502942552885E-06	-4.24085258965795E-06	0.996977899738901	-0.0398599103752559
1.7	0.00304340811863076	0.00141124495230557	3.40340885261239E-06	6.33738418662738E-07	2.23266323536458E-06	3.85083124844615E-06	0.997162143888679	-0.0425560067081513
1.8	0.00323921996573439	0.00146577525753112	-2.37681757036908E-06	2.89536635986897E-06	-1.01263008632895E-06	-3.99539017560211E-06	0.996941745605422	-0.0454029456578749
1.9	0.00338161711884396	0.00131625877755889	-3.72948698842203E-06	-1.7593274897078E-06	5.62530227060663E-06	3.02596121025513E-06	0.996678961452441	-0.0480300599952989
2	0.00311140576266359	0.0013860908932823	-6.16802705799086E-06	-5.74407386796918E-06	-2.07746761763022E-06	9.14232666791177E-06	0.995035195862331	-0.050737556022564
2.1	0.00335356838175118	0.00173436575756516	1.16664999191432E-06	4.60093779107334E-06	4.47350983358215E-06	3.98975170048005E-06	0.994913568556759	-0.0517908839524254
2.2	0.00356686171697423	0.00168593035966547	6.54734648581264E-07	9.06590897195113E-07	-3.61472533228833E-06	-1.09314542303298E-05	0.995427956454581	-0.0540423482200945
2.3	0.00362575263259411	0.00153327929570538	-2.28685143181803E-06	3.5548810993836E-06	-5.31889649066478E-07	-2.79434601192373E-06	0.995309337933377	-0.0559179696013904
2.4	0.00356821972449557	0.00128997719234599	-1.55391848593563E-06	-1.45620286272366E-06	1.2842395101057E-06	-9.96585814542505E-07	0.99535928353815	-0.0590611187918523
2.5	0.00297165430028996	0.00105261719104095	7.77846827740187E-06	4.06761538402227E-06	-2.33679161150269E-06	-7.22739598000863E-06	0.994890082523821	-0.0612916329709085
2.6	0.0026434868689898	0.00157745748325546	4.84400260140101E-07	2.11722514563356E-06	-1.47168438230039E-06	4.68298593927933E-06	0.994886743562882	-0.0639587068396765
2.7	0.00273378334327489	0.0019362712360347	-7.86864719262765E-06	5.23139001812322E-06	2.52316956244213E-06	9.71970784873546E-06	0.994596692490878	-0.0668391740736135
2.8	0.00305061152892748	0.00224120879702371	-7.74911087766223E-06	7.94449485634007E-06	5.99307062508365E-06	1.99159105152428E-05	0.994778910782298	-0.0686548434572839
2.9	0.00351273444982798	0.00222789510546049	-1.19051800780164E-06	8.58364944911306E-07	-8.11353117664497E-06	-2.97051216647097E-06	0.994699168530221	-0.07059824809755
3	0.00370660127225152	0.00224892366147198	-6.05066043578198E-07	-4.47321996796011E-06	-2.19198215390138E-06	6.43672949054971E-06	0.994693338745314	-0.0730450261395606
3.1	0.00434027142216292	0.0023344008746346	-2.58853494050094E-06	8.65064994669096E-08	1.10196472028231E-05	-3.51559344853969E-06	0.994477728121348	-0.0748878724027575
3.2	0.00478826286426993	0.00201602573174118	-9.80150655029552E-06	2.53609066716094E-06	1.21569208386925E-05	4.27707613686394E-06	0.994502310908309	-0.0765580433686221
3.3	0.00504814190559342	0.00156268753764468	-3.46955469865283E-06	9.28980342963898E-07	-5.01034831476505E-06	-1.49866142384686E-07	0.994604192575471	-0.0797210406544104
3.4	0.00508318083620683	0.00104770482675158	5.34839156084936E-06	4.94842414349131E-07	1.34871247681899E-06	4.4894380775232E-07	0.994997520015149	-0.0817756792746872
3.5	0.00464994174088131	0.00068370173536448	2.76949579709355E-06	1.56211366906589E-06	1.31282252658609E-06	7.94316864228024E-07	0.994919673838507	-0.0851278156918786
3.6	0.00458326101516616	0.000821364724850271	-7.15089410288336E-06	-1.38556438851087E-07	1.86815713749787E-06	-3.49735790151588E-06	0.994385905603139	-0.087458256562645
3.7	0.0045822545333257	0.00065010921668695	5.78079396809494E-06	-1.5077518729396E-06	-3.2363083110632E-07	-1.73359664707822E-06	0.994461856358796	-0.0900326217455536
3.8	0.00455476731560205	0.000506767912493962	-2.00430072666109E-06	8.75519812756885E-07	-5.19698356341232E-06	2.93964099750998E-07	0.994387904652979	-0.092207146397721
3.9	0.00451755976916745	0.000281491064512748	-8.37374873521836E-06	1.77631434235275E-06	-4.11987346823268E-06	-1.50355369911878E-06	0.994409724728632	-0.095843369492966
4	0.00411937240553351	0.000237161926622163	-5.82736410767458E-06	3.64303603132355E-07	-9.4960910599927E-06	-8.45903710682369E-06	0.993010418985168	-0.0972789973064399
4.1	0.00430840668742051	0.000597871704664208	-3.99408122438901E-06	4.06254942677402E-06	-1.88858782273478E-06	5.58159688609394E-06	0.993240467165827	-0.0980284567985708
4.2	0.00461193434765987	0.000460629882210199	4.6297841557234E-06	-4.38299637256976E-06	6.75874922930363E-06	7.63916241382949E-07	0.993352717392801	-0.100692372424806
4.3	0.00477423671677364	0.000200841432431536	-3.80115462213013E-06	1.12364730486071E-06	3.55395434216421E-06	-1.20326171798389E-06	0.993514880653595	-0.102879350153519
4.4	0.00474701442832184	-0.000221311091372193	-3.14540984576495E-06	-4.94397906467837E-06	9.32245101286937E-07	-1.03611146962367E-06	0.993189088276717	-0.105291547998533
4.5	0.0041363340113882	-0.000453127642839017	-1.39675648176464E-06	2.03048759473147E-06	2.16136182757383E-06	-8.48117693615994E-06	0.993281868423425	-0.107162338483279
4.6	0.00392850054654978	-0.000126140385783182	5.39073011942256E-06	9.6226692361227E-06	-1.42444379021167E-05	9.81062067901129E-06	0.993692809303839	-0.110126919122841
4.7	0.00390100457237864	-8.91554134162512E-05	-7.59418024588537E-06	-9.5930134210774E-06	-1.14733515428121E-06	-1.3683368429533E-07	0.993804328778638	-0.112500355403366
4.8	0.00386032044029642	-3.2797707203876E-05	-8.75845999530413E-06	-2.70578236247345E-06	-4.39519981371944E-06	4.54692169198214E-06	0.993501451027947	-0.115234457572611
4.9	0.00394999746687179	-0.000109036524641906	5.77321800523266E-06	8.3430681317943E-06	-7.27684954947172E-06	3.27659478699497E-06	0.993292077734525	-0.117211023416924
5	0.00379464166572359	-0.000159928603020558	4.30388026456651E-06	-8.56048605577379E-06	-4.29541854949728E-06	-6.2037150909079E-06	0.993373408903229	-0.119028635225129
5.1	0.00430339840504944	-1.06455532179775E-05	1.52762598679745E-05	-1.02600594800465E-05	3.50871942578905E-06	-8.74722483424916E-06	0.99357676307179	-0.120633970176646
5.2	0.00474052732553908	-0.000479951239856096	-4.24049407181564E-06	-4.73443353852159E-06	-3.17367977530429E-06	5.22233653197037E-07	0.993473952658343	-0.123167059026544
5.3	0.004891553597757	-0.00104628046298093	4.78719555785379E-06	3.3895434484328E-06	-9.3176527890317E-06	-4.77049291352801E-06	0.993364949570448	-0.125688842386251
5.4	0.00474846599835736	-0.00167208529954334	5.19478473863294E-06	1.210767459675E-06	-4.90373323769138E-07	1.04882051879203E-05	0.993644149545839	-0.128758927197156
5.5	0.00395581112650317	-0.00180110160282823	-1.81768236794188E-06	-1.98946916856691E-06	8.91448875399084E-06	5.16852216742805E-07	0.993334115783442	-0.132310935017405
5.6	0.00399704939774329	-0.00145727925606512	4.25710206646685E-06	7.25256099114598E-06	-4.64472062092061E-07	-8.63998127528376E-06	0.992795429654267	-0.134799749790842
5.7	0.00393208758175277	-0.00162087779719783	2.06200188846738E-06	-7.23751071785707E-07	5.48787759840458E-06	2.46308281121025E-06	0.992770595697371	-0.137476379430169
5.8	0.00368802408292619	-0.0017433606771272	3.92479487955367E-06	1.9667258239102E-06	2.74154817684242E-06	7.85865263836441E-06	0.99278503975614	-0.14015269665348
5.9	0.00338328875639014	-0.00192922087893612	-3.79595777690182E-06	-3.06408212382484E-06	-4.71429911678392E-06	-1.78230945083624E-06	0.992259931162464	-0.14334101053802
6	0.00231208655004761	-0.00208455252438005	-2.08040278591491E-06	1.70800159299463E-06	1.0451135788039E-05	-2.66833881630819E-06	0.990165945941112	-0.145082166439524
6.1	0.00177555775140018	-0.00125886669064546	-7.34526581133989E-06	-1.11084789460655E-06	-7.25839855246962E-07	-2.49016551467615E-06	0.990436177131069	-0.145150258196375
6.2	0.00162862133542157	-0.00092914860221678	-1.06500992598E-06	1.99452010282531E-06	-3.49221783241899E-06	-5.37842396141403E-06	0.99056874783918	-0.146705336285927
6.3	0.00158621500914078	-0.000802072218204843	1.58269368291949E-06	2.83803462256988E-06	1.15187471919894E-06	5.98881321718762E-06	0.990316262446808	-0.148965508733281
6.4	0.00144356937651161	-0.00106670903927675	2.07670786187692E-06	5.04785935791647E-06	-3.33989803907306E-07	2.27989030612524E-07	0.989624950126837	-0.151419181532461
6.5	0.000821430628718233	-0.000940278840273325	4.68123762893148E-06	-1.88210044556007E-06	-4.70209314116105E-06	-1.55407110958543E-06	0.989372826946136	-0.153287334724841
6.6	0.00106510885168498	-0.000633125781833864	3.26601065956998E-07	-1.07284123118915E-06	9.3304761318097E-06	3.34598392425447E-06	0.990301804702081	-0.156515599504156
6.7	0.00103927876189695	-0.000695214578770771	5.35876863838003E-07	5.63084651304079E-06	-1.79161912510925E-06	4.99208007077026E-06	0.989974283320998	-0.159788770931788
6.8	0.00090798259756271	-0.000586570452350522	1.74568044402694E-07	-1.59183297530438E-06	-3.4940140209322E-06	-5.13243062158302E-06	0.989294303202153	-0.162591544419266
6.9	0.000702829703606729	-0.000606426480753441	-6.6556445912082E-06	6.74793103018995E-06	2.29630161787169E-06	1.35513532455038E-06	0.988676597891056	-0.16524901464121
7	-0.000141263583125248	-0.000134109545173351	8.10831730108434E-06	3.162441033452E-06	4.59018569716759E-06	5.87392095075293E-06	0.987251662811818	-0.167120100690952
7.1	5.89584804746817E-05	0.000897380103348534	1.40112152908214E-06	7.83627901328774E-07	-2.2862584650248E-06	-4.48526862740289E-06	0.986951205437052	-0.168363738959768
7.2	0.000305218055805136	0.00122413502431387	-1.29270611888277E-07	4.40947287841264E-06	-5.02538821961776E-06	-6.52163849031862E-07	0.98653880543695	-0.17029852327531
7.3	0.000341412267602149	0.00148924659213049	1.34701038265148E-06	-5.27953976717802E-06	-2.35866565863931E-06	-2.79282989780753E-06	0.985804889997301	-0.172235583120917
7.4	0.000270219496157866	0.00148817053643596	1.85058450435441E-06	4.43124885425983E-06	-7.3212141026784E-07	-1.07114809630209E-06	0.98558074416405	-0.175150936395922
7.5	-0.000698853252001695	0.00150080594869285	-5.76433795337448E-06	-1.47584807330814E-06	-1.61417466080798E-06	-8.92262885406365E-06	0.983970346587939	-0.179513420795128
7.6	-0.000982920679205729	0.00258107653349668	5.62289559843052E-06	-3.41410992231385E-06	1.03632792412882E-06	3.19298411630876E-06	0.981982474354274	-0.181862228281875
7.7	-0.00100570190792285	0.00303761950425662	-6.52639392898694E-06	-2.84325278947453E-06	4.40627671314935E-06	5.66463226887365E-06	0.98145531803196	-0.184928225367196
7.8	-0.000823055717845537	0.00329776157412554	-1.10726953347745E-06	-5.36099271962144E-06	-2.08981338312663E-07	1.14635857792763E-06	0.981015415860237	-0.188376302061055
7.9	-0.000619675146511622	0.00330774564405565	-3.31765394530752E-06	7.2359776319286E-06	4.39324372316339E-07	-6.89205594810726E-06	0.980209353095127	-0.192289874898996
8	-0.000813852442616459	0.00383443633449323	-1.97122815066418E-07	7.38445273893027E-06	1.74987662243523E-06	-4.46525847742529E-06	0.977551790492333	-0.194759470879919
8.1	0.000162611053379508	0.00439682086177631	-7.62285935608343E-07	-6.46281676345262E-06	-1.75190854072802E-06	-1.05671119287541E-06	0.977551589698646	-0.195762819009091
8.2	0.000804125445632537	0.00433652407257674	-3.82121721743848E-06	1.6659387688027E-06	-1.09795373068084E-05	-2.57567922083515E-06	0.977694107922014	-0.1982067944408
8.3	0.00123793046188295	0.00429086534019346	-5.58317686435886E-06	-9.83835950295181E-06	-7.77494179075103E-06	3.04838145195946E-06	0.977052475680072	-0.201017363481404
8.4	0.00149983845395263	0.00415326388947874	6.74607819742505E-07	-6.12178078640922E-07	-1.41397721431058E-06	4.45292351221717E-07	0.976050166964406	-0.203684126840237
8.5	0.00102076476357268	0.00445077095082367	-1.75311405655206E-06	-2.51843651205033E-07	-2.49376426493333E-09	1.8035366136661E-06	0.975152268352109	-0.206027653641771
8.6	0.00161164053068871	0.00544564351909281	2.41270277238947E-06	-3.98117473925305E-06	-4.58560578132038E-06	-5.90557710858398E-06	0.974886387671805	-0.208666890584399
8.7	0.00239458761423543	0.00572914613468093	-1.50603918368022E-06	-2.08745983326601E-06	-3.54200709278636E-06	3.64963796948965E-06	0.974304622999973	-0.211388851379914
8.8	0.0031562322307238	0.00587451864606063	-5.499936208003E-06	-2.09770983388726E-06	-7.23136632179028E-06	-1.24038992223141E-06	0.973659505241378	-0.213722334500655
8.9	0.00398656449160063	0.00559795044655454	8.55902843710863E-06	4.06091810285362E-06	-1.40433593503297E-06	3.20047794571424E-06	0.973417657919532	-0.215754141346095
9	0.00417759984625744	0.00527924535070755	-4.85773371231609E-07	4.15872377327049E-06	-7.806487540301E-06	1.25414855377243E-06	0.972967471668824	-0.218138566355622
9.1	0.00503539094518123	0.00529869890640476	-2.52813601475304E-06	6.63563941140516E-06	4.08762916193379E-06	-3.09250161678357E-06	0.97228818914362	-0.220193361560068
9.2	0.0057411238099577	0.00469727998602807	-1.16262247717425E-06	3.42234191760253E-06	-2.24889272190765E-06	-2.04635937265468E-06	0.971579936156787	-0.222490868444982
9.3	0.00617621159871523	0.00410637895463681	2.30826793631157E-06	-4.04063457163191E-06	-7.97162462230366E-07	-1.77504701393003E-06	0.971086878972161	-0.224716850496297
9.4	0.00643475547426549	0.00337759387778554	-1.78533098830429E-06	3.89518660214262E-06	-2.07526659939884E-06	-3.56814974663988E-06	0.970700205431249	-0.227581372692918
9.5	0.00610596616076191	0.00335073432137232	3.51375738252157E-06	6.27314281561218E-06	3.58099381407341E-07	-2.14829218451564E-06	0.969459850056088	-0.230905017733437
9.6	0.00672785263465263	0.00350953532590477	4.63654920032847E-06	7.04294430263515E-06	-8.16212484537466E-06	1.28025563645366E-05	0.968271708980008	-0.233335902714585
9.7	0.00716222485251689	0.00315335650733444	-2.87923261477808E-06	-1.51995515724432E-06	-1.39603878785604E-06	-3.95548592798111E-06	0.967706630223085	-0.235619694862948
9.8	0.00745315818234382	0.00280692362604423	1.18363054064609E-07	-3.58670950684208E-06	3.04468284024759E-06	2.38407098190102E-06	0.967473026098465	-0.237795333153548
9.9	0.00764056760097659	0.00237202672454024	5.78020298609631E-06	-6.32206245387978E-07	-2.53764555495611E-06	6.71607602015354E-06	0.966578617651382	-0.240320034998356
10	0.00713959848028915	0.00225239033721732	-1.13815141395032E-06	-5.73052100601911E-07	1.35480116521941E-06	-1.18520686624887E-06	0.964191591103194	-0.24104024676917
10.1	0.00765041867323624	0.00272745148973763	6.96593632725935E-07	-8.38638218397457E-06	6.13715472715501E-06	3.58285626515817E-06	0.964641097784691	-0.241063478743678
10.2	0.00832952008752526	0.00253527130128695	7.48015088244019E-06	8.27700114250266E-06	5.21102991847306E-06	3.50928762967375E-06	0.96478427314225	-0.242549821260203
10.3	0.00895013824944399	0.00212186537186704	1.73911760579712E-06	-6.93131144415158E-06	1.42457596998521E-06	2.85417810371439E-06	0.964205917735714	-0.244451899898802
10.4	0.00946234129993887	0.00131943062316898	-4.01182446072697E-06	-3.61828569330231E-06	1.93907516719048E-06	-5.57234233634738E-06	0.963076075770172	-0.246493965195844
10.5	0.00923995753408351	0.000841191951850333	3.73848806380148E-07	-7.03591975389651E-06	-5.70578766808355E-06	4.05401368958891E-06	0.962244483588873	-0.248068372040238
10.6	0.00982396030577011	0.00070050482919417	5.47057294799501E-06	6.70933764696959E-06	2.42519573000773E-06	1.18898779727027E-06	0.96199091021749	-0.250619408825945
10.7	0.0102893103855678	0.000196240990680531	-7.04971458685113E-06	-1.68109337545152E-06	-7.69654004806782E-07	1.55367460404661E-06	0.961082997154981	-0.253227576651862
10.8	0.0107507016561256	-0.00034661453386114	1.48099271825505E-06	4.42363695179032E-06	9.37346719475109E-06	-4.45155991475814E-06	0.960155046087328	-0.254930920180177
10.9	0.0112249098958263	-0.00125879066035039	3.21298866236674E-07	7.38903448934979E-06	-5.14108190294768E-06	2.05114171954438E-07	0.960083888680809	-0.256472627380818
11	0.0110221946653557	-0.00186636056320613	-2.2145433122164E-06	-3.81294894730468E-06	1.19999871379292E-05	-3.53438763305148E-06	0.959524394287669	-0.257820136124504
11.1	0.0117569607513027	-0.00220031318574229	-6.09309691060469E-06	-4.92061843018516E-06	9.43505724390939E-07	5.55913591646903E-06	0.959232105551045	-0.258996384281337
11.2	0.0123834778617025	-0.00332271299644806	3.29968669840029E-06	4.2932178076761E-06	1.06692729272211E-06	-7.85016582086777E-06	0.958844674988136	-0.260505904600432
11.3	0.0128066102855487	-0.00475425416646604	7.13993773502566E-07	-2.64857281847319E-06	-4.83736381242744E-06	9.08048300377234E-06	0.958845523128585	-0.262227896134565
11.4	0.012781508023206	-0.00647450175424148	1.47708435585652E-06	-2.19469360991174E-06	-2.99041052124551E-06	-7.42447789926945E-06	0.958656823206185	-0.26504306714833
11.5	0.0118311711595346	-0.00779896915479739	9.46665081778753E-07	-1.00683041433537E-06	-8.99188857760614E-07	-8.7025553173596E-07	0.956908057776765	-0.268606370592711
11.6	0.0116751765693883	-0.00876367449515809	1.11977422074265E-05	-3.25296664427491E-06	-5.3989657442884E-06	-6.81880965097004E-06	0.955403880133155	-0.271143372178165
11.7	0.0112641803352681	-0.0103226104993696	5.31696761038308E-06	-2.88067358258792E-06	-4.4008037364429E-06	1.64041624285348E-06	0.954730351792035	-0.274319530213087
11.8	0.0105093943133269	-0.011852315733181	-4.45291278729693E-07	-2.5420980764381E-06	1.0371843448386E-06	1.32309066895887E-05	0.954114728485841	-0.278071535346386
11.9	0.00944641097304845	-0.0134735129339567	3.31311304972588E-06	1.98946699708107E-06	-3.4283254628987E-08	1.27022573951605E-05	0.953279646395145	-0.281452459962489
12	0.00736772178897702	-0.0142813638393832	1.99488634315096E-06	4.86405957981067E-07	-3.68250380821749E-06	-9.74384964883357E-07	0.95054365299349	-0.282775911697741
