# GHZ S RI R 50
0.2	0.000496247168293295	0.00358793867952679	6.30688272452884E-06	-1.00657925983466E-06	1.06686790222853E-05	1.04995944193918E-05	0.999699687335623	-0.0069193312053495
0.3	0.00114961422332531	0.00326898544153254	5.81774684120459E-06	5.03902350347313E-06	8.0980684279426E-06	2.95500613482836E-06	0.999536040577334	-0.00984070774124163
0.4	0.00164154924305212	0.00315835843998433	-2.7100233085371E-06	7.87251117696517E-06	-4.81113419217035E-07	-4.43245897563588E-06	0.999612698053719	-0.0124970238754078
0.5	0.00201887075639795	0.00308848040154028	2.30896425165175E-06	1.47938489809113E-06	7.51373091636361E-06	-1.05383602016227E-06	0.999365554495669	-0.0157099509377869
0.6	0.00233734821624107	0.00309565068202074	3.2236711064784E-07	3.54081606920674E-06	2.73279673116319E-07	-7.66322491484806E-06	0.999408477652503	-0.0185547190266703
0.7	0.00256574340174761	0.00313787202943233	4.16814243030383E-06	5.04288620085224E-07	-3.89678757762235E-06	-3.46327014577177E-09	0.999113117752965	-0.0215116519054762
0.8	0.00285697606240711	0.0032034988251326	-2.88902955025824E-06	2.96582406552722E-06	-6.82474288533847E-06	1.32105994928301E-06	0.998908265855966	-0.0237102949258872
0.9	0.00307439914765285	0.003251582224061	6.03989061890474E-06	8.9882733591763E-07	-7.34548969495385E-06	-1.83246830579751E-06	0.998768306032963	-0.026110764389961
1	0.00329542587884821	0.00326168353740359	2.36171325589399E-06	2.94517266705077E-06	-9.0476818493212E-06	-2.58829315258368E-07	0.998504587995154	-0.027766708463545
1.1	0.00339177568411082	0.00319961324208301	6.44152250050388E-07	3.55818449769428E-08	-5.30278688773385E-06	1.40369044559577E-06	0.998140336261373	-0.0297494958030669
1.2	0.00337731936724351	0.00285775122172842	-5.29560162650868E-06	-3.29042708415503E-06	-1.11881494806478E-05	-1.26606467016381E-05	0.997566368840292	-0.0307060149083472
1.3	0.0030284805817985	0.00217889041399119	3.05100889162411E-06	3.10425424259794E-06	6.9597301457017E-06	-4.08627560424956E-06	0.997711563792641	-0.0316006819533686
1.4	0.0025576280635492	0.00145834818614893	-2.80002407495776E-06	-1.11365649084513E-06	5.71457768565937E-06	6.19062982388985E-08	0.997522752510393	-0.0336517900204919
1.5	0.00238364789449901	0.00116541823172961	1.24075347820603E-06	-2.53473978393931E-06	8.02416827296219E-07	2.5130354050259E-06	0.998127813734092	-0.0370640407259196
1.6	0.00246153831253022	0.00122758111776454	-9.34744455687059E-07	-6.41901807916796E-06	3.18656941561461E-06	-4.2465764368682E-06	0.99771906046461	-0.0405670889562825
1.7	0.00272156697631353	0.00136466017950834	3.40764965727672E-06	6.32808024741122E-07	2.23712313377806E-06	3.85418875212939E-06	0.997967244273718	-0.0431350204232551
1.8	0.00296102804831239	0.00155841087265277	-2.37812843933403E-06	2.90005870447184E-06	-1.01593018890959E-06	-3.99961466036636E-06	0.997820942216918	-0.0458846013981031
1.9	0.00320097252128868	0.00160780022349238	-3.73473823321796E-06	-1.76024293733826E-06	5.63335041665199E-06	3.02780607744953E-06	0.997719214683707	-0.0481377636558049
2	0.00340021158133572	0.00164039092891407	-6.18214079699989E-06	-5.75349307884237E-06	-2.07863924330628E-06	9.16116481690912E-06	0.99727969271814	-0.0509049746987588
2.1	0.00351220335622396	0.00156856416012303	1.17420595900845E-06	4.60867178656772E-06	4.48688423849142E-06	3.99250293907999E-06	0.996966755583089	-0.0531934487040682
2.2	0.00352737771645788	0.00153299328877599	6.57009017025144E-07	9.07262952633715E-07	-3.63496775458027E-06	-1.09451083947959E-05	0.996982000702832	-0.0555735203364586
2.3	0.00347046653587828	0.00144659926394364	-2.28566016078297E-06	3.56362246653547E-06	-5.36522376798691E-07	-2.79805877172027E-06	0.996651714991778	-0.0574387687051292
2.4	0.00330687629726869	0.00140292353152311	-1.55857116910388E-06	-1.45618415428698E-06	1.284783882796E-06	-1.00009535591227E-06	0.996584571158813	-0.0605343449852314
2.5	0.00306309186699764	0.00142552877694696	7.79629509710639E-06	4.05917310398474E-06	-2.35291714032296E-06	-7.23299106455645E-06	0.996214460248619	-0.0627842685184542
2.6	0.00288300808695724	0.00159613308596904	4.88395601979124E-07	2.11883979433066E-06	-1.46573359940969E-06	4.69069594610393E-06	0.996147707400199	-0.0656292419375788
2.7	0.00286952577864317	0.00183313172942952	-7.86982365763302E-06	5.250617355371E-06	2.54207412378869E-06	9.72756411623653E-06	0.995843751054771	-0.0686396639837153
2.8	0.00306703947157408	0.00210109445815158	-7.74480041100531E-06	7.96845202909824E-06	6.03626353656427E-06	1.99305860008146E-05	0.995935777156268	-0.0706570898251208
2.9	0.0034541228441595	0.00220991388622969	-1.19020294013211E-06	8.61813540665661E-07	-8.12930237050678E-06	-2.95759446045679E-06	0.99568428390619	-0.0727170122066725
3	0.00390581514468288	0.00221441662926459	-6.15068158775845E-07	-4.475740661654E-06	-2.18019409932641E-06	6.44685240724001E-06	0.995576350474976	-0.0752438776449734
3.1	0.00434261596705981	0.00204883739504351	-2.59060360570052E-06	9.18460038994958E-08	1.10220527659434E-05	-3.54105338846854E-06	0.995180895640211	-0.0772660601712442
3.2	0.00463492212848241	0.00181131949499587	-9.80365916276342E-06	2.55994566543804E-06	1.21761270994833E-05	4.25339736684238E-06	0.994963079944078	-0.0790304399928592
3.3	0.00481300787398753	0.00145726761321414	-3.46934431820968E-06	9.37984174462773E-07	-5.01367851423136E-06	-1.37746382158993E-07	0.994757637520131	-0.0822856306433805
3.4	0.00481691769837788	0.00114379599993341	5.35060007866397E-06	4.80898374497394E-07	1.35011963750642E-06	4.45482706838111E-07	0.994683200175583	-0.0842891101537044
3.5	0.00473307353118168	0.000844264979344748	2.77203619350088E-06	1.55557813995508E-06	1.31414424578475E-06	7.91201934149699E-07	0.99450839168353	-0.0871017524550747
3.6	0.0045467197269919	0.000668296658949916	-7.15128521441313E-06	-1.23870842508268E-07	1.86100152808776E-06	-3.50124712186621E-06	0.994184015190729	-0.0896466337435761
3.7	0.00435417775243035	0.000582057998172785	5.7769645599816E-06	-1.52070760533518E-06	-3.27525486711271E-07	-1.73273874602643E-06	0.993957455775111	-0.0923323962437949
3.8	0.00425573189332881	0.000600818115934461	-2.00169235773057E-06	8.79829929679593E-07	-5.19473238093838E-06	3.05740673257922E-07	0.993576878084894	-0.0943461056093004
3.9	0.0042725259397551	0.000644829037436505	-8.36638063789978E-06	1.79241605706085E-06	-4.12104781650585E-06	-1.4945578063711E-06	0.99352383806348	-0.0974361034375413
4	0.00438360784023446	0.000640123867688134	-5.82733770295038E-06	3.76010666716107E-07	-9.51416647636308E-06	-8.44105131442577E-06	0.993198532494775	-0.0988677003088811
4.1	0.00453059899946446	0.00056789508460116	-3.98249033903447E-06	4.07251931860736E-06	-1.87330514308281E-06	5.58565789718696E-06	0.993022697364633	-0.100689318971091
4.2	0.00466075571465194	0.00039445145302533	4.61535587655883E-06	-4.39267004608839E-06	6.7567221556969E-06	7.45494521572828E-07	0.992541142730409	-0.103325867739418
4.3	0.00472214069389173	0.000182141234818045	-3.79527311293601E-06	1.13259887503075E-06	3.54806041921757E-06	-1.21151162375558E-06	0.992424245562836	-0.105377594492204
4.4	0.0046513643538823	-4.9761681346004E-05	-3.15601778916826E-06	-4.93140475601296E-06	9.28687131645079E-07	-1.0377401356199E-06	0.991984035100545	-0.107683924700927
4.5	0.00446911074728092	-0.000209250316546597	-1.38857900554722E-06	2.03201823666184E-06	2.13223258441731E-06	-8.47623707381199E-06	0.991931887286483	-0.10982726325035
4.6	0.00420405143278503	-0.000321049636919541	5.40502851059018E-06	9.58955071667136E-06	-1.4190655434229E-05	9.82815075084087E-06	0.991713918381902	-0.112676909876835
4.7	0.00397553992514984	-0.000332919861476632	-7.6004263254907E-06	-9.556129004851E-06	-1.14529761025251E-06	-1.33947536568556E-07	0.991594622878319	-0.114763990115629
4.8	0.00379745498322384	-0.000248777069444289	-8.74596123275617E-06	-2.68149631990159E-06	-4.37635745429177E-06	4.5467992722247E-06	0.991130920970466	-0.117317747600515
4.9	0.00379219826807861	-0.000152729630524661	5.77852528398904E-06	8.31235569801667E-06	-7.25384822965984E-06	3.28507844090635E-06	0.990714368671619	-0.119128163738272
5	0.00395125507135754	-0.000190167934356868	4.27503195846076E-06	-8.54599490000533E-06	-4.29627859848274E-06	-6.17830577446291E-06	0.990615362614617	-0.120727440876919
5.1	0.00420972626414107	-0.000321687549902004	1.52195775000491E-05	-1.02557669832299E-05	3.4859626305624E-06	-8.72906669125588E-06	0.990640812576223	-0.122127717289991
5.2	0.00444941698156438	-0.000617764680498713	-4.2361746467819E-06	-4.71580483026309E-06	-3.16455496243646E-06	5.25456151620549E-07	0.990398692462764	-0.124413673702611
5.3	0.00458281430498549	-0.000988703916029694	4.77907843919307E-06	3.37323417814338E-06	-9.29916924885244E-06	-4.74374739814334E-06	0.990169569320323	-0.126742430496321
5.4	0.00455204075540216	-0.00135647641801441	5.18041430589541E-06	1.19902468485938E-06	-4.72768602439102E-07	1.0456196753339E-05	0.990164784539342	-0.129561136582844
5.5	0.00433582942133015	-0.0016208454813686	-1.81255240869073E-06	-1.98064159484423E-06	8.88189919810777E-06	5.07769870273423E-07	0.989946466113385	-0.132443302372189
5.6	0.00405586109997723	-0.00178022439896606	4.24577631462402E-06	7.22787648391986E-06	-4.65782629468821E-07	-8.61206920844411E-06	0.989633954427312	-0.135016097246047
5.7	0.00367505431656332	-0.00182247658871756	2.05530313994463E-06	-7.22072885053578E-07	5.47132485887855E-06	2.45373754718097E-06	0.989362021591301	-0.137540895520885
5.8	0.00328088005793792	-0.00174872634439023	3.91234770409282E-06	1.96023506516644E-06	2.73318828674778E-06	7.83338478419953E-06	0.989207947346922	-0.13976920857871
5.9	0.00289739809541823	-0.00153424311509045	-3.78312432695258E-06	-3.05676977179396E-06	-4.69934408945125E-06	-1.77927402140675E-06	0.988886519216229	-0.142045795878809
6	0.00252539616076059	-0.00131565237586222	-2.0767297936781E-06	1.7041468859388E-06	1.04312595229489E-05	-2.66058158712862E-06	0.988473544224325	-0.143796746728728
6.1	0.00222367834314608	-0.00107462283654209	-7.32754035772196E-06	-1.10451734329639E-06	-7.25244646514577E-07	-2.48362074212327E-06	0.988355423767529	-0.14509089594204
6.2	0.00195202573311322	-0.00093588123524715	-1.06147379261439E-06	1.98897947799564E-06	-3.48330852717843E-06	-5.36204895512797E-06	0.987991660081983	-0.146515149183174
6.3	0.00176724775391797	-0.000896157770637889	1.57768879569328E-06	2.8298352063967E-06	1.14777634864442E-06	5.97125661865238E-06	0.987593956528184	-0.148505655455827
6.4	0.0015466481643027	-0.000988175646194064	2.06969733704569E-06	5.03490116171814E-06	-3.33158205249867E-07	2.27282041230773E-07	0.98711849515134	-0.150654968276999
6.5	0.00132611159723108	-0.00107853965780583	4.66658996361528E-06	-1.8779172328071E-06	-4.68846079322185E-06	-1.54792933515517E-06	0.98686385273713	-0.153277569219418
6.6	0.00109076632090471	-0.00106839947139109	3.25864234172438E-07	-1.06864909003393E-06	9.29378457183684E-06	3.33767111382161E-06	0.986675642171275	-0.15590690991292
6.7	0.000873867327404063	-0.000926970536230949	5.27612963357914E-07	5.61112411883667E-06	-1.79076379573552E-06	4.9720469937444E-06	0.986420746681758	-0.158333331035827
6.8	0.000662360751983537	-0.00067447647261043	1.76358132946292E-07	-1.58618355700541E-06	-3.47451001674125E-06	-5.12028369572973E-06	0.985947718496946	-0.16065190956978
6.9	0.00047184575471526	-0.000348650149890471	-6.64616981226695E-06	6.7150301670141E-06	2.28667570506783E-06	1.35479812232432E-06	0.985596468017183	-0.162764291984768
7	0.00034832391257365	3.83662948610527E-05	8.07738718306632E-06	3.16785519551301E-06	4.56503574274447E-06	5.86438829338906E-06	0.985007913714966	-0.164587058894937
7.1	0.000197441514733294	0.000435509211801723	1.39530562898871E-06	7.84238654849472E-07	-2.27003325018836E-06	-4.47672190069859E-06	0.984506630613646	-0.166249122181119
7.2	6.67128498074006E-05	0.000849340765313378	-1.38698522072289E-07	4.39654016890194E-06	-5.00952723195734E-06	-6.61460883785688E-07	0.983852005118138	-0.167989412925684
7.3	-0.000130531303118878	0.00128397014316229	1.35506176235502E-06	-5.26118608311683E-06	-2.34550429035557E-06	-2.79007592572449E-06	0.982869219405876	-0.169705494404837
7.4	-0.000415518058179585	0.00172417839344085	1.83354755136411E-06	4.4207290822456E-06	-7.27038096501149E-07	-1.06929710176515E-06	0.981971862140535	-0.171917450368501
7.5	-0.000711926114533316	0.00222505766749491	-5.73834811327533E-06	-1.49296090933267E-06	-1.57397014242035E-06	-8.89748479915777E-06	0.981178568342358	-0.17433489439086
7.6	-0.00087825983473457	0.00275165882786422	5.62379772190573E-06	-3.38332338211476E-06	1.02093174769629E-06	3.18982225403216E-06	0.980568069851941	-0.177255678298553
7.7	-0.00101619979355493	0.00321831137482134	-6.50156954546369E-06	-2.86345980869904E-06	4.37455505017538E-06	5.6705481577249E-06	0.980159254522184	-0.180436408011497
7.8	-0.000854290106786212	0.00355470407707094	-1.08259488496452E-06	-5.35545622736893E-06	-2.13409678246436E-07	1.14329819094389E-06	0.979914809568664	-0.183621452904712
7.9	-0.000497016653371514	0.00375778947434879	-3.34730871474608E-06	7.20874148548801E-06	4.71807200488565E-07	-6.87920705198433E-06	0.979773280851372	-0.186822012599341
8	-6.45048328348441E-05	0.00385753193923187	-2.34075858312064E-07	7.38404408775102E-06	1.77234902574911E-06	-4.45685458097084E-06	0.979356049440612	-0.189844389113803
8.1	0.000344397918065808	0.00394831375352865	-7.37549185797548E-07	-6.46783012170388E-06	-1.74838435450898E-06	-1.06382074883713E-06	0.9788175078922	-0.192503821028713
8.2	0.000691784436487602	0.00403040985279148	-3.82820766878405E-06	1.65202481624842E-06	-1.09721622098157E-05	-2.61715486914367E-06	0.978532781918601	-0.194912914760577
8.3	0.000972965348554579	0.00414272799000885	-5.54864058438907E-06	-9.86314212623591E-06	-7.78943073002259E-06	3.02054500344051E-06	0.977941014622448	-0.197601865096266
8.4	0.00119623266724039	0.00438276063251749	6.77259105919488E-07	-6.10312135968074E-07	-1.41662477536812E-06	4.40728837845783E-07	0.977224624496885	-0.200233102508323
8.5	0.00144197741433166	0.00467442317111392	-1.75296373764644E-06	-2.57119582488552E-07	-7.8343082270924E-09	1.80414166244062E-06	0.976524392486225	-0.20299160766373
8.6	0.00173673737646399	0.00504058829642292	2.42779699369506E-06	-3.9733907485556E-06	-4.56526055963955E-06	-5.92374615885193E-06	0.976032834275751	-0.205581998805709
8.7	0.00215217688600958	0.00539860492829714	-1.49917736519498E-06	-2.09483487317867E-06	-3.55872084140186E-06	3.63883060255703E-06	0.975638455371559	-0.208154549313291
8.8	0.00269547397785465	0.00573549723369724	-5.49892060074259E-06	-2.12109261604489E-06	-7.23575731081653E-06	-1.26923001920136E-06	0.975244834042253	-0.21047499644861
8.9	0.00341816638110983	0.00589131208259832	8.55960091075292E-06	4.0968660416817E-06	-1.41758602190486E-06	3.20108043520286E-06	0.975231987133685	-0.212534242749873
9	0.00423839824484902	0.00580342072597173	-4.99478288150104E-07	4.16301954719148E-06	-7.82133538736292E-06	1.23145239966721E-06	0.975082189177	-0.214890704762177
9.1	0.00506833571777255	0.00545323927482831	-2.55527699931596E-06	6.63853833249258E-06	4.10534711886562E-06	-3.08388391572757E-06	0.974779697023881	-0.217115602897261
9.2	0.00574742779254287	0.00490430565856207	-1.17584454521897E-06	3.42579598127365E-06	-2.24711485798069E-06	-2.05771716611776E-06	0.974314685382692	-0.219705661043228
9.3	0.00623817654694754	0.0043116050758301	2.32460539518725E-06	-4.04267209549374E-06	-7.93828139850256E-07	-1.78107003296418E-06	0.973845345504245	-0.222261923396532
9.4	0.00658765611738118	0.00371723966737302	-1.79868080690748E-06	3.89756787092013E-06	-2.06972932313867E-06	-3.57998153581687E-06	0.973192712636073	-0.225153177948778
9.5	0.00676667155141662	0.00333969888009385	3.49773425419266E-06	6.29500387381808E-06	3.66028067665E-07	-2.15042294862346E-06	0.972430726557864	-0.227975180730608
9.6	0.00687555681807919	0.00301290201544868	4.62352263250169E-06	7.07716843216366E-06	-8.22795430866281E-06	1.28063346597648E-05	0.971694595886893	-0.231046849080833
9.7	0.00696638106978765	0.00280411078925891	-2.88265913982162E-06	-1.53346622652754E-06	-1.38747000256588E-06	-3.97126781272439E-06	0.971022385471157	-0.233600829664555
9.8	0.00706891250205383	0.00266051391455875	1.2979792415179E-07	-3.59713268677756E-06	3.04647715988917E-06	2.40064683587768E-06	0.970717854868364	-0.235700323227274
9.9	0.00720116700693698	0.00264728583420255	5.80218331702334E-06	-6.14564055840421E-07	-2.56936086400556E-06	6.73040100767699E-06	0.970256362944225	-0.237592447907167
10	0.00740540448111966	0.00260500130329005	-1.14212485347242E-06	-5.78980452293476E-07	1.36467187932937E-06	-1.18725759836976E-06	0.969793020095769	-0.2392414006013
10.1	0.00771193269630973	0.00256689276997354	7.12552606908689E-07	-8.42247428610485E-06	6.15885004170074E-06	3.60815235640621E-06	0.969315754310862	-0.240839896915855
10.2	0.0081408043338401	0.00245682385960169	7.49933397752198E-06	8.32198981532149E-06	5.22761681222795E-06	3.53127469674355E-06	0.968906300980166	-0.24228418601499
10.3	0.00863251624368529	0.00221678220722053	1.75586096805348E-06	-6.9584324515908E-06	1.42678214662711E-06	2.86823367996185E-06	0.968275962964066	-0.244123292845498
10.4	0.00917695597675116	0.00182545583729961	-4.02695826464404E-06	-3.63892709097702E-06	1.95342631802849E-06	-5.59632944722341E-06	0.967444317486094	-0.246228169871547
10.5	0.00967401182455114	0.00132360859442893	3.75309157218673E-07	-7.06554012395777E-06	-5.729738248668E-06	4.07116892097425E-06	0.966675057320206	-0.248659947994776
10.6	0.0101045335486285	0.000707222299101738	5.48850456367667E-06	6.7358425785989E-06	2.43373325932014E-06	1.19416439448672E-06	0.965872726629998	-0.251296811771499
10.7	0.0105476498965043	0.000160154505516339	-7.07760656154067E-06	-1.69033791165542E-06	-7.73303790330717E-07	1.55968273226069E-06	0.965251633828917	-0.253963647655386
10.8	0.0109460325736011	-0.000479292311016745	1.48719631580102E-06	4.44301020944266E-06	9.41459355929922E-06	-4.47043185007806E-06	0.96449919611823	-0.256020374487371
10.9	0.011254292738152	-0.00117075742727551	3.2657136497797E-07	7.42123028660201E-06	-5.16349247527389E-06	2.08701876444542E-07	0.964149236555757	-0.25798497696191
11	0.0116181371948864	-0.00192229991747789	-2.22662461040086E-06	-3.82590004343164E-06	1.20438179120998E-05	-3.5589577153054E-06	0.963624284619527	-0.259715299118563
11.1	0.01194422646938	-0.00277104105767969	-6.12124492009748E-06	-4.93476195779194E-06	9.51956876716243E-07	5.58018239169481E-06	0.962947108117779	-0.261379539609263
11.2	0.012223498570939	-0.00379488442742565	3.31795684677994E-06	4.30633567716769E-06	1.06175846485163E-06	-7.88266496005037E-06	0.962162918458803	-0.263135333548148
11.3	0.0124475852500771	-0.0050081987431508	7.12359622287737E-07	-2.65970209964363E-06	-4.84075103706034E-06	9.12253685592192E-06	0.961594710186139	-0.264980146503508
11.4	0.0123578047632924	-0.00632166822167468	1.47738269626291E-06	-2.20437396194718E-06	-3.01415137111404E-06	-7.44165409276306E-06	0.96063231466755	-0.267515605843194
11.5	0.0120199920407234	-0.00767759236482808	9.48328769695919E-07	-1.01074174840235E-06	-9.02708355128635E-07	-8.71812938489701E-07	0.959558247986097	-0.270241279058951
11.6	0.0115315969862633	-0.00906176829861221	1.12344643118686E-05	-3.28064314806769E-06	-5.42841942907765E-06	-6.83638358638144E-06	0.958377858623064	-0.27373041278453
11.7	0.0108437089431255	-0.0104198827087679	5.33041338292131E-06	-2.90132934781427E-06	-4.41337888130807E-06	1.65484810522897E-06	0.95718602035407	-0.27719855442761
11.8	0.0100071470101784	-0.0116370342630191	-4.52108618484921E-07	-2.54954443671263E-06	1.0684440899995E-06	1.32723570776728E-05	0.956179156706532	-0.280722562056821
11.9	0.00916147929946288	-0.0127402146949635	3.32751406915758E-06	1.99044709113543E-06	-1.27913365132773E-08	1.2744554289568E-05	0.955671145362448	-0.283214215622795
12	0.00804373549029678	-0.0137816929844292	2.00520372021401E-06	4.84042366469974E-07	-3.70172598894551E-06	-9.70374400153541E-07	0.954954113459463	-0.285696927479794
