# GHZ S RI R 50
0.2	0.000496193382350504	0.00358801013812076	6.30688306891234E-06	-1.00657995823499E-06	1.06686808188163E-05	1.04995940980331E-05	0.99969964910071	-0.00691938127663683
0.3	0.00114957822353818	0.00326907734254236	5.81774782265583E-06	5.0390228140541E-06	8.09806918036978E-06	2.95500502198063E-06	0.999536003089531	-0.00984077551486221
0.4	0.00164149841037316	0.00315849370283504	-2.71002195068636E-06	7.87251208299624E-06	-4.81114283695168E-07	-4.43245910518913E-06	0.999612693080972	-0.0124970714952478
0.5	0.00201892792366757	0.00308868973608982	2.30896494440842E-06	1.47938406224351E-06	7.51373086499178E-06	-1.05383902340815E-06	0.999365764196909	-0.0157101397671233
0.6	0.00233742093135524	0.00309573453325738	3.22368609404118E-07	3.54081530335851E-06	2.7327625825267E-07	-7.66322368393184E-06	0.999408551426795	-0.0185552291825491
0.7	0.00256574774694138	0.00313795296774775	4.16814162714034E-06	5.04286793129651E-07	-3.8967866353299E-06	-3.4616754661044E-09	0.999113019317858	-0.0215122736055346
0.8	0.00285693394008951	0.00320358663584425	-2.8890274882266E-06	2.96582441594638E-06	-6.82474037810464E-06	1.32106240805591E-06	0.998907993032491	-0.0237110121302597
0.9	0.00307423140809187	0.00325168692624381	6.03988911290753E-06	8.98824650202167E-07	-7.34548815821413E-06	-1.83246481130978E-06	0.998767757957509	-0.0261114683951167
1	0.00329517509116123	0.00326208309021585	2.36171408116699E-06	2.9451709240982E-06	-9.04767994671471E-06	-2.58825101126593E-07	0.99850398516132	-0.0277670073025631
1.1	0.00339169670441923	0.00320005338110292	6.44152064785309E-07	3.55814762338708E-08	-5.30278442120443E-06	1.40369294119744E-06	0.998140044623485	-0.0297496978508457
1.2	0.00337720871778242	0.00285830346662556	-5.29560167002806E-06	-3.29042321116629E-06	-1.11881526058974E-05	-1.2660636681247E-05	0.997566398026796	-0.030706044868945
1.3	0.00302851371324577	0.00217953900074979	3.05100987084151E-06	3.10425115178372E-06	6.95972502886906E-06	-4.08627876013537E-06	0.997712145449014	-0.0316008401992969
1.4	0.00255771145806722	0.00145885063447875	-2.80002320224648E-06	-1.1136532456637E-06	5.71457392871294E-06	6.19011500974614E-08	0.997523262661954	-0.033652589863468
1.5	0.00238378564506308	0.00116582877710685	1.24074975023368E-06	-2.53473800788587E-06	8.02418194009711E-07	2.51303179501925E-06	0.998127808148666	-0.0370651844898821
1.6	0.0024614863232088	0.00122775030548909	-9.34748302713069E-07	-6.41900843813215E-06	3.1865615995595E-06	-4.24657310667567E-06	0.997718309888368	-0.0405686364894754
1.7	0.00272135232019563	0.00136491673768523	3.40764501919385E-06	6.32804445074555E-07	2.2371227406034E-06	3.8541812292323E-06	0.997965803996821	-0.04313649901851
1.8	0.0029607446471719	0.00155875960713934	-2.3781222622079E-06	2.90005571192724E-06	-1.01593157130253E-06	-3.99960723566764E-06	0.997818987887175	-0.0458858777920499
1.9	0.00320060415659644	0.00160832744799721	-3.73473198849986E-06	-1.76023727108764E-06	5.63334121968974E-06	3.02779680266759E-06	0.99771673053701	-0.0481384945258669
2	0.00340012131395348	0.00164121308574964	-6.18213025269251E-06	-5.75348287470857E-06	-2.07863532197633E-06	9.16114897308229E-06	0.997277786700397	-0.0509046487398062
2.1	0.00351228102490953	0.00156911552237008	1.17420599109278E-06	4.60866451215725E-06	4.48687912931602E-06	3.99249530427978E-06	0.996965404775578	-0.0531937711101019
2.2	0.00352736515455568	0.0015334736105705	6.57008237280455E-07	9.07261099984717E-07	-3.63496584791231E-06	-1.09450877879858E-05	0.996980317498021	-0.05557399239855
2.3	0.00347035127069914	0.00144704577550045	-2.28565495760535E-06	3.56361620690144E-06	-5.36522014162333E-07	-2.79805330605109E-06	0.996649742119207	-0.0574391272000721
2.4	0.00330651230952777	0.00140343323252831	-1.55856822783226E-06	-1.45618125131589E-06	1.28478134142235E-06	-1.00009348716884E-06	0.996582258065948	-0.0605343872733825
2.5	0.00306269117613978	0.00142653300042898	7.79628006122324E-06	4.05916384528648E-06	-2.35291346958781E-06	-7.23297623197162E-06	0.996212112648302	-0.0627836768560378
2.6	0.00288292131234513	0.00159717834024194	4.88394200093746E-07	2.11883483314966E-06	-1.46573067137031E-06	4.69068466816759E-06	0.996145602320467	-0.0656282553205409
2.7	0.00286956839050049	0.00183413662547828	-7.86980822386976E-06	5.25060168338691E-06	2.54206373968123E-06	9.72754317338448E-06	0.995842140137314	-0.0686384192328857
2.8	0.00306710424669668	0.00210196941842849	-7.74478961227844E-06	7.96843100289813E-06	6.03623886215082E-06	1.99305492119834E-05	0.995934668954116	-0.0706559780803399
2.9	0.00345405295063319	0.00221080070980347	-1.19020137381805E-06	8.61811268125532E-07	-8.12928612293529E-06	-2.95759432540973E-06	0.995683480276855	-0.0727160734898885
3	0.00390595147855859	0.00221549689891965	-6.15064521606608E-07	-4.47573284023991E-06	-2.18019374343379E-06	6.44683941847609E-06	0.995575914273241	-0.0752429691332707
3.1	0.00434283988278877	0.00204962070373462	-2.59059924085395E-06	9.18433880764934E-08	1.10220371841603E-05	-3.54103684530883E-06	0.995180840281348	-0.0772654191356083
3.2	0.00463505368678167	0.00181202781729985	-9.80364750272332E-06	2.55993152810049E-06	1.21761047444488E-05	4.25340402920796E-06	0.994963143355115	-0.0790301490630179
3.3	0.00481306373487465	0.00145790865642158	-3.46934065283254E-06	9.37979171360222E-07	-5.01367160800809E-06	-1.37751599608037E-07	0.994757564734825	-0.0822856304026597
3.4	0.00481677764528882	0.00114445410765702	5.35059201262844E-06	4.80902800164146E-07	1.35011729267713E-06	4.45483362750493E-07	0.994682616769587	-0.0842892794282769
3.5	0.00473305357734012	0.000845185632651467	2.77202846942669E-06	1.55557853932756E-06	1.31414051421655E-06	7.91202012892011E-07	0.994507240175743	-0.0871012123042643
3.6	0.00454670235195167	0.000668899913462601	-7.15127274083179E-06	-1.23884978603501E-07	1.86100537138663E-06	-3.5012374027303E-06	0.994183201715991	-0.0896458665889069
3.7	0.00435384348058127	0.000582680114342253	5.77695924339812E-06	-1.52069345149198E-06	-3.27521429656117E-07	-1.73273688586261E-06	0.993956333588825	-0.0923316443861908
3.8	0.00425514187557625	0.000601645560074675	-2.00169136234476E-06	8.79824334254161E-07	-5.19472552707979E-06	3.05729012705988E-07	0.993575256518964	-0.0943450091943524
3.9	0.00427174633160397	0.000646098008928648	-8.36637190748089E-06	1.7923917692847E-06	-4.12103742541592E-06	-1.49456598407873E-06	0.993521677004696	-0.0974339689641713
4	0.00438332110281809	0.000642020358008401	-5.82733394056944E-06	3.7599020270806E-07	-9.51412904260393E-06	-8.44107686023135E-06	0.993197658807722	-0.098863808464118
4.1	0.00453078626368569	0.00056944802159358	-3.98250165954296E-06	4.07250623026099E-06	-1.87332157879857E-06	5.58565081098048E-06	0.993023026769895	-0.100686227601954
4.2	0.00466095005672968	0.000395815035114709	4.61536849846125E-06	-4.39265453580789E-06	6.7567181791621E-06	7.45515482168761E-07	0.992541463839775	-0.103322901279021
4.3	0.00472228979581506	0.000183421350672819	-3.79527681478162E-06	1.1325860110184E-06	3.5480643959543E-06	-1.21149959260255E-06	0.992424649918216	-0.105374398211696
4.4	0.00465135304890666	-4.84109538225511E-05	-3.15600167844597E-06	-4.93141770274309E-06	9.28691125957843E-07	-1.03773726978312E-06	0.991984635978196	-0.107680344631218
4.5	0.00446941568460308	-0.000207472869697485	-1.38858555510504E-06	2.03201552852868E-06	2.13225773467252E-06	-8.47623609112241E-06	0.991933085813807	-0.10982363278538
4.6	0.00420472172562689	-0.000319688344375956	5.40499963407167E-06	9.58956407154418E-06	-1.41906804683023E-05	9.82810759627445E-06	0.991714971073347	-0.112673443148987
4.7	0.00397617590887393	-0.000331797131603046	-7.60039175033586E-06	-9.55615124419288E-06	-1.14529677539953E-06	-1.3395132811522E-07	0.991595747691255	-0.114760296693754
4.8	0.00379800479436591	-0.000247885296748989	-8.74595010422856E-06	-2.68152762837639E-06	-4.37637325405339E-06	4.54678266464401E-06	0.991132241656356	-0.117314065460104
4.9	0.00379243301379436	-0.000151942986343392	5.77849627303231E-06	8.31237853327956E-06	-7.25386175848308E-06	3.28505274396761E-06	0.990715736700987	-0.119124596429136
5	0.00395155340854417	-0.000189163654041466	4.27506078737471E-06	-8.54598110770766E-06	-4.29625819157471E-06	-6.17832050466099E-06	0.990616714299973	-0.120723777243629
5.1	0.00420979864365292	-0.000321087677457511	1.5219620016347E-05	-1.02557082487339E-05	3.48599756088571E-06	-8.72905408539251E-06	0.990642268118977	-0.122123945468934
5.2	0.00444903183722763	-0.000616962188322656	-4.23615808444788E-06	-4.71582563264694E-06	-3.16455933631204E-06	5.25443426289685E-07	0.990400273822251	-0.124409615608255
5.3	0.00458231396398988	-0.000987531985118105	4.77907068997241E-06	3.37325752162494E-06	-9.29916149401965E-06	-4.74379060176735E-06	0.990171577967982	-0.126738077624103
5.4	0.00455157460105304	-0.00135496293140936	5.180417831057E-06	1.19904437940706E-06	-4.72805469948331E-07	1.04562106043301E-05	0.990167167664936	-0.129556890460111
5.5	0.00433606337446716	-0.00161903166271607	-1.81254683031545E-06	-1.9806491767555E-06	8.88190349675039E-06	5.07800763267392E-07	0.989949093000332	-0.13243864569208
5.6	0.0040561161930091	-0.00177923978891209	4.24575190674081E-06	7.22790331309858E-06	-4.65747645682106E-07	-8.61208219845279E-06	0.989637463850039	-0.135011993533001
5.7	0.00367479032973153	-0.00182156141195864	2.0553096686831E-06	-7.22066273777988E-07	5.47132536223275E-06	2.45376311796194E-06	0.989365334833997	-0.137537474564771
5.8	0.00328021920104896	-0.00174761333879908	3.91234853817043E-06	1.96025330197E-06	2.73316533679301E-06	7.83341069334148E-06	0.989210724848127	-0.139765933601078
5.9	0.00289622468799071	-0.00153259743893	-3.78312067573396E-06	-3.05679161220937E-06	-4.69934755372776E-06	-1.77929663488864E-06	0.988888646253615	-0.142041529542013
6	0.00252462116510036	-0.00131256527968525	-2.07674596401619E-06	1.70414516875868E-06	1.04313153051521E-05	-2.66054790392345E-06	0.988478077075751	-0.14379048343125
6.1	0.00222409974995363	-0.00107156468436018	-7.32757507343173E-06	-1.10453985716384E-06	-7.25242607446588E-07	-2.4836350444539E-06	0.988362096362733	-0.145086644385021
6.2	0.0019530831828723	-0.0009331953140053	-1.06148181528118E-06	1.9889874376992E-06	-3.48331729253262E-06	-5.36207978578808E-06	0.987998888779169	-0.146512189913691
6.3	0.00176849772448541	-0.000894203176680249	1.5776924659669E-06	2.82984994183273E-06	1.14777422490219E-06	5.97128503932206E-06	0.987601371734574	-0.148503926405349
6.4	0.00154736278300257	-0.000986644758978205	2.06969998744938E-06	5.03492769566289E-06	-3.33160087717527E-07	2.2728264055825E-07	0.987125721381773	-0.150653818489853
6.5	0.00132694870045254	-0.00107691625672572	4.6666142183923E-06	-1.87792649359113E-06	-4.68848484510932E-06	-1.54793775528875E-06	0.986871596915961	-0.153277999671069
6.6	0.00109111285702592	-0.00106732529439452	3.25865120801845E-07	-1.06865307507172E-06	9.29381937043411E-06	3.33768065977037E-06	0.986681107962347	-0.15590845737603
6.7	0.000873927761171753	-0.000925657317292858	5.27614036402109E-07	5.61114315447625E-06	-1.79077047920377E-06	4.97206357533817E-06	0.986425218550609	-0.158334286570857
6.8	0.000662389340122282	-0.000673188253860227	1.7635908260172E-07	-1.58618918192498E-06	-3.47452138211633E-06	-5.12030266982323E-06	0.985951877667249	-0.160652689761816
6.9	0.000471506833569442	-0.000347260894637136	-6.64619615373104E-06	6.71505648618873E-06	2.28668468752956E-06	1.35480351211245E-06	0.985600232337443	-0.162764838383486
7	0.00034864182403912	4.03508404276021E-05	8.0774219709882E-06	3.16786441706111E-06	4.5650573365377E-06	5.86441029314827E-06	0.98501254148989	-0.164587096227516
7.1	0.000197829794871927	0.000436485301062331	1.39531206432531E-06	7.84240987871202E-07	-2.27004595825658E-06	-4.47673920091655E-06	0.984511587824304	-0.166250596242851
7.2	6.64973888702081E-05	0.000850166007354867	-1.38694132711734E-07	4.39656000578444E-06	-5.00955040828306E-06	-6.61458135755978E-07	0.98385634988076	-0.167991777275095
7.3	-0.000131255405501363	0.00128480896342583	1.35505769256801E-06	-5.26121262993281E-06	-2.34552037515585E-06	-2.79008404671296E-06	0.982872632773233	-0.169708798768493
7.4	-0.000417116249421523	0.00172521730049391	1.83356898274155E-06	4.42074016609589E-06	-7.27044373359226E-07	-1.06929886152438E-06	0.981972973047363	-0.17192164840705
7.5	-0.000713683811149063	0.00222760398325991	-5.73836159794504E-06	-1.49294836927951E-06	-1.57399607443159E-06	-8.89749552114504E-06	0.981177063463611	-0.174336030981675
7.6	-0.00087954636158571	0.00275441215099147	5.62380404603483E-06	-3.3833418567558E-06	1.02094018174114E-06	3.18982756122897E-06	0.980567800722335	-0.177255493381331
7.7	-0.0010174621152315	0.0032213468776923	-6.50159201487496E-06	-2.86345139201986E-06	4.37457900071062E-06	5.67055154356231E-06	0.980159186653662	-0.180435977977608
7.8	-0.000855317616650831	0.00355796868662825	-1.08261097933079E-06	-5.35546595321105E-06	-2.13407277413976E-07	1.14330139391288E-06	0.979915044002341	-0.183620665415267
7.9	-0.00049787298308182	0.00376138764283305	-3.3473011326705E-06	7.20876335670693E-06	4.7179426389068E-07	-6.87922241265927E-06	0.979773908611689	-0.186820123632466
8	-6.38876215312865E-05	0.00386133211745856	-2.3407472037609E-07	7.38407455248192E-06	1.77235505357093E-06	-4.45687343306073E-06	0.979360770310763	-0.189841179563417
8.1	0.000345066879220164	0.00395084835257219	-7.37567206438523E-07	-6.46786640821343E-06	-1.7483968400398E-06	-1.06382326962508E-06	0.9788239246366	-0.192504651364122
8.2	0.000692240688654809	0.00403267524109025	-3.82822454212868E-06	1.65204577646317E-06	-1.09722327169243E-05	-2.61713675643065E-06	0.978538448747441	-0.194915395076274
8.3	0.000973333318930536	0.00414474930302896	-5.54870383685252E-06	-9.86317919413602E-06	-7.78946445024666E-06	3.02058733929394E-06	0.977946129910636	-0.197605134798345
8.4	0.0011961843919079	0.00438478264732414	6.77261030876333E-07	-6.10318172905426E-07	-1.41663173203543E-06	4.40736448995613E-07	0.977229367612641	-0.200236815490831
8.5	0.00144261352935031	0.00467702537346104	-1.7529751506725E-06	-2.57111906418996E-07	-7.82493283020542E-09	1.80415206782093E-06	0.976529072683881	-0.202996305580195
8.6	0.00173746210202981	0.00504198861078367	2.42778725199567E-06	-3.97341970631895E-06	-4.56530958932404E-06	-5.92374818002816E-06	0.976036142243976	-0.205587434150964
8.7	0.00215215469783991	0.0053997261863747	-1.49919309468229E-06	-2.09483635626034E-06	-3.55871830430332E-06	3.63886171579601E-06	0.975640800513421	-0.208159866240182
8.8	0.00269477955271118	0.00573666474732289	-5.49895295178542E-06	-2.12107669432662E-06	-7.23579303817364E-06	-1.26920275461276E-06	0.975246493170452	-0.210480089700169
8.9	0.00341653884267642	0.00589295087499946	8.55966086324881E-06	4.09684524600591E-06	-1.41757770047009E-06	3.20110231713632E-06	0.975233114389913	-0.212538963754005
9	0.0042369236694066	0.00580645647062612	-4.99456650875193E-07	4.16304082532665E-06	-7.82136293444331E-06	1.23150265034726E-06	0.975083024157589	-0.214894739554948
9.1	0.00506720953732169	0.00545638400069372	-2.55525309269644E-06	6.63858019957103E-06	4.1053485198475E-06	-3.08391868815294E-06	0.974780830562892	-0.217119091663833
9.2	0.0057466472253765	0.00490796619804449	-1.17583000084627E-06	3.42581834987704E-06	-2.24713699563909E-06	-2.0577134633106E-06	0.974316207157107	-0.21970920298977
9.3	0.00623814847113412	0.00431529289832982	2.32458721181635E-06	-4.04270363086785E-06	-7.93843274787506E-07	-1.78107165305134E-06	0.973846843511559	-0.22226620351086
9.4	0.00658799576663166	0.00372059656686241	-1.79865463657567E-06	3.8975910277539E-06	-2.06976208343125E-06	-3.57997379001752E-06	0.973192982571169	-0.22515850531246
9.5	0.00676797252112618	0.0033428796976451	3.49777605244141E-06	6.29497740557882E-06	3.66013174511956E-07	-2.15042461243638E-06	0.972429759811068	-0.227979315290314
9.6	0.00687654066684724	0.00301466337295929	4.62356069806246E-06	7.07714120107616E-06	-8.22788154497417E-06	1.2806377176171E-05	0.971693848731655	-0.231051502499658
9.7	0.00696662630742324	0.00280563562624104	-2.88266672368494E-06	-1.5334487844364E-06	-1.38749242771825E-06	-3.97125793606316E-06	0.9710205642946	-0.233606164853591
9.8	0.00706857943580167	0.00266200239797404	1.29776164165158E-07	-3.59712884303852E-06	3.04648765547558E-06	2.40062546300212E-06	0.970714532823396	-0.235705788067696
9.9	0.00719995368219357	0.00264922865870699	5.80216674191029E-06	-6.14592683626529E-07	-2.56932008034226E-06	6.73039877784631E-06	0.970251415930865	-0.237596369560097
10	0.00740471409716572	0.00260815466669974	-1.14212652135309E-06	-5.78975469357789E-07	1.36466624352252E-06	-1.1872624290622E-06	0.969790882812249	-0.23924365342277
10.1	0.00771149796779924	0.00256949639693254	7.12500076258807E-07	-8.42247163403839E-06	6.15886713807686E-06	3.60811136138382E-06	0.969313116555434	-0.240845259926179
10.2	0.00814009773824346	0.00245955013930002	7.49936804786613E-06	8.32192330731703E-06	5.22762641271152E-06	3.53123372487221E-06	0.968901689970695	-0.242289511998018
10.3	0.00863159576126434	0.00221962484007229	1.75581626270947E-06	-6.95841836926807E-06	1.42679320460285E-06	2.86821591842616E-06	0.968270113856893	-0.244127912774208
10.4	0.00917545770594747	0.00182887208206311	-4.02696105544026E-06	-3.63889478610854E-06	1.95339262471689E-06	-5.59631854964073E-06	0.967437809340034	-0.246231610906605
10.5	0.00967337380960603	0.00132830915234045	3.75264975503278E-07	-7.0655145297898E-06	-5.72969104913625E-06	4.07118749521869E-06	0.966668930984833	-0.248663539437757
10.6	0.010149307571273	0.00074662593216543	5.4887334934075E-06	6.73638923913374E-06	2.43386940052302E-06	1.19428952510398E-06	0.965956855491006	-0.251197555979368
10.7	0.0105487236146919	0.000164435977820204	-7.07756822406077E-06	-1.69029463017945E-06	-7.73291644752323E-07	1.55967611212664E-06	0.965244714388329	-0.253966458746432
10.8	0.0109475747801676	-0.000476026707606722	1.48720626478424E-06	4.44297508826751E-06	9.41451334382158E-06	-4.47044444401472E-06	0.964492385494545	-0.256024089465069
10.9	0.0112552391714812	-0.00116814451688846	3.2660446247352E-07	7.42118238983422E-06	-5.16345923766675E-06	2.08725020448516E-07	0.964141648917767	-0.257989326373018
11	0.0116195729766607	-0.0019194491794214	-2.2266297453255E-06	-3.82586016115806E-06	1.20437114597327E-05	-3.55899873421385E-06	0.963616107787603	-0.259719839473697
11.1	0.0119453682283405	-0.00276943668638922	-6.12121980086134E-06	-4.93469422574463E-06	9.51975596832553E-07	5.58013386770547E-06	0.962937698731757	-0.261384547991233
11.2	0.0122238580201926	-0.00379347396658704	3.31794965272657E-06	4.30628742903583E-06	1.06171570690414E-06	-7.88260781327839E-06	0.962152195659056	-0.263140029332493
11.3	0.0124473230493586	-0.00500675016819628	7.12342144018134E-07	-2.65968400354502E-06	-4.84067193116938E-06	9.12248541173294E-06	0.961582441483632	-0.264984520889272
11.4	0.0123566645018618	-0.00631984002153433	1.477358149751E-06	-2.20436170548925E-06	-3.01416233022884E-06	-7.44157180816308E-06	0.960617553797155	-0.2675193601032
11.5	0.0120193530797232	-0.00767488861285572	9.48314814759267E-07	-1.01073357360449E-06	-9.0270113626284E-07	-8.71800197080362E-07	0.959542523281478	-0.270241273841115
11.6	0.0115306749417293	-0.0090598469363697	1.12343462583285E-05	-3.28063294967803E-06	-5.42837915367972E-06	-6.83630491530887E-06	0.958363259490689	-0.273730057980985
11.7	0.0108418884695377	-0.0104176618454289	5.3303544465003E-06	-2.90131335957399E-06	-4.41333182456867E-06	1.6548421833828E-06	0.957170448530926	-0.277197608835489
11.8	0.0100046157227483	-0.0116340532535448	-4.52109794489385E-07	-2.54951688250684E-06	1.06846357573442E-06	1.32722165992089E-05	0.95616265267489	-0.280719750006457
11.9	0.00915841769083729	-0.0127355365249538	3.32747737255822E-06	1.99042190563545E-06	-1.27820666002727E-08	1.27444082914116E-05	0.955654674056743	-0.283206994034364
12	0.00804294490813008	-0.0137753107362375	2.00518518118998E-06	4.84041147149084E-07	-3.70169164695874E-06	-9.70371467578851E-07	0.954944629275496	-0.285686677014939
